# GHz S RI R 50

2.394000000000000e+00 -5.1328412109604990e-03  5.8702692494773133e-02
2.394001000000000e+00 -5.1314481677611741e-03  5.8703431032496346e-02
2.394002000000000e+00 -5.1300551281555371e-03  5.8704169554651617e-02
2.394003000000000e+00 -5.1286620922644374e-03  5.8704908061290008e-02
2.394004000000000e+00 -5.1272690599248587e-03  5.8705646552685363e-02
2.394005000000000e+00 -5.1258760311792195e-03  5.8706385028627878e-02
2.394006000000000e+00 -5.1244830061174052e-03  5.8707123489242174e-02
2.394007000000000e+00 -5.1230899845859205e-03  5.8707861934351534e-02
2.394008000000000e+00 -5.1216969667973551e-03  5.8708600364041588e-02
2.394009000000000e+00 -5.1203039524807207e-03  5.8709338778453093e-02
2.394010000000000e+00 -5.1189109419464184e-03  5.8710077177147810e-02
2.394011000000000e+00 -5.1175179348679099e-03  5.8710815560847444e-02
2.394012000000000e+00 -5.1161249314150030e-03  5.8711553929091241e-02
2.394013000000000e+00 -5.1147319317450951e-03  5.8712292281630822e-02
2.394014000000000e+00 -5.1133389355832847e-03  5.8713030619033782e-02
2.394015000000000e+00 -5.1119459429682552e-03  5.8713768941031232e-02
2.394016000000000e+00 -5.1105529541523509e-03  5.8714507247261453e-02
2.394017000000000e+00 -5.1091599688566523e-03  5.8715245538441353e-02
2.394018000000000e+00 -5.1077669870278394e-03  5.8715983814548636e-02
2.394019000000000e+00 -5.1063740090813523e-03  5.8716722074595606e-02
2.394020000000000e+00 -5.1049810346827850e-03  5.8717460319388910e-02
2.394021000000000e+00 -5.1035880638583492e-03  5.8718198548846495e-02
2.394022000000000e+00 -5.1021950966182641e-03  5.8718936763021513e-02
2.394023000000000e+00 -5.1008021330188622e-03  5.8719674961777914e-02
2.394024000000000e+00 -5.0994091731092995e-03  5.8720413145066784e-02
2.394025000000000e+00 -5.0980162168696441e-03  5.8721151312696229e-02
2.394026000000000e+00 -5.0966232640266814e-03  5.8721889465528643e-02
2.394027000000000e+00 -5.0952303148552236e-03  5.8722627602781768e-02
2.394028000000000e+00 -5.0938373694968831e-03  5.8723365724199603e-02
2.394029000000000e+00 -5.0924444277209826e-03  5.8724103830412239e-02
2.394030000000000e+00 -5.0910514895408498e-03  5.8724841921162389e-02
2.394031000000000e+00 -5.0896585548663928e-03  5.8725579996803987e-02
2.394032000000000e+00 -5.0882656239461385e-03  5.8726318056808606e-02
2.394033000000000e+00 -5.0868726964914826e-03  5.8727056101773450e-02
2.394034000000000e+00 -5.0854797727833117e-03  5.8727794130902275e-02
2.394035000000000e+00 -5.0840868526161615e-03  5.8728532144922435e-02
2.394036000000000e+00 -5.0826939362701596e-03  5.8729270143209243e-02
2.394037000000000e+00 -5.0813010234271351e-03  5.8730008126248387e-02
2.394038000000000e+00 -5.0799081141613116e-03  5.8730746094009752e-02
2.394039000000000e+00 -5.0785152085339406e-03  5.8731484046355531e-02
2.394040000000000e+00 -5.0771223066413728e-03  5.8732221983097202e-02
2.394041000000000e+00 -5.0757294082738090e-03  5.8732959904691087e-02
2.394042000000000e+00 -5.0743365134617423e-03  5.8733697810900584e-02
2.394043000000000e+00 -5.0729436224538566e-03  5.8734435701436570e-02
2.394044000000000e+00 -5.0715507349732751e-03  5.8735173576696616e-02
2.394045000000000e+00 -5.0701578511719728e-03  5.8735911436467461e-02
2.394046000000000e+00 -5.0687649708660507e-03  5.8736649281189844e-02
2.394047000000000e+00 -5.0673720943160876e-03  5.8737387110153562e-02
2.394048000000000e+00 -5.0659792213884934e-03  5.8738124923795799e-02
2.394049000000000e+00 -5.0645863520399556e-03  5.8738862722031923e-02
2.394050000000000e+00 -5.0631934864310531e-03  5.8739600504826302e-02
2.394051000000000e+00 -5.0618006242924979e-03  5.8740338272434543e-02
2.394052000000000e+00 -5.0604077657405598e-03  5.8741076024746215e-02
2.394053000000000e+00 -5.0590149109477067e-03  5.8741813761429562e-02
2.394054000000000e+00 -5.0576220598807804e-03  5.8742551482519299e-02
2.394055000000000e+00 -5.0562292122598787e-03  5.8743289188433231e-02
2.394056000000000e+00 -5.0548363682870667e-03  5.8744026879030499e-02
2.394057000000000e+00 -5.0534435280057601e-03  5.8744764554159792e-02
2.394058000000000e+00 -5.0520506914003109e-03  5.8745502213694664e-02
2.394059000000000e+00 -5.0506578582765185e-03  5.8746239858098195e-02
2.394060000000000e+00 -5.0492650289109377e-03  5.8746977486979594e-02
2.394061000000000e+00 -5.0478722030443219e-03  5.8747715100614613e-02
2.394062000000000e+00 -5.0464793810548660e-03  5.8748452698330240e-02
2.394063000000000e+00 -5.0450865624494445e-03  5.8749190281336433e-02
2.394064000000000e+00 -5.0436937475846228e-03  5.8749927848693276e-02
2.394065000000000e+00 -5.0423009363097810e-03  5.8750665400544189e-02
2.394066000000000e+00 -5.0409081286369251e-03  5.8751402937133483e-02
2.394067000000000e+00 -5.0395153246838749e-03  5.8752140458270805e-02
2.394068000000000e+00 -5.0381225243494423e-03  5.8752877964059508e-02
2.394069000000000e+00 -5.0367297276889961e-03  5.8753615454133205e-02
2.394070000000000e+00 -5.0353369344989926e-03  5.8754352929382539e-02
2.394071000000000e+00 -5.0339441451851766e-03  5.8755090388553526e-02
2.394072000000000e+00 -5.0325513592758544e-03  5.8755827832805009e-02
2.394073000000000e+00 -5.0311585771335536e-03  5.8756565261586409e-02
2.394074000000000e+00 -5.0297657985429647e-03  5.8757302674931233e-02
2.394075000000000e+00 -5.0283730235890622e-03  5.8758040072997009e-02
2.394076000000000e+00 -5.0269802522643573e-03  5.8758777455738084e-02
2.394077000000000e+00 -5.0255874847118017e-03  5.8759514822592257e-02
2.394078000000000e+00 -5.0241947207179029e-03  5.8760252174327836e-02
2.394079000000000e+00 -5.0228019602159913e-03  5.8760989510943717e-02
2.394080000000000e+00 -5.0214092035173498e-03  5.8761726831847792e-02
2.394081000000000e+00 -5.0200164503960481e-03  5.8762464137467482e-02
2.394082000000000e+00 -5.0186237008687500e-03  5.8763201427794759e-02
2.394083000000000e+00 -5.0172309551876236e-03  5.8763938702388482e-02
2.394084000000000e+00 -5.0158382128218165e-03  5.8764675962000697e-02
2.394085000000000e+00 -5.0144454743515391e-03  5.8765413205844066e-02
2.394086000000000e+00 -5.0130527394740615e-03  5.8766150434410414e-02
2.394087000000000e+00 -5.0116600080976417e-03  5.8766887647756609e-02
2.394088000000000e+00 -5.0102672805709264e-03  5.8767624845260144e-02
2.394089000000000e+00 -5.0088745564090950e-03  5.8768362028037646e-02
2.394090000000000e+00 -5.0074818360738675e-03  5.8769099194970753e-02
2.394091000000000e+00 -5.0060891193161117e-03  5.8769836346706843e-02
2.394092000000000e+00 -5.0046964061260576e-03  5.8770573483216605e-02
2.394093000000000e+00 -5.0033036967654333e-03  5.8771310603805041e-02
2.394094000000000e+00 -5.0019109909426440e-03  5.8772047709296643e-02
2.394095000000000e+00 -5.0005182886841857e-03  5.8772784799545806e-02
2.394096000000000e+00 -4.9991255902243478e-03  5.8773521874069742e-02
2.394097000000000e+00 -4.9977328953299633e-03  5.8774258933386558e-02
2.394098000000000e+00 -4.9963402040396100e-03  5.8774995977413952e-02
2.394099000000000e+00 -4.9949475164083731e-03  5.8775733005846174e-02
2.394100000000000e+00 -4.9935548324517541e-03  5.8776470018935885e-02
2.394101000000000e+00 -4.9921621520696846e-03  5.8777207016801697e-02
2.394102000000000e+00 -4.9907694754371028e-03  5.8777943998900024e-02
2.394103000000000e+00 -4.9893768023708497e-03  5.8778680965846111e-02
2.394104000000000e+00 -4.9879841328912397e-03  5.8779417917468629e-02
2.394105000000000e+00 -4.9865914671526710e-03  5.8780154853576280e-02
2.394106000000000e+00 -4.9851988050004185e-03  5.8780891774390741e-02
2.394107000000000e+00 -4.9838061465905257e-03  5.8781628679637474e-02
2.394108000000000e+00 -4.9824134916819224e-03  5.8782365569705494e-02
2.394109000000000e+00 -4.9810208404421560e-03  5.8783102444363751e-02
2.394110000000000e+00 -4.9796281929238660e-03  5.8783839303552195e-02
2.394111000000000e+00 -4.9782355489422295e-03  5.8784576147447455e-02
2.394112000000000e+00 -4.9768429087679051e-03  5.8785312975653502e-02
2.394113000000000e+00 -4.9754502720881352e-03  5.8786049788842644e-02
2.394114000000000e+00 -4.9740576391170679e-03  5.8786786586435033e-02
2.394115000000000e+00 -4.9726650097697903e-03  5.8787523368621482e-02
2.394116000000000e+00 -4.9712723839614994e-03  5.8788260135719160e-02
2.394117000000000e+00 -4.9698797620693659e-03  5.8788996886871815e-02
2.394118000000000e+00 -4.9684871435314183e-03  5.8789733623210841e-02
2.394119000000000e+00 -4.9670945288217338e-03  5.8790470343784547e-02
2.394120000000000e+00 -4.9657019176499303e-03  5.8791207049241359e-02
2.394121000000000e+00 -4.9643093101561994e-03  5.8791943739158976e-02
2.394122000000000e+00 -4.9629167063931284e-03  5.8792680413578505e-02
2.394123000000000e+00 -4.9615241060977210e-03  5.8793417072921218e-02
2.394124000000000e+00 -4.9601315096338928e-03  5.8794153716587784e-02
2.394125000000000e+00 -4.9587389167993785e-03  5.8794890344751487e-02
2.394126000000000e+00 -4.9573463277032643e-03  5.8795626957384065e-02
2.394127000000000e+00 -4.9559537419403650e-03  5.8796363555303974e-02
2.394128000000000e+00 -4.9545611600781943e-03  5.8797100137322034e-02
2.394129000000000e+00 -4.9531685817139305e-03  5.8797836704250220e-02
2.394130000000000e+00 -4.9517760070497963e-03  5.8798573255702279e-02
2.394131000000000e+00 -4.9503834360729417e-03  5.8799309791645556e-02
2.394132000000000e+00 -4.9489908687470286e-03  5.8800046312217788e-02
2.394133000000000e+00 -4.9475983050448246e-03  5.8800782817500064e-02
2.394134000000000e+00 -4.9462057450598285e-03  5.8801519307273967e-02
2.394135000000000e+00 -4.9448131885594000e-03  5.8802255781923933e-02
2.394136000000000e+00 -4.9434206358016999e-03  5.8802992241038743e-02
2.394137000000000e+00 -4.9420280867339137e-03  5.8803728684648240e-02
2.394138000000000e+00 -4.9406355412438306e-03  5.8804465113046600e-02
2.394139000000000e+00 -4.9392429994622343e-03  5.8805201525898562e-02
2.394140000000000e+00 -4.9378504613578752e-03  5.8805937923316377e-02
2.394141000000000e+00 -4.9364579267741340e-03  5.8806674305633480e-02
2.394142000000000e+00 -4.9350653959934869e-03  5.8807410672197684e-02
2.394143000000000e+00 -4.9336728687615549e-03  5.8808147023721717e-02
2.394144000000000e+00 -4.9322803451174926e-03  5.8808883359867177e-02
2.394145000000000e+00 -4.9308878253182262e-03  5.8809619680294432e-02
2.394146000000000e+00 -4.9294953091359311e-03  5.8810355985336411e-02
2.394147000000000e+00 -4.9281027964143366e-03  5.8811092275421764e-02
2.394148000000000e+00 -4.9267102875892735e-03  5.8811828549614753e-02
2.394149000000000e+00 -4.9253177822597581e-03  5.8812564808723294e-02
2.394150000000000e+00 -4.9239252806398265e-03  5.8813301052381646e-02
2.394151000000000e+00 -4.9225327826656730e-03  5.8814037280667537e-02
2.394152000000000e+00 -4.9211402882909996e-03  5.8814773493713966e-02
2.394153000000000e+00 -4.9197477976126117e-03  5.8815509691266310e-02
2.394154000000000e+00 -4.9183553105615974e-03  5.8816245873353185e-02
2.394155000000000e+00 -4.9169628272082719e-03  5.8816982040148597e-02
2.394156000000000e+00 -4.9155703476170534e-03  5.8817718191269408e-02
2.394157000000000e+00 -4.9141778714146944e-03  5.8818454327607683e-02
2.394158000000000e+00 -4.9127853991148352e-03  5.8819190447819004e-02
2.394159000000000e+00 -4.9113929303929065e-03  5.8819926553085870e-02
2.394160000000000e+00 -4.9100004652877192e-03  5.8820662642856750e-02
2.394161000000000e+00 -4.9086080037288888e-03  5.8821398717623367e-02
2.394162000000000e+00 -4.9072155461507101e-03  5.8822134776237267e-02
2.394163000000000e+00 -4.9058230919734975e-03  5.8822870820048223e-02
2.394164000000000e+00 -4.9044306415277133e-03  5.8823606848283132e-02
2.394165000000000e+00 -4.9030381947395094e-03  5.8824342861083678e-02
2.394166000000000e+00 -4.9016457515728166e-03  5.8825078858626541e-02
2.394167000000000e+00 -4.9002533120160695e-03  5.8825814840937879e-02
2.394168000000000e+00 -4.8988608762914965e-03  5.8826550807443992e-02
2.394169000000000e+00 -4.8974684440835463e-03  5.8827286758873422e-02
2.394170000000000e+00 -4.8960760155224211e-03  5.8828022694896530e-02
2.394171000000000e+00 -4.8946835906478487e-03  5.8828758615545235e-02
2.394172000000000e+00 -4.8932911694932286e-03  5.8829494520656118e-02
2.394173000000000e+00 -4.8918987519059954e-03  5.8830230410513225e-02
2.394174000000000e+00 -4.8905063380424493e-03  5.8830966284975722e-02
2.394175000000000e+00 -4.8891139278249389e-03  5.8831702143977545e-02
2.394176000000000e+00 -4.8877215212076311e-03  5.8832437987871085e-02
2.394177000000000e+00 -4.8863291184119582e-03  5.8833173815832772e-02
2.394178000000000e+00 -4.8849367190950330e-03  5.8833909628915729e-02
2.394179000000000e+00 -4.8835443236577639e-03  5.8834645426121941e-02
2.394180000000000e+00 -4.8821519315879695e-03  5.8835381208619378e-02
2.394181000000000e+00 -4.8807595432978175e-03  5.8836116975315558e-02
2.394182000000000e+00 -4.8793671587176709e-03  5.8836852726714128e-02
2.394183000000000e+00 -4.8779747778604846e-03  5.8837588462539392e-02
2.394184000000000e+00 -4.8765824005319834e-03  5.8838324183360019e-02
2.394185000000000e+00 -4.8751900269418192e-03  5.8839059888437406e-02
2.394186000000000e+00 -4.8737976568891724e-03  5.8839795578605678e-02
2.394187000000000e+00 -4.8724052907281419e-03  5.8840531252754409e-02
2.394188000000000e+00 -4.8710129280337116e-03  5.8841266912064275e-02
2.394189000000000e+00 -4.8696205690516589e-03  5.8842002555753281e-02
2.394190000000000e+00 -4.8682282138196543e-03  5.8842738183971434e-02
2.394191000000000e+00 -4.8668358621753250e-03  5.8843473796938148e-02
2.394192000000000e+00 -4.8654435141842695e-03  5.8844209394495472e-02
2.394193000000000e+00 -4.8640511699111107e-03  5.8844944976596703e-02
2.394194000000000e+00 -4.8626588292329156e-03  5.8845680543496426e-02
2.394195000000000e+00 -4.8612664923076672e-03  5.8846416094846976e-02
2.394196000000000e+00 -4.8598741589978714e-03  5.8847151630838125e-02
2.394197000000000e+00 -4.8584818292401093e-03  5.8847887151751502e-02
2.394198000000000e+00 -4.8570895033203023e-03  5.8848622656895992e-02
2.394199000000000e+00 -4.8556971810796998e-03  5.8849358146680450e-02
2.394200000000000e+00 -4.8543048623404641e-03  5.8850093621380592e-02
2.394201000000000e+00 -4.8529125473789347e-03  5.8850829080463338e-02
2.394202000000000e+00 -4.8515202360162619e-03  5.8851564524263045e-02
2.394203000000000e+00 -4.8501279283606428e-03  5.8852299952725548e-02
2.394204000000000e+00 -4.8487356243662703e-03  5.8853035365640370e-02
2.394205000000000e+00 -4.8473433240681192e-03  5.8853770763293879e-02
2.394206000000000e+00 -4.8459510273086426e-03  5.8854506145733732e-02
2.394207000000000e+00 -4.8445587343529861e-03  5.8855241512602824e-02
2.394208000000000e+00 -4.8431664451577669e-03  5.8855976863845250e-02
2.394209000000000e+00 -4.8417741594359610e-03  5.8856712200144594e-02
2.394210000000000e+00 -4.8403818774148191e-03  5.8857447520935822e-02
2.394211000000000e+00 -4.8389895992453670e-03  5.8858182825876869e-02
2.394212000000000e+00 -4.8375973244554954e-03  5.8858918116264494e-02
2.394213000000000e+00 -4.8362050536180584e-03  5.8859653390501518e-02
2.394214000000000e+00 -4.8348127862711679e-03  5.8860388649856300e-02
2.394215000000000e+00 -4.8334205226290292e-03  5.8861123893684891e-02
2.394216000000000e+00 -4.8320282625790309e-03  5.8861859122412978e-02
2.394217000000000e+00 -4.8306360062809221e-03  5.8862594335445530e-02
2.394218000000000e+00 -4.8292437536153312e-03  5.8863329533267582e-02
2.394219000000000e+00 -4.8278515047212528e-03  5.8864064715362582e-02
2.394220000000000e+00 -4.8264592593959829e-03  5.8864799882351611e-02
2.394221000000000e+00 -4.8250670178246009e-03  5.8865535033960602e-02
2.394222000000000e+00 -4.8236747799292453e-03  5.8866270170029843e-02
2.394223000000000e+00 -4.8222825455940081e-03  5.8867005290984681e-02
2.394224000000000e+00 -4.8208903149970176e-03  5.8867740396481925e-02
2.394225000000000e+00 -4.8194980880903642e-03  5.8868475486408021e-02
2.394226000000000e+00 -4.8181058647832654e-03  5.8869210561308095e-02
2.394227000000000e+00 -4.8167136452025427e-03  5.8869945620531841e-02
2.394228000000000e+00 -4.8153214293369618e-03  5.8870680664459510e-02
2.394229000000000e+00 -4.8139292170618032e-03  5.8871415693204865e-02
2.394230000000000e+00 -4.8125370085653381e-03  5.8872150706078277e-02
2.394231000000000e+00 -4.8111448036071182e-03  5.8872885704180797e-02
2.394232000000000e+00 -4.8097526023788357e-03  5.8873620686568165e-02
2.394233000000000e+00 -4.8083604048907965e-03  5.8874355653438001e-02
2.394234000000000e+00 -4.8069682109964079e-03  5.8875090605262671e-02
2.394235000000000e+00 -4.8055760207180017e-03  5.8875825541748576e-02
2.394236000000000e+00 -4.8041838341866582e-03  5.8876560462749854e-02
2.394237000000000e+00 -4.8027916514246580e-03  5.8877295368137919e-02
2.394238000000000e+00 -4.8013994722784070e-03  5.8878030258291802e-02
2.394239000000000e+00 -4.8000072966905664e-03  5.8878765133290954e-02
2.394240000000000e+00 -4.7986151248982280e-03  5.8879499992670448e-02
2.394241000000000e+00 -4.7972229568523424e-03  5.8880234836513251e-02
2.394242000000000e+00 -4.7958307923123642e-03  5.8880969665344167e-02
2.394243000000000e+00 -4.7944386315265514e-03  5.8881704478670568e-02
2.394244000000000e+00 -4.7930464744461165e-03  5.8882439276534290e-02
2.394245000000000e+00 -4.7916543209636803e-03  5.8883174059241837e-02
2.394246000000000e+00 -4.7902621712674195e-03  5.8883908826258609e-02
2.394247000000000e+00 -4.7888700251485878e-03  5.8884643578204526e-02
2.394248000000000e+00 -4.7874778827808650e-03  5.8885378314595518e-02
2.394249000000000e+00 -4.7860857440912277e-03  5.8886113035642569e-02
2.394250000000000e+00 -4.7846936089716826e-03  5.8886847741413936e-02
2.394251000000000e+00 -4.7833014775905272e-03  5.8887582431858966e-02
2.394252000000000e+00 -4.7819093499408662e-03  5.8888317106644897e-02
2.394253000000000e+00 -4.7805172259613015e-03  5.8889051766181422e-02
2.394254000000000e+00 -4.7791251055489172e-03  5.8889786410672385e-02
2.394255000000000e+00 -4.7777329889089554e-03  5.8890521039419642e-02
2.394256000000000e+00 -4.7763408759367862e-03  5.8891255652859763e-02
2.394257000000000e+00 -4.7749487666432821e-03  5.8891990251008601e-02
2.394258000000000e+00 -4.7735566610002667e-03  5.8892724833719261e-02
2.394259000000000e+00 -4.7721645590637820e-03  5.8893459401165860e-02
2.394260000000000e+00 -4.7707724607990382e-03  5.8894193953083949e-02
2.394261000000000e+00 -4.7693803662971247e-03  5.8894928489528986e-02
2.394262000000000e+00 -4.7679882753001637e-03  5.8895663011062215e-02
2.394263000000000e+00 -4.7665961881014672e-03  5.8896397516905334e-02
2.394264000000000e+00 -4.7652041045327474e-03  5.8897132007529565e-02
2.394265000000000e+00 -4.7638120247934573e-03  5.8897866482416045e-02
2.394266000000000e+00 -4.7624199485735491e-03  5.8898600942248462e-02
2.394267000000000e+00 -4.7610278761411121e-03  5.8899335386599770e-02
2.394268000000000e+00 -4.7596358073773385e-03  5.8900069815426261e-02
2.394269000000000e+00 -4.7582437422159368e-03  5.8900804229130542e-02
2.394270000000000e+00 -4.7568516808159673e-03  5.8901538627487197e-02
2.394271000000000e+00 -4.7554596231232319e-03  5.8902273010171369e-02
2.394272000000000e+00 -4.7540675689118099e-03  5.8903007378076917e-02
2.394273000000000e+00 -4.7526755185924438e-03  5.8903741730068807e-02
2.394274000000000e+00 -4.7512834719213902e-03  5.8904476066770406e-02
2.394275000000000e+00 -4.7498914289256294e-03  5.8905210388179571e-02
2.394276000000000e+00 -4.7484993895562490e-03  5.8905944694278893e-02
2.394277000000000e+00 -4.7471073539720491e-03  5.8906678984951139e-02
2.394278000000000e+00 -4.7457153219260424e-03  5.8907413260412350e-02
2.394279000000000e+00 -4.7443232937897529e-03  5.8908147520103551e-02
2.394280000000000e+00 -4.7429312691389331e-03  5.8908881764745173e-02
2.394281000000000e+00 -4.7415392481925936e-03  5.8909615994071046e-02
2.394282000000000e+00 -4.7401472310114393e-03  5.8910350207783818e-02
2.394283000000000e+00 -4.7387552175290008e-03  5.8911084406189536e-02
2.394284000000000e+00 -4.7373632076123115e-03  5.8911818589471483e-02
