!Copyright - 2018 NXP B.V.
! 10/30/2018
! Rev. 0
! MHT2012N S-Parameters
! Vdd = 28 Vdc, IDQ1 = 12 mA IDQ2 = 72 mA
# hz S ma R 50
! freq  magS11  angS11  magS21  angS21  magS12  angS12  magS22  angS22  
!     
          2.3e+009        0.16873697         -154.11937         17.7239029         170.255015      0.00263742822         84.3100457        0.821510125         168.499107
        2.305e+009       0.160696753          -151.3251         17.7232172         168.928774      0.00262148364         84.3021881        0.818444559          168.16733
         2.31e+009       0.152530087        -148.289917         17.7827841         167.600555      0.00260796367         84.2680747        0.815235862         167.803374
        2.315e+009       0.146503664        -144.949629         17.7368627         166.310279      0.00257907673         84.0786463        0.814560821         167.563448
         2.32e+009       0.140454081        -141.334837         17.7455902         165.008716      0.00255280823         83.8376467         0.81446469         167.338515
        2.325e+009       0.136069172        -137.388361         17.7276854         163.676117      0.00251995083         83.6143756        0.810104899         167.174436
         2.33e+009       0.132098176         -133.11296         17.7646902         162.351763      0.00249337417         83.4860789        0.806868143         167.005186
        2.335e+009       0.130137863        -128.491104         17.7402664         161.034498      0.00247381952         84.1637679        0.804923226         166.803067
         2.34e+009       0.128966734        -123.697469          17.764654         159.719816      0.00245696694         84.6413667        0.802863491         166.627077
        2.345e+009       0.129772326        -119.026913         17.7746991         158.338543      0.00244502041         84.4472194        0.797261667         166.422347
         2.35e+009       0.131480539        -114.434413         17.8084922         157.004836      0.00243552428         84.3735316        0.793323663         166.219329
        2.355e+009        0.13433457        -110.149109         17.8094184         155.677297      0.00242531149         84.4996216        0.790996256         165.957307
         2.36e+009       0.138144765        -106.125249         17.8334253         154.381593      0.00241086383         84.7124606        0.787829874         165.678416
        2.365e+009       0.143080296         -102.45766         17.8491198         153.073696      0.00238711194         84.9927649        0.782969507            165.316
         2.37e+009       0.148973375        -99.1057022         17.8689257         151.769166      0.00236568341         85.3264185        0.778005766         164.938773
        2.375e+009       0.155200937        -96.0577783         17.9043331         150.449762      0.00234773779         85.7121986        0.773309552         164.538036
         2.38e+009       0.162151096        -93.4651392         17.9262689         149.154929      0.00234293801         86.1032734        0.769073479         164.153394
        2.385e+009       0.169844855         -91.052366         17.9559894         147.852797      0.00234760493          86.508638        0.765239831         163.796779
         2.39e+009       0.177816785        -89.1762505         17.9510538         146.540976       0.0023376784         86.8266126        0.761599823         163.531184
        2.395e+009       0.185862002        -87.3470277         17.9774445         145.213208      0.00232366234         87.0803888        0.758347783         163.280669
          2.4e+009       0.194143069        -86.0543559         17.9235996         143.938276      0.00231856486         87.3492229        0.756757028         163.094104
        2.405e+009       0.202690721        -84.7845704         17.8977515         142.653545      0.00231880722         87.6269017        0.756711885         162.914655
         2.41e+009       0.211254491        -83.9065731          17.843435         141.377855      0.00230172567         87.9438879        0.755861792         162.805178
        2.415e+009       0.220280382        -82.9497653         17.8431054         140.059896      0.00228398849         88.2109813        0.755844424         162.702038
         2.42e+009       0.228902913        -82.4821486         17.8019952         138.749769      0.00225536652         88.5189186        0.750969052         162.601638
        2.425e+009       0.237919411        -81.9480828         17.8222206          137.41873      0.00222917822         88.7844882        0.746816483         162.459123
         2.43e+009       0.247046973        -81.8096057         17.7912678         136.108754      0.00222438151         89.3391979        0.742126624         162.298254
        2.435e+009        0.25668608        -81.5075684         17.8034097         134.795538      0.00222189954         89.8668253        0.738542989         162.041945
         2.44e+009       0.265841688        -81.5638416          17.749635         133.655576      0.00223344944         90.3566892        0.737106174         161.509333
        2.445e+009       0.275395824        -81.4487298          17.743016         132.463205        0.002243204         90.8876568        0.734932245         161.051637
         2.45e+009       0.284567095        -81.5981628         17.7336866         131.059779      0.00223954009         91.4431954        0.725728007          161.00694
        2.455e+009       0.293715167         -81.630043         17.7486899         129.698213      0.00223790042         91.9582189        0.718519737         160.830296
         2.46e+009       0.302668279        -81.8546513         17.7175864         128.462761      0.00223848583         92.3990242        0.714989671         160.475393
        2.465e+009       0.311433711        -82.0066866         17.7082084         127.225212      0.00224149772         92.7734266         0.71268802          160.12236
         2.47e+009       0.319782027        -82.3089854         17.6797917         125.989751      0.00224601926         93.0453293        0.711230914         159.787911
        2.475e+009       0.328319848        -82.5422038         17.6536829           124.7511      0.00224373809         93.1664966        0.711328353         159.461348
         2.48e+009       0.336249458         -82.816243         17.6043935         123.511189      0.00223191787         93.1020679        0.712718447         159.144615
        2.485e+009       0.344129599        -83.1776757         17.5757195         122.243832      0.00223532223         93.1422432        0.712273585         158.928061
         2.49e+009       0.352048382        -83.5154752         17.5857034         120.989033      0.00225250531         93.3387906        0.710607661         158.796268
        2.495e+009       0.359605928        -83.9218205         17.5732137         119.660663      0.00225278559          93.533658        0.707782021         158.701978
          2.5e+009       0.367389613        -84.2939907         17.5906242         118.316848      0.00224624353          93.740589        0.703998842         158.592535
        2.505e+009         0.3746959         -84.746407         17.5536131         117.024827      0.00224213281         93.8935705        0.700283047         158.459673
         2.51e+009       0.382711088        -85.1689351         17.5488534         115.707042      0.00224236788         93.9986508        0.697052994         158.283816
        2.515e+009       0.389653775        -85.7469729         17.5152043         114.403942      0.00223917292         93.8969709        0.692165383          158.13701
         2.52e+009       0.397226217        -86.2443626         17.5377057          113.08951      0.00223976422         93.7371293        0.687770944         157.933027
        2.525e+009       0.404288887         -86.903209         17.4947265         111.829006      0.00223810687          93.967964        0.683344763         157.641081
         2.53e+009       0.412166717        -87.4287124         17.5110115         110.583812      0.00223949088         94.2614756        0.679899664         157.294049
        2.535e+009       0.418984877        -88.0949308         17.4697282         109.351663      0.00222829979         94.6684265        0.676748224         156.841788
         2.54e+009       0.426717552         -88.612368         17.4827404          108.11699      0.00221971212         95.0896854        0.674550233         156.376861
        2.545e+009       0.433675946        -89.1868281         17.4472226         106.938143       0.0022194961         95.8889876        0.672397053          155.98796
         2.55e+009         0.4412614        -89.6993345         17.4420416         105.736131      0.00221899659         96.5173949        0.671345474         155.586808
        2.555e+009       0.447872191        -90.3414771         17.3807647         104.550887      0.00221940803         96.3920097         0.67101689         155.267823
         2.56e+009       0.454794978         -90.876795         17.3590778           103.3215        0.002218558         96.5145548        0.670881817         155.015379
        2.565e+009       0.461211488        -91.4630695         17.3300325         101.939261      0.00220461093         97.3088293        0.667383783         154.981854
         2.57e+009       0.467706604        -92.0127244         17.3143873         100.641642      0.00219242812         98.0221274         0.66440518         154.936326
        2.575e+009        0.47374924        -92.6016276         17.2578634         99.5069302      0.00218310387         98.6152303        0.661322565         154.840755
         2.58e+009       0.479880025        -93.2061099         17.2169833         98.3255791      0.00218190869         99.2340805        0.658581306         154.703531
        2.585e+009        0.48591577        -93.8190371         17.2045981         97.1150148      0.00219408692         99.9431547        0.655938806          154.47531
         2.59e+009       0.491471571        -94.4281836         17.1898628         95.8152095      0.00220056769         100.638628        0.651523885         154.271211
        2.595e+009       0.497178621        -95.0443709         17.1952098         94.4536688      0.00220373822         101.344295        0.645313977         154.039714
          2.6e+009       0.502308961        -95.7234691         17.1872706         93.1154171      0.00221321452         101.949079        0.638543895         153.831516
        2.605e+009       0.507775851        -96.3910771          17.191853         91.8402597       0.0022277479         102.559738        0.631508683         153.569881
         2.61e+009       0.512548698        -97.1084846         17.1798487          90.563231      0.00223557479         102.956062        0.624917732         153.179411
        2.615e+009       0.517970046         -97.797324         17.1867712          89.270173      0.00224069495         103.248876         0.61892273           152.7735
         2.62e+009       0.522496962         -98.539033         17.1552686         88.0069523      0.00225674768         103.480373        0.612023043         152.476427
        2.625e+009       0.527701151        -99.1745285         17.1558688         86.7664012      0.00227766503         103.748865        0.605603745         152.216112
         2.63e+009       0.531888756        -99.8968267         17.0802079         85.5633564      0.00229575936         104.460806        0.600335405         152.109366
        2.635e+009       0.537461651        -100.511932         17.0575184         84.3803253      0.00231617379         105.293194        0.595614062         151.984527
         2.64e+009       0.541118739        -101.177725          16.927883         83.4901278      0.00233091903         105.688869         0.59158888         152.037288
        2.645e+009       0.545732088         -101.73415         16.8531913         82.5888392      0.00234900948         106.106105        0.587987619         152.030826
         2.65e+009       0.549164296         -102.38817         16.8407695          80.949106      0.00236283747         106.110212        0.584579919         151.797073
        2.655e+009       0.553343646        -102.957606         16.8809702         79.4110304      0.00237947639         106.280498        0.582247162         151.579445
         2.66e+009       0.556535134        -103.589963         16.7578014         78.1519189      0.00238612986         107.116322        0.582138905         152.083825
        2.665e+009        0.56034314        -104.150395         16.6973972         76.8941093      0.00239439894         107.695817        0.580194701         152.361358
         2.67e+009       0.562978295        -104.737643         16.6856048         75.7005398      0.00240633609         107.312457        0.570814191         151.912065
        2.675e+009       0.566351959        -105.302891         16.7070845         74.3778535      0.00242709436         107.088024         0.56322654         151.424132
         2.68e+009       0.569168354        -105.913174         16.7371398         72.7444276      0.00246064778         107.203525        0.558672981         151.085836
        2.685e+009       0.572005142        -106.480406          16.790699         71.1956013      0.00248733171         107.113922        0.553495109         150.475826
         2.69e+009       0.574396905        -107.085061         16.8569978         69.6684562      0.00250665169         106.564366        0.547761688         149.404519
        2.695e+009       0.577034946        -107.684738         16.9050679         68.1674334      0.00252825109         106.470042        0.543823906         148.522865
          2.7e+009       0.579788377         -108.35191         16.9477892         66.5965057      0.00255232789         106.792694        0.540432948         147.823769
        2.705e+009        0.58228553        -108.991096         16.9340118         65.2400361       0.0025695044         107.095646        0.536732914         147.271759
         2.71e+009       0.585000717        -109.617118         16.8910288         64.0281897      0.00258334943         107.394221        0.532698928         146.827447
        2.715e+009       0.587415983        -110.250129         16.8360657         62.8288208      0.00260962702         107.773262        0.530218722         146.414341
         2.72e+009       0.589990841        -110.823869         16.7952669         61.5942311      0.00264204796         108.202695         0.52846043         146.043252
        2.725e+009       0.591575737        -111.402134         16.7406452         60.2531299      0.00265610481         108.217751         0.52408057          145.99597
         2.73e+009       0.593753481        -111.925215         16.7156049         58.8570324      0.00266533688         108.085332        0.518238937         146.117611
        2.735e+009       0.594442475        -112.480917         16.4731758         57.5442054      0.00267810177         107.773897         0.51456632         146.043346
         2.74e+009       0.596005088         -113.00282         16.2351659         56.1277367      0.00269554488         107.440624        0.511192289         145.903219
        2.745e+009       0.596366298        -113.583666         16.3609709         54.5226426      0.00271028891         107.301502        0.503619327         146.058248
         2.75e+009       0.597992417        -114.130527         16.5868819         53.0078495       0.0027284971         107.220073        0.496121079         146.149794
        2.755e+009       0.598184264        -114.702727         16.5184921         51.5846672      0.00275736581         107.314223         0.48750674         146.094068
         2.76e+009       0.599279847        -115.212658         16.5148505         50.1568182      0.00278867743         107.473173         0.47908988         145.921993
        2.765e+009       0.599355957        -115.744179         16.4668189          48.593015      0.00279985211         107.565656        0.466137237         146.353104
         2.77e+009       0.600222479        -116.249066         16.4700705          47.075446      0.00281674258         107.620807        0.454040627          146.47674
        2.775e+009       0.599692727        -116.811052           16.43286         45.7435901      0.00284636601         107.388998        0.447788859         145.694707
         2.78e+009        0.59975896        -117.365108         16.4253259         44.3755729      0.00287113466         107.281845        0.441615293         144.847555
        2.785e+009        0.59943058        -117.961321         16.3875634         42.9889521      0.00287302638         107.458706        0.435208546         144.185739
         2.79e+009       0.599884595        -118.552492         16.3641886         41.5838743      0.00288343025         107.762163        0.429714277         143.653032
        2.795e+009       0.599896747        -119.142208         16.3035043         40.1117916      0.00290480907          108.29321        0.424478764         143.438818
          2.8e+009       0.599892137        -119.688657         16.2519741         38.7222045      0.00292822003         108.246253        0.419676892         143.070363
        2.805e+009       0.599469742        -120.213822         16.1949774         37.4179153      0.00295984971         107.462345         0.41561157         142.484445
         2.81e+009       0.598959754        -120.717488         16.1450778         35.9069879      0.00298216506         107.052761        0.412209786         141.962419
        2.815e+009       0.598356243        -121.218749         16.1297867         34.1769158      0.00299601848         106.922866        0.409172747         141.419749
         2.82e+009       0.597045685        -121.677348          16.069498         32.5555814      0.00300327777         106.928242        0.401153136         141.829513
        2.825e+009       0.595937743        -122.179539         16.0062984         30.9238818      0.00300814878         106.970882        0.389284946         142.829365
         2.83e+009       0.594195003        -122.699873         15.9281854         29.3656774      0.00303575227         106.585991        0.379473197         143.487895
        2.835e+009       0.592741002        -123.181653         15.8747283         27.8004954      0.00307648787         106.069559        0.369662995         143.889308
         2.84e+009       0.590707443        -123.667621         15.7925219         26.2465748      0.00308802395         105.871213        0.358890375         144.270937
        2.845e+009       0.589244188        -124.135696         15.7564518         24.6708429      0.00309549143         105.761737        0.347963307         144.443429
         2.85e+009       0.586460877        -124.577606         15.6766633         23.1482458      0.00310155345         105.573255        0.337744906         144.238456
        2.855e+009       0.584981509        -125.008743         15.6653927         21.6017618      0.00311506546         105.387814        0.327694898         143.722801
         2.86e+009       0.582045676        -125.476337         15.5837324          20.106316      0.00313014633          105.13167        0.319202325         142.719074
        2.865e+009        0.58034294        -125.993455         15.5643861         18.5680642      0.00315128687         104.891988        0.311449986         141.486703
         2.87e+009       0.577341727        -126.492883         15.4800615         16.9913112      0.00316657231         104.640861        0.302614195         140.999276
        2.875e+009       0.575662202        -127.012641         15.4558901         15.3676387      0.00318619008         104.408483        0.293914361         140.368905
