! PocketVna 1.33  pocketvna.com
! Live measurements ((Reflection-S11) Linear 2299999999-2500000000/500 calibrated)
# Hz S RI R 50
! Hz          ReS11                      ImS11                   ReS21    ImS21    ReS12                      ImS12                   ReS22    ImS22    
2299999999    -0.022892237938516892      -0.43815207596011635    0                          0                       0        0        0        0        
2300400800    -0.026417175223444955      -0.44651661349368327    0                          0                       0        0        0        0        
2300801602    -0.0055423711877196141     -0.45373185981660008    0                          0                       0        0        0        0        
2301202403    -0.02993981146882228       -0.45214220141972583    0                          0                       0        0        0        0        
2301603205    -0.039629934465523785      -0.46127378388825258    0                          0                       0        0        0        0        
2302004007    0.030117704904522109       -0.45256154184450653    0                          0                       0        0        0        0        
2302404808    -0.014253813707142357      -0.47605898859946827    0                          0                       0        0        0        0        
2302805610    0.022081902909048941       -0.41668073630139707    0                          0                       0        0        0        0        
2303206411    0.0011426435864574447      -0.41478323603459316    0                          0                       0        0        0        0        
2303607213    0.0080012206734521394      -0.46716462302014783    0                          0                       0        0        0        0        
2304008015    -0.0087401182545710984     -0.41274335939305945    0                          0                       0        0        0        0        
2304408816    -0.031075910110081456      -0.42015202883887454    0                          0                       0        0        0        0        
2304809618    -0.022750569468133263      -0.42373353078676818    0                          0                       0        0        0        0        
2305210419    -0.042437105689837044      -0.44951498341167734    0                          0                       0        0        0        0        
2305611221    -0.044225793128636774      -0.41360189685647131    0                          0                       0        0        0        0        
2306012023    0.019436802526590014       -0.43583319954917787    0                          0                       0        0        0        0        
2306412824    -0.0077329437119079162     -0.41100937273612675    0                          0                       0        0        0        0        
2306813626    0.018436139969690537       -0.47818728780426784    0                          0                       0        0        0        0        
2307214427    -0.021757829805393068      -0.46528244044445022    0                          0                       0        0        0        0        
2307615229    -0.042397749678445049      -0.42767033868585597    0                          0                       0        0        0        0        
2308016031    0.024817644986582885       -0.43598181020088178    0                          0                       0        0        0        0        
2308416832    0.023027066789178163       -0.44856035695280083    0                          0                       0        0        0        0        
2308817634    0.015373850959314676       -0.42784365921600093    0                          0                       0        0        0        0        
2309218435    -0.00053886335366318337    -0.45200123977913503    0                          0                       0        0        0        0        
2309619237    -0.018570220550299381      -0.40713549372292163    0                          0                       0        0        0        0        
2310020039    0.0038877732298964818      -0.45030480921123678    0                          0                       0        0        0        0        
2310420840    -0.028516125718391266      -0.41221604502116949    0                          0                       0        0        0        0        
2310821642    0.0014181704445453988      -0.44686650564184077    0                          0                       0        0        0        0        
2311222443    0.0023931379380944836      -0.44460780339771377    0                          0                       0        0        0        0        
2311623245    -0.0013424550770670006     -0.42329103376563371    0                          0                       0        0        0        0        
2312024047    0.015292418819334857       -0.44995764223056528    0                          0                       0        0        0        0        
2312424848    0.022779536245794194       -0.42373519266463427    0                          0                       0        0        0        0        
2312825650    0.024779089321415752       -0.43184490525250552    0                          0                       0        0        0        0        
2313226451    0.036332724670960111       -0.43423959233368786    0                          0                       0        0        0        0        
2313627253    -0.022637417411689661      -0.42632530218789888    0                          0                       0        0        0        0        
2314028055    0.0024978231402195132      -0.42115455856671147    0                          0                       0        0        0        0        
2314428856    0.010868501397214759       -0.41288575653832249    0                          0                       0        0        0        0        
2314829658    0.01151813269027786        -0.4137602556859088     0                          0                       0        0        0        0        
2315230459    0.013011514809268192       -0.45452312477682316    0                          0                       0        0        0        0        
2315631261    0.0022221256123296207      -0.39814143042959499    0                          0                       0        0        0        0        
2316032063    -0.0010770885910880751     -0.46198453776028181    0                          0                       0        0        0        0        
2316432864    -0.017391935054145172      -0.4256212540412781     0                          0                       0        0        0        0        
2316833666    0.024984181227921801       -0.39018529189106332    0                          0                       0        0        0        0        
2317234468    0.03228674895309501        -0.48629622960342961    0                          0                       0        0        0        0        
2317635269    0.021121826875206154       -0.40931404020610457    0                          0                       0        0        0        0        
2318036071    0.013284804656708468       -0.44076060674498896    0                          0                       0        0        0        0        
2318436872    0.048741831924827853       -0.44061206390166563    0                          0                       0        0        0        0        
2318837674    0.032060822930264646       -0.428977512082513      0                          0                       0        0        0        0        
2319238476    0.016279225852283391       -0.4221891764727837     0                          0                       0        0        0        0        
2319639277    0.019562750591085004       -0.40206908298514688    0                          0                       0        0        0        0        
2320040079    0.023988403620911789       -0.44554166668926165    0                          0                       0        0        0        0        
2320440880    0.060468541389565318       -0.43630063748270498    0                          0                       0        0        0        0        
2320841682    0.0090879344254034562      -0.419921998604386      0                          0                       0        0        0        0        
2321242484    0.018505692964721265       -0.39455837198465205    0                          0                       0        0        0        0        
2321643285    0.040940262960637484       -0.43308490694102975    0                          0                       0        0        0        0        
2322044087    -0.0029606805375746665     -0.4104552344800218     0                          0                       0        0        0        0        
2322444888    0.043191729280493904       -0.42131694484426091    0                          0                       0        0        0        0        
2322845690    0.02325862010677333        -0.42464021007708824    0                          0                       0        0        0        0        
2323246492    0.046687622508688777       -0.45142243922620007    0                          0                       0        0        0        0        
2323647293    0.012564105104513704       -0.43490815953787437    0                          0                       0        0        0        0        
2324048095    0.01927524470711954        -0.42278701544632558    0                          0                       0        0        0        0        
2324448896    0.072982743146693368       -0.42950272267399953    0                          0                       0        0        0        0        
2324849698    0.024071245166169469       -0.42198776137733418    0                          0                       0        0        0        0        
2325250500    0.053762544332191894       -0.37602518111290156    0                          0                       0        0        0        0        
2325651301    0.026753420072143663       -0.41253064431465103    0                          0                       0        0        0        0        
2326052103    0.080074280542705031       -0.40335068608779118    0                          0                       0        0        0        0        
2326452904    0.024780223765273897       -0.45585720378350758    0                          0                       0        0        0        0        
2326853706    0.080291494635447783       -0.41048838635987017    0                          0                       0        0        0        0        
2327254508    0.10018052184651899        -0.47110666065927426    0                          0                       0        0        0        0        
2327655309    0.06530219426941046        -0.38652746431893714    0                          0                       0        0        0        0        
2328056111    0.074808346273571219       -0.41859732107597636    0                          0                       0        0        0        0        
2328456912    0.056643204471391331       -0.44081804562234633    0                          0                       0        0        0        0        
2328857714    0.052939304170238004       -0.43097347565144789    0                          0                       0        0        0        0        
2329258516    0.07375074123863265        -0.44270834044819873    0                          0                       0        0        0        0        
2329659317    0.093294819157927408       -0.42319018972278882    0                          0                       0        0        0        0        
2330060119    0.072250612951986024       -0.42054651051492814    0                          0                       0        0        0        0        
2330460920    0.076301253548095777       -0.4241622310595658     0                          0                       0        0        0        0        
2330861722    0.11585266251877782        -0.43114889995365135    0                          0                       0        0        0        0        
2331262524    0.096737392656552304       -0.46956980630787226    0                          0                       0        0        0        0        
2331663325    0.053857548556267329       -0.42750096503028101    0                          0                       0        0        0        0        
2332064127    0.088975750633395967       -0.44020206135973444    0                          0                       0        0        0        0        
2332464929    0.090823172584510337       -0.43460330727166013    0                          0                       0        0        0        0        
2332865730    0.10822115133552783        -0.44422886346858759    0                          0                       0        0        0        0        
2333266532    0.081506150733045332       -0.44281700357149045    0                          0                       0        0        0        0        
2333667333    0.035953768620952502       -0.4408954286322127     0                          0                       0        0        0        0        
2334068135    0.1049995865178884         -0.43398896928461633    0                          0                       0        0        0        0        
2334468937    0.10231200892916663        -0.44948983275676496    0                          0                       0        0        0        0        
2334869738    0.081789473606783306       -0.42381332240178832    0                          0                       0        0        0        0        
2335270540    0.069521418775586777       -0.42614232376520644    0                          0                       0        0        0        0        
2335671341    0.10196420250417618        -0.43591303124976399    0                          0                       0        0        0        0        
2336072143    0.10930564865793942        -0.41486591935192363    0                          0                       0        0        0        0        
2336472945    0.091778760446717594       -0.42362788530928069    0                          0                       0        0        0        0        
2336873746    0.11279217782135409        -0.41608309840652336    0                          0                       0        0        0        0        
2337274548    0.11431406508177772        -0.41686914246860374    0                          0                       0        0        0        0        
2337675349    0.099820234098127          -0.42616161360451399    0                          0                       0        0        0        0        
2338076151    0.077307917131887297       -0.44339408709097544    0                          0                       0        0        0        0        
2338476953    0.1436940124303307         -0.42356375607726743    0                          0                       0        0        0        0        
2338877754    0.096998327045491647       -0.45420429962189562    0                          0                       0        0        0        0        
2339278556    0.098529218607796037       -0.43560008453932064    0                          0                       0        0        0        0        
2339679357    0.12072824135112308        -0.42733945444823618    0                          0                       0        0        0        0        
2340080159    0.15657425254950164        -0.4376336487110532     0                          0                       0        0        0        0        
2340480961    0.1141782695968015         -0.40901707100855883    0                          0                       0        0        0        0        
2340881762    0.11365632450791391        -0.40498166763778815    0                          0                       0        0        0        0        
2341282564    0.099352172704434125       -0.4439613419628442     0                          0                       0        0        0        0        
2341683365    0.14969409834910583        -0.41009869969676821    0                          0                       0        0        0        0        
2342084167    0.11839322091711928        -0.4156280945696208     0                          0                       0        0        0        0        
2342484969    0.12648155881814827        -0.3916217299550811     0                          0                       0        0        0        0        
2342885770    0.13542558912668251        -0.40858886220194773    0                          0                       0        0        0        0        
2343286572    0.14391852491720142        -0.40272325577130585    0                          0                       0        0        0        0        
2343687373    0.14569111543539792        -0.40131474926284688    0                          0                       0        0        0        0        
2344088175    0.096694180438498617       -0.38692472164728159    0                          0                       0        0        0        0        
2344488977    0.13924770664990282        -0.39312720212515706    0                          0                       0        0        0        0        
2344889778    0.17192571043366531        -0.42607248645713791    0                          0                       0        0        0        0        
2345290580    0.1521126560221816         -0.39871893969595784    0                          0                       0        0        0        0        
2345691381    0.1684224473490383         -0.3922743025027336     0                          0                       0        0        0        0        
2346092183    0.12898306436606205        -0.41320281422049621    0                          0                       0        0        0        0        
2346492985    0.15452447738328251        -0.37977439380715677    0                          0                       0        0        0        0        
2346893786    0.14056922396416699        -0.40932544922909192    0                          0                       0        0        0        0        
2347294588    0.1403742005336486         -0.40392372870732624    0                          0                       0        0        0        0        
2347695389    0.14426008241429419        -0.42574671495558053    0                          0                       0        0        0        0        
2348096191    0.16054429331234057        -0.38503294842983349    0                          0                       0        0        0        0        
2348496993    0.13732776463833685        -0.42582497762364174    0                          0                       0        0        0        0        
2348897794    0.1624967877695285         -0.42336593958597907    0                          0                       0        0        0        0        
2349298596    0.16433683844176411        -0.39607176476417788    0                          0                       0        0        0        0        
2349699398    0.16755778022325296        -0.39599448150788358    0                          0                       0        0        0        0        
2350100199    0.13313799257770714        -0.36881439681904138    0                          0                       0        0        0        0        
2350501001    0.15321556894740371        -0.41183722218690938    0                          0                       0        0        0        0        
2350901802    0.15575400441091411        -0.34796477670409515    0                          0                       0        0        0        0        
