! PocketVna 1.33  pocketvna.com
! Live measurements ((Reflection-S11) Linear 2299999999-2500000000/5000 calibrated)
# Hz S RI R 50
! Hz          ReS11                      ImS11                    ReS21    ImS21    ReS12                      ImS12                    ReS22    ImS22    
2299999999    -0.20164488084137561       -0.38641930984756512     0                          0                        0        0        0        0        
2300040007    -0.18552939768036186       -0.41316693920639186     0                          0                        0        0        0        0        
2300080015    -0.20136759630877749       -0.42602431193736695     0                          0                        0        0        0        0        
2300120023    -0.188591482775537         -0.40266382845599963     0                          0                        0        0        0        0        
2300160031    -0.15385064070764237       -0.39461367790460999     0                          0                        0        0        0        0        
2300200039    -0.15982805794286634       -0.40662298929793916     0                          0                        0        0        0        0        
2300240047    -0.17883750914910107       -0.39146433460195401     0                          0                        0        0        0        0        
2300280055    -0.17336199644568812       -0.41219560843357994     0                          0                        0        0        0        0        
2300320063    -0.11648889917968011       -0.42846071023655635     0                          0                        0        0        0        0        
2300360071    -0.15310446112104306       -0.41933524330746091     0                          0                        0        0        0        0        
2300400079    -0.21495867685617864       -0.41001488312764239     0                          0                        0        0        0        0        
2300440087    -0.16243144928279357       -0.39310994026449464     0                          0                        0        0        0        0        
2300480095    -0.16251706041554273       -0.39836274946411598     0                          0                        0        0        0        0        
2300520103    -0.13553257462330789       -0.40852116810039019     0                          0                        0        0        0        0        
2300560111    -0.19330992442158218       -0.38463133523577631     0                          0                        0        0        0        0        
2300600119    -0.15365858401761059       -0.41912789399167688     0                          0                        0        0        0        0        
2300640127    -0.20003483528637944       -0.4016257562476111      0                          0                        0        0        0        0        
2300680135    -0.18092964204317699       -0.40024860249372379     0                          0                        0        0        0        0        
2300720143    -0.17138653934098139       -0.38044059186292156     0                          0                        0        0        0        0        
2300760151    -0.21406129028906232       -0.38847067703145177     0                          0                        0        0        0        0        
2300800159    -0.18034459032303862       -0.41192179239686422     0                          0                        0        0        0        0        
2300840167    -0.17123651652013547       -0.41107649211028147     0                          0                        0        0        0        0        
2300880175    -0.19529824530570997       -0.39168827822695435     0                          0                        0        0        0        0        
2300920183    -0.17332482102392793       -0.38677186937191887     0                          0                        0        0        0        0        
2300960191    -0.13228228963895172       -0.4062630626125262      0                          0                        0        0        0        0        
2301000199    -0.18144213994614108       -0.38151608877650972     0                          0                        0        0        0        0        
2301040207    -0.17149246042949629       -0.39665953148410493     0                          0                        0        0        0        0        
2301080215    -0.18628661190806933       -0.38206398290303289     0                          0                        0        0        0        0        
2301120223    -0.20396075989641441       -0.40184296652860518     0                          0                        0        0        0        0        
2301160231    -0.17559600443308138       -0.43373650980007905     0                          0                        0        0        0        0        
2301200239    -0.18060395606090207       -0.38577218973979466     0                          0                        0        0        0        0        
2301240247    -0.19591588125308934       -0.40314943622463623     0                          0                        0        0        0        0        
2301280255    -0.15319735353091732       -0.36503663285389509     0                          0                        0        0        0        0        
2301320263    -0.1651573931931842        -0.4108339353235036      0                          0                        0        0        0        0        
2301360271    -0.17266038415083768       -0.39489805261212896     0                          0                        0        0        0        0        
2301400279    -0.17857148071175785       -0.41807617303895356     0                          0                        0        0        0        0        
2301440287    -0.17763978795898239       -0.3878579857106178      0                          0                        0        0        0        0        
2301480295    -0.15951026024280193       -0.38410947292955633     0                          0                        0        0        0        0        
2301520303    -0.17546091710734546       -0.38481153212228869     0                          0                        0        0        0        0        
2301560311    -0.18661082137074272       -0.38624895468321763     0                          0                        0        0        0        0        
2301600319    -0.20895288158789355       -0.40508474388172022     0                          0                        0        0        0        0        
2301640327    -0.18920542638618545       -0.40350125772615136     0                          0                        0        0        0        0        
2301680335    -0.18897008529674991       -0.41501131854299722     0                          0                        0        0        0        0        
2301720343    -0.1724385089033684        -0.40792432630716435     0                          0                        0        0        0        0        
2301760351    -0.17204884329538853       -0.42143538504877959     0                          0                        0        0        0        0        
2301800359    -0.20096179835306116       -0.40010954439230817     0                          0                        0        0        0        0        
2301840367    -0.19666687944150463       -0.41332172790747657     0                          0                        0        0        0        0        
2301880375    -0.19332320562740687       -0.38336075688208232     0                          0                        0        0        0        0        
2301920383    -0.21140531447798266       -0.39465603018894596     0                          0                        0        0        0        0        
2301960391    -0.17637026112352513       -0.38098419301779002     0                          0                        0        0        0        0        
2302000399    -0.19019164164823341       -0.40720789692352466     0                          0                        0        0        0        0        
2302040407    -0.15017574415034016       -0.37857343070206539     0                          0                        0        0        0        0        
2302080415    -0.18558617874476238       -0.43285523152915634     0                          0                        0        0        0        0        
2302120423    -0.20107544357474486       -0.3904156445915275      0                          0                        0        0        0        0        
2302160431    -0.19528230498147728       -0.39190386909828184     0                          0                        0        0        0        0        
2302200439    -0.14503395981847964       -0.39606833242425032     0                          0                        0        0        0        0        
2302240447    -0.1805129917624417        -0.41170852074575315     0                          0                        0        0        0        0        
2302280455    -0.15974109376688725       -0.34754719531094336     0                          0                        0        0        0        0        
2302320463    -0.16718238135703911       -0.40418808218637869     0                          0                        0        0        0        0        
2302360471    -0.1602190720067726        -0.38137331332127999     0                          0                        0        0        0        0        
2302400479    -0.15020727142875692       -0.36068875410353368     0                          0                        0        0        0        0        
2302440487    -0.11045780667619774       -0.35484765993452455     0                          0                        0        0        0        0        
2302480495    -0.11836961699479961       -0.33621645573807019     0                          0                        0        0        0        0        
2302520503    -0.13766136026069239       -0.34144094622204285     0                          0                        0        0        0        0        
2302560511    -0.13070164159062181       -0.35771684486620114     0                          0                        0        0        0        0        
2302600519    -0.155637814264138         -0.3457059152097145      0                          0                        0        0        0        0        
2302640527    -0.14852856428675645       -0.37655960296198426     0                          0                        0        0        0        0        
2302680535    -0.16512186907281173       -0.34725391644542419     0                          0                        0        0        0        0        
2302720543    -0.1398215028665302        -0.38288413313812258     0                          0                        0        0        0        0        
2302760551    -0.18227181326768119       -0.39290104073712823     0                          0                        0        0        0        0        
2302800559    -0.13697324450139206       -0.37102246296035746     0                          0                        0        0        0        0        
2302840567    -0.11840178156526117       -0.38482588085262681     0                          0                        0        0        0        0        
2302880575    -0.14992985524336733       -0.40185166926966903     0                          0                        0        0        0        0        
2302920583    -0.16134799039269687       -0.38307389021328769     0                          0                        0        0        0        0        
2302960591    -0.15720922996028633       -0.38037827511691308     0                          0                        0        0        0        0        
2303000599    -0.13657546863005202       -0.39352643241272972     0                          0                        0        0        0        0        
2303040607    -0.12589036051976385       -0.38489783638733566     0                          0                        0        0        0        0        
2303080615    -0.14532037868704745       -0.38924953766974996     0                          0                        0        0        0        0        
2303120623    -0.13711184334858958       -0.3511318496474431      0                          0                        0        0        0        0        
2303160631    -0.15955405899182101       -0.35486132862244624     0                          0                        0        0        0        0        
2303200639    -0.12784365534030603       -0.37484896881055479     0                          0                        0        0        0        0        
2303240647    -0.13724719262001378       -0.36970610665392267     0                          0                        0        0        0        0        
2303280655    -0.16189133845366219       -0.4031577665352884      0                          0                        0        0        0        0        
2303320663    -0.14555121328406467       -0.3707357160359715      0                          0                        0        0        0        0        
2303360671    -0.13634997581766439       -0.38184440401715786     0                          0                        0        0        0        0        
2303400679    -0.1441864241706618        -0.3932984763532863      0                          0                        0        0        0        0        
2303440687    -0.15994803314072684       -0.37846127387289535     0                          0                        0        0        0        0        
2303480695    -0.13404631717132723       -0.36633740106758422     0                          0                        0        0        0        0        
2303520703    -0.13445878046027296       -0.36876635319424356     0                          0                        0        0        0        0        
2303560711    -0.1666118135611305        -0.36412006855495332     0                          0                        0        0        0        0        
2303600719    -0.12848992635233702       -0.39257572745691571     0                          0                        0        0        0        0        
2303640727    -0.18209658508684817       -0.39823082527119197     0                          0                        0        0        0        0        
2303680735    -0.19488517934494309       -0.36597851771501599     0                          0                        0        0        0        0        
2303720743    -0.18804569336977328       -0.38414967084239304     0                          0                        0        0        0        0        
2303760751    -0.15185063778037325       -0.38073144773884043     0                          0                        0        0        0        0        
2303800759    -0.20886961447037417       -0.38411858719810493     0                          0                        0        0        0        0        
2303840767    -0.18522748963166377       -0.41044659378707238     0                          0                        0        0        0        0        
2303880775    -0.1961111336753126        -0.37328895611554341     0                          0                        0        0        0        0        
2303920783    -0.16130199920939253       -0.39804985328707432     0                          0                        0        0        0        0        
2303960791    -0.1581508522690718        -0.38939380437526899     0                          0                        0        0        0        0        
2304000799    -0.18064677132979956       -0.37641466271436896     0                          0                        0        0        0        0        
2304040807    -0.14871661852892853       -0.37910739580867575     0                          0                        0        0        0        0        
2304080815    -0.163490487198275         -0.38768199377712748     0                          0                        0        0        0        0        
2304120823    -0.21029200246805266       -0.39109910904849915     0                          0                        0        0        0        0        
2304160831    -0.18544161398762321       -0.39461495925451223     0                          0                        0        0        0        0        
2304200839    -0.18952816411613832       -0.39141432377094842     0                          0                        0        0        0        0        
2304240847    -0.1860758865755657        -0.39274896089362787     0                          0                        0        0        0        0        
2304280855    -0.17416708607926948       -0.37250413296194074     0                          0                        0        0        0        0        
2304320863    -0.18947422517195681       -0.38389793336135702     0                          0                        0        0        0        0        
2304360871    -0.17998944353726834       -0.42382715659581111     0                          0                        0        0        0        0        
2304400879    -0.17932158893306807       -0.39361625656485844     0                          0                        0        0        0        0        
2304440887    -0.21406813399689076       -0.39657945221180257     0                          0                        0        0        0        0        
2304480895    -0.20301757662480602       -0.3947508897841841      0                          0                        0        0        0        0        
2304520903    -0.16728479794840584       -0.41302433093733587     0                          0                        0        0        0        0        
2304560911    -0.17556027401459393       -0.41156479778641886     0                          0                        0        0        0        0        
2304600919    -0.17562070172082739       -0.41818743495496241     0                          0                        0        0        0        0        
2304640927    -0.18788420886484353       -0.39222919315770116     0                          0                        0        0        0        0        
2304680935    -0.16166810697278017       -0.39498813527731375     0                          0                        0        0        0        0        
2304720943    -0.169177946918879         -0.3784371671689174      0                          0                        0        0        0        0        
2304760951    -0.17938861191045014       -0.3697185776925711      0                          0                        0        0        0        0        
2304800959    -0.18636273654727112       -0.38012424828645686     0                          0                        0        0        0        0        
2304840967    -0.17051293973403225       -0.40369247282201748     0                          0                        0        0        0        0        
2304880975    -0.17368887695474047       -0.40617315752484606     0                          0                        0        0        0        0        
2304920983    -0.18121893789992935       -0.40702415904492589     0                          0                        0        0        0        0        
2304960991    -0.18910617985814579       -0.3953440655784688      0                          0                        0        0        0        0        
2305000999    -0.1823307477165137        -0.38141771780447059     0                          0                        0        0        0        0        
2305041007    -0.18546896420612355       -0.38795360215967756     0                          0                        0        0        0        0        
