# Hz S  dB   R 50
10000000 -6.0701933 -76.612961 34.543007 150.55745 -34.864613 38.686283 -8.0581884 -100.65601
20000000 -8.5967846 -107.8606 32.24221 154.34969 -34.460785 20.430794 -8.8636026 -134.85294
30000000 -9.7996387 -125.58217 31.30714 157.87285 -35.06871 11.047494 -9.0934868 -151.39139
40000000 -10.314638 -134.4238 30.882462 159.81786 -33.757736 10.400596 -9.2616167 -159.79285
50000000 -10.612747 -140.62195 30.648397 160.86496 -34.101715 11.512811 -9.381731 -166.37938
60000000 -10.779762 -144.88136 30.490513 161.17049 -33.675846 4.7053962 -9.3864937 -171.33342
70000000 -10.843774 -147.01222 30.391798 161.07222 -34.160069 5.8404517 -9.4985933 -174.88249
80000000 -10.853458 -148.87573 30.292246 160.68372 -34.30608 6.7770782 -9.5814419 -177.73241
90000000 -10.821238 -149.54199 30.222864 160.07072 -34.041534 8.1430178 -9.5883942 179.55951
100000000 -10.774816 -150.18983 30.156139 159.39809 -34.056057 6.2426715 -9.6647711 177.19116
110000000 -10.723351 -150.49971 30.08877 158.56389 -34.325771 7.354857 -9.704896 175.07683
120000000 -10.57364 -150.57191 30.019539 157.65839 -34.405594 7.5268993 -9.7668657 173.23772
130000000 -10.469934 -150.68532 29.949093 156.68263 -34.191547 7.0413661 -9.8552008 171.41016
140000000 -10.326831 -150.66893 29.881718 155.69858 -34.116272 7.0918903 -9.9469614 169.64343
150000000 -10.191511 -150.66548 29.81439 154.71785 -34.218689 6.3139157 -10.03114 168.02156
160000000 -10.083814 -150.44305 29.760235 153.69295 -34.133316 5.6586604 -10.12966 166.56265
170000000 -9.9381742 -150.63814 29.686018 152.71318 -34.108566 6.5878334 -10.181515 165.13705
180000000 -9.7582455 -150.46936 29.608797 151.59758 -34.389046 5.4282942 -10.2223 163.52449
190000000 -9.6221523 -150.14896 29.555 150.48776 -34.198524 6.7427335 -10.296163 162.30934
200000000 -9.4851789 -150.37724 29.471136 149.50175 -34.141861 7.5666256 -10.395376 160.7952
210000000 -9.3229485 -150.27245 29.398359 148.46239 -34.30616 7.0454679 -10.521927 159.63451
220000000 -9.1502466 -150.12233 29.322924 147.34076 -34.149406 6.8140092 -10.640475 158.32916
230000000 -9.0220871 -150.34679 29.243507 146.38297 -34.470982 8.9404907 -10.73064 157.22267
240000000 -8.8780069 -150.4055 29.163404 145.32036 -34.295109 8.6358023 -10.832525 156.28206
250000000 -8.7438974 -150.51285 29.073238 144.31499 -34.329811 9.2095728 -10.930581 154.86571
260000000 -8.6213455 -150.63069 29.005409 143.33955 -34.396862 9.1739607 -11.058451 153.67236
270000000 -8.4826126 -150.80238 28.920885 142.2991 -34.418648 8.7657652 -11.175687 152.6172
280000000 -8.3250999 -150.74635 28.835245 141.26253 -34.191113 10.857698 -11.307733 152.18872
290000000 -8.2205286 -150.84552 28.743448 140.29214 -34.451847 11.184832 -11.375839 150.88864
300000000 -8.0402098 -151.14818 28.659243 139.32555 -34.018841 7.3131957 -11.464369 149.86496
310000000 -7.9393954 -151.43198 28.562609 138.32233 -34.672874 11.001431 -11.670497 148.93613
320000000 -7.8047643 -151.52437 28.477753 137.38568 -34.719513 10.386397 -11.751799 147.49216
330000000 -7.7158923 -152.03316 28.386255 136.52309 -34.458061 9.0910196 -11.90183 147.09319
340000000 -7.615757 -152.11398 28.296473 135.60791 -34.227661 13.482731 -11.953709 146.16577
350000000 -7.484376 -152.32986 28.201826 134.6778 -34.582329 12.505972 -12.120165 145.21783
360000000 -7.4027705 -152.65166 28.120684 133.77293 -34.174919 12.016325 -12.23113 144.48843
370000000 -7.2933097 -152.99304 28.014633 132.92625 -34.250229 12.841913 -12.387582 143.69649
380000000 -7.2127342 -153.09541 27.933275 132.01266 -34.486797 14.282925 -12.523303 142.9117
390000000 -7.1165204 -153.37042 27.842531 131.13579 -34.465782 14.658496 -12.686822 142.15335
400000000 -7.0224991 -153.71619 27.749407 130.3396 -34.361866 15.977984 -12.835314 141.66977
410000000 -6.9218664 -154.09517 27.649986 129.50189 -34.27174 14.710377 -12.933595 140.66301
420000000 -6.8468094 -154.44745 27.555319 128.75208 -34.196571 16.153284 -13.072155 140.35078
430000000 -6.7759514 -154.86107 27.451664 128.00902 -34.218803 16.557009 -13.221379 139.47282
440000000 -6.7037926 -155.05867 27.365065 127.15121 -34.14542 15.666796 -13.36236 138.88373
450000000 -6.6140857 -155.32397 27.279737 126.37092 -34.30574 16.297504 -13.495463 138.01381
460000000 -6.5549059 -155.58215 27.176394 125.65179 -34.410122 19.386959 -13.638755 137.56998
470000000 -6.4713254 -155.99051 27.086628 124.86726 -34.103512 16.118259 -13.786681 136.87335
480000000 -6.4073215 -156.24554 26.988245 124.16791 -34.31308 17.589617 -13.98299 136.17415
490000000 -6.3341198 -156.49435 26.90218 123.40218 -34.404057 17.121088 -14.06356 135.5645
500000000 -6.3182483 -156.75862 26.808189 122.70386 -34.213661 18.505112 -14.215419 134.93924
510000000 -6.2221241 -157.11334 26.707737 122.02145 -34.243984 19.166195 -14.362902 134.40312
520000000 -6.1706977 -157.4697 26.626745 121.37525 -33.963104 20.907215 -14.554904 133.73442
530000000 -6.1033764 -157.84085 26.528294 120.60033 -34.060326 21.573523 -14.665026 133.57437
540000000 -6.0750613 -158.06143 26.434391 119.97245 -34.351059 21.147692 -14.829969 132.77351
550000000 -6.0036821 -158.44133 26.344147 119.33404 -34.223621 21.348898 -14.940327 131.95306
560000000 -5.9582219 -158.66116 26.241728 118.64856 -33.859497 21.41404 -15.110296 131.83667
570000000 -5.9212942 -159.01273 26.161579 118.03001 -34.022228 21.811119 -15.247947 131.25043
580000000 -5.8748455 -159.18651 26.067934 117.37682 -33.99987 22.473391 -15.37739 130.61958
590000000 -5.8011932 -159.646 25.984528 116.76882 -33.973976 21.628191 -15.560438 130.36418
600000000 -5.7598739 -159.7869 25.900949 116.13033 -33.704472 22.784235 -15.767004 129.96628
610000000 -5.7360883 -160.28285 25.792089 115.58068 -33.899837 21.989122 -15.938262 129.46672
620000000 -5.7015176 -160.44417 25.714087 115.01573 -33.639652 23.553495 -16.082037 129.41748
630000000 -5.6513577 -160.76793 25.62253 114.35093 -33.537731 25.016026 -16.251364 128.532
640000000 -5.6116586 -161.1628 25.518463 113.80936 -33.842411 24.419685 -16.451555 128.52652
650000000 -5.5792589 -161.40527 25.449402 113.24956 -33.728935 23.180941 -16.570208 127.95161
660000000 -5.5540795 -161.69516 25.353552 112.72517 -33.753723 24.715532 -16.749319 127.93246
670000000 -5.5123787 -161.96507 25.274902 112.1442 -33.591591 25.318977 -16.897278 127.58791
680000000 -5.4879069 -162.25311 25.193817 111.59017 -33.599091 25.835741 -17.029465 127.14561
690000000 -5.4575386 -162.53349 25.107313 111.08145 -33.293427 25.308273 -17.240274 126.68914
700000000 -5.4415698 -162.76762 25.022312 110.55602 -33.518574 26.101051 -17.378222 126.50547
710000000 -5.4007902 -163.10683 24.928289 109.9775 -33.350227 26.548883 -17.612604 126.18582
720000000 -5.3750811 -163.28528 24.860065 109.43993 -33.304916 29.047674 -17.776423 125.59198
730000000 -5.3397756 -163.5647 24.772442 108.95565 -33.301376 27.255867 -17.914959 125.82595
740000000 -5.3185987 -163.81505 24.686121 108.40348 -33.355572 27.777037 -18.078953 124.93923
750000000 -5.2915092 -164.11479 24.602211 107.9582 -33.255508 29.350504 -18.275911 125.12058
760000000 -5.2617683 -164.35545 24.525143 107.45484 -33.2257 27.601257 -18.416439 124.53172
770000000 -5.2362957 -164.59543 24.447065 106.94859 -33.209824 29.04693 -18.628223 124.51199
780000000 -5.2255626 -164.86481 24.360916 106.45724 -33.209202 27.852617 -18.777245 124.26283
790000000 -5.2104616 -165.10136 24.277498 106.02299 -33.072144 29.845762 -18.955139 123.95715
800000000 -5.1832285 -165.37471 24.196884 105.53646 -32.913685 29.938501 -19.113626 123.61711
810000000 -5.1584716 -165.65805 24.126535 105.06913 -32.98624 31.054903 -19.26918 123.67385
820000000 -5.1307759 -165.94403 24.052103 104.59605 -32.948284 30.335323 -19.519323 123.6283
830000000 -5.1243467 -166.17593 23.961315 104.16865 -33.032772 31.866264 -19.691204 122.87665
840000000 -5.1161799 -166.41263 23.885408 103.73216 -32.930962 30.347576 -19.860714 122.74139
850000000 -5.0925474 -166.63763 23.812313 103.25529 -32.752441 31.489847 -20.074114 122.78563
860000000 -5.0754199 -166.83395 23.733824 102.82105 -32.814072 32.512592 -20.210752 122.75426
870000000 -5.0586281 -167.12323 23.663671 102.39021 -32.76783 33.120941 -20.457272 122.6028
880000000 -5.0440354 -167.29797 23.580158 101.93976 -32.836937 31.471983 -20.636137 122.58426
890000000 -5.0143714 -167.55817 23.510225 101.53209 -32.539497 32.224083 -20.817053 122.37604
900000000 -5.0162692 -167.76358 23.42856 101.16533 -32.574799 33.070435 -21.028521 122.648
910000000 -4.9844985 -167.97318 23.356293 100.73406 -32.607151 32.545189 -21.272343 122.11732
920000000 -4.97329 -168.20148 23.288462 100.34348 -32.290154 32.126129 -21.442032 122.04985
930000000 -4.9719343 -168.35956 23.219156 99.951805 -32.522713 34.582821 -21.666664 121.28114
940000000 -4.9487247 -168.61945 23.148561 99.516357 -32.130482 33.335953 -21.936226 121.79924
950000000 -4.938097 -168.88094 23.064884 99.066551 -32.201103 34.812943 -22.192104 121.52458
960000000 -4.9295039 -169.16548 23.004963 98.663475 -32.056267 33.378017 -22.400272 121.785
970000000 -4.9103909 -169.34691 22.926546 98.312523 -32.279247 34.287506 -22.557627 121.30419
980000000 -4.9092078 -169.56955 22.867048 97.902802 -32.023415 34.041473 -22.788485 121.56023
990000000 -4.8981743 -169.77444 22.787897 97.521278 -32.043549 34.415184 -22.978655 121.50652
1000000000 -4.8772998 -171.83136 22.728981 97.120216 -31.937883 35.859016 -23.333258 123.40305
1010000000 -4.8851995 -170.20297 22.658867 96.720749 -31.921818 34.661266 -23.381924 122.13737
1020000000 -4.8650308 -170.47887 22.576738 96.312263 -31.873924 35.390053 -23.721363 121.38071
1030000000 -4.8523116 -170.73981 22.515678 95.935707 -31.878866 35.425236 -24.040211 121.72035
1040000000 -4.8490906 -170.87549 22.450689 95.578728 -31.92469 36.118092 -24.240564 121.75594
1050000000 -4.8456416 -171.13599 22.378895 95.221497 -31.791851 35.971928 -24.479485 122.03103
1060000000 -4.8381529 -171.31715 22.311468 94.915108 -31.637924 36.304844 -24.714315 122.08829
1070000000 -4.8291926 -171.49496 22.243563 94.493324 -31.563599 36.921249 -25.06185 122.68707
1080000000 -4.8242517 -171.66187 22.17329 94.155243 -31.658888 36.302109 -25.216745 121.87601
1090000000 -4.8022475 -171.92194 22.106253 93.788139 -31.625065 36.415825 -25.693672 122.7333
1100000000 -4.7872705 -172.07629 22.056183 93.417702 -31.522221 35.658119 -25.907963 123.11996
1110000000 -4.8011918 -172.19633 21.986891 93.106682 -31.506124 36.436481 -26.25897 123.01152
1120000000 -4.7896929 -172.45137 21.925116 92.793144 -31.395666 36.602093 -26.509348 123.46235
1130000000 -4.7892423 -172.63399 21.856182 92.39093 -31.313337 37.587254 -26.847389 124.38219
1140000000 -4.7868595 -172.90211 21.796484 92.105209 -31.144951 36.946426 -27.054514 123.88965
1150000000 -4.7826438 -173.08241 21.729721 91.705185 -31.277079 37.811684 -27.536409 124.84286
1160000000 -4.7766795 -173.24289 21.672016 91.336464 -31.265347 38.065575 -27.824951 124.70702
1170000000 -4.7645106 -173.39577 21.612143 91.037491 -31.25832 38.488319 -28.187269 124.73562
1180000000 -4.7586975 -173.65494 21.54681 90.662483 -31.175764 36.921646 -28.407728 125.33273
1190000000 -4.7587514 -173.89806 21.484283 90.375359 -31.015604 37.448357 -28.876799 125.59038
1200000000 -4.7537293 -174.03722 21.419481 89.995438 -30.985956 37.368851 -29.286392 126.42176
1210000000 -4.7416739 -174.29414 21.366051 89.700714 -30.864479 39.348309 -29.521618 127.66968
1220000000 -4.7430511 -174.3623 21.302013 89.361702 -30.908047 37.981892 -29.89802 130.21211
1230000000 -4.730155 -174.55199 21.244167 89.033279 -30.904091 37.861477 -30.602694 127.81953
1240000000 -4.7294035 -174.70088 21.186192 88.752525 -30.646025 39.119194 -30.85198 129.32413
1250000000 -4.7265673 -174.95486 21.133591 88.412804 -30.832863 38.355137 -31.003347 131.41258
1260000000 -4.7297378 -175.16505 21.069824 88.07843 -30.627131 38.885998 -31.588884 131.86606
1270000000 -4.7182798 -175.33229 21.016331 87.755928 -30.622705 37.675617 -31.688011 135.76659
1280000000 -4.7096229 -175.54813 20.954014 87.430542 -30.582119 38.341816 -32.549992 136.20177
1290000000 -4.7018623 -175.79556 20.897991 87.119331 -30.493607 38.287857 -32.790646 138.67159
1300000000 -4.6969128 -175.87645 20.839466 86.829323 -30.459164 39.121044 -33.19297 139.28441
1310000000 -4.6936102 -176.08679 20.785126 86.493149 -30.393982 39.616596 -33.569874 142.55855
1320000000 -4.6939297 -176.34619 20.729359 86.184807 -30.36204 39.196095 -34.267399 142.60565
1330000000 -4.6809745 -176.50705 20.679548 85.894691 -30.299372 39.803574 -34.833042 145.52733
1340000000 -4.6866403 -176.64436 20.619141 85.600822 -30.316036 38.902161 -35.244686 150.96484
1350000000 -4.6863189 -176.86046 20.564373 85.293983 -30.287535 38.840122 -35.620491 152.96587
1360000000 -4.6898999 -177.0379 20.51318 84.982079 -30.259754 39.57848 -36.317345 152.77406
1370000000 -4.6792865 -177.13431 20.448763 84.688454 -30.210974 39.97942 -36.294559 156.67667
1380000000 -4.6686916 -177.32782 20.402296 84.388367 -30.229187 39.597126 -37.486633 161.87883
1390000000 -4.6710167 -177.51096 20.353537 84.059753 -30.212545 38.33289 -37.283516 162.54892
1400000000 -4.6768594 -177.83797 20.295044 83.752792 -30.007195 39.420483 -37.11639 173.79567
1410000000 -4.6697893 -177.98578 20.241985 83.44455 -29.92852 39.590218 -37.966225 176.12144
1420000000 -4.672287 -178.16478 20.184694 83.215652 -30.001436 39.899864 -37.609291 178.08192
1430000000 -4.6629448 -178.3105 20.132332 82.882629 -29.847532 39.805336 -38.170452 -171.95013
1440000000 -4.6558604 -178.5731 20.085854 82.56897 -29.691086 38.847794 -37.67601 -167.30894
1450000000 -4.6551423 -178.7532 20.033672 82.303146 -29.745491 39.477249 -37.631851 -163.67613
1460000000 -4.6572666 -178.88948 19.982859 81.946167 -29.707788 39.276108 -37.226597 -157.69601
1470000000 -4.6495714 -179.11183 19.930389 81.709045 -29.625914 39.261822 -37.5774 -149.93369
1480000000 -4.6510649 -179.32245 19.874592 81.416649 -29.715717 40.222069 -37.600574 -147.96364
1490000000 -4.6559043 -179.4711 19.823376 81.135254 -29.53229 40.014683 -37.065277 -146.38144
1500000000 -4.6551876 -179.65411 19.771748 80.839317 -29.527784 39.489044 -36.41069 -143.73219
1510000000 -4.661902 -179.82004 19.719515 80.560234 -29.470284 40.798359 -36.391369 -137.57288
1520000000 -4.6527586 -179.89777 19.674644 80.322067 -29.455141 39.913982 -36.188034 -134.50081
1530000000 -4.6449194 179.84593 19.623293 80.023003 -29.462564 40.130432 -35.65247 -133.1057
1540000000 -4.6380973 179.63303 19.584574 79.710243 -29.380491 40.258629 -34.90958 -128.89143
1550000000 -4.6352167 179.46953 19.526991 79.415504 -29.509314 40.949162 -34.695217 -124.66706
1560000000 -4.6433167 179.25215 19.484694 79.162361 -29.358582 40.637138 -34.512226 -125.70193
1570000000 -4.6434073 179.10699 19.426584 78.867485 -29.410454 40.3778 -33.879635 -122.97771
1580000000 -4.6592364 178.9731 19.388376 78.567818 -29.250286 40.765846 -33.597027 -121.06463
1590000000 -4.6477318 178.79684 19.332863 78.354172 -29.060148 40.133923 -33.023266 -121.83795
1600000000 -4.6367741 178.59142 19.284496 78.08075 -29.160423 40.037178 -32.851822 -117.91456
1610000000 -4.6383796 178.47746 19.24242 77.773224 -29.029673 40.698795 -32.526012 -117.3251
1620000000 -4.6237974 178.27713 19.200754 77.511276 -29.213846 40.851151 -32.207638 -116.33427
1630000000 -4.6354942 178.11815 19.154598 77.221489 -29.07266 40.432114 -31.744724 -115.78549
1640000000 -4.6401658 177.86397 19.107252 76.926323 -29.012058 40.190838 -31.524868 -116.7478
1650000000 -4.6429272 177.76187 19.056597 76.693794 -28.840723 40.528934 -31.059853 -114.74275
1660000000 -4.6460814 177.63876 19.008209 76.428535 -28.887535 41.277897 -30.920696 -113.7715
1670000000 -4.6358104 177.40796 18.973225 76.159714 -28.827023 39.985367 -30.780624 -112.66399
1680000000 -4.623961 177.11621 18.931227 75.850853 -28.778807 39.275673 -30.203251 -113.95435
1690000000 -4.6358891 176.97212 18.881807 75.654396 -28.770639 39.676666 -30.000345 -112.66782
1700000000 -4.6314516 176.74887 18.837851 75.294983 -28.685827 40.400455 -29.797506 -112.15848
1710000000 -4.6288548 176.56219 18.790554 75.041435 -28.646513 40.09631 -29.776373 -110.99685
1720000000 -4.6450438 176.41571 18.745888 74.77523 -28.650663 39.505054 -29.327579 -110.23422
1730000000 -4.6338396 176.22351 18.703243 74.503716 -28.563774 39.7113 -29.179461 -109.87704
1740000000 -4.6396065 176.08531 18.658886 74.256691 -28.615551 40.588333 -28.890486 -109.64168
1750000000 -4.6336842 175.85242 18.6094 73.943535 -28.489523 39.975311 -28.658733 -110.22417
1760000000 -4.6278319 175.71181 18.571367 73.733994 -28.476896 40.681252 -28.600748 -110.64441
1770000000 -4.6365843 175.50903 18.523651 73.45269 -28.419359 40.556149 -28.40436 -109.3401
1780000000 -4.6437726 175.30635 18.47707 73.170418 -28.437574 40.110542 -28.192783 -109.02133
1790000000 -4.6398096 175.11237 18.432728 72.931183 -28.296837 40.192581 -27.882736 -110.29572
1800000000 -4.6350002 174.99075 18.394184 72.697342 -28.291447 40.313763 -27.789764 -108.7007
1810000000 -4.6512785 174.76402 18.353523 72.455673 -28.252531 40.986717 -27.500952 -109.58804
1820000000 -4.6401649 174.61134 18.307753 72.144112 -28.223522 39.773949 -27.257345 -108.5202
1830000000 -4.6263785 174.4633 18.272211 71.896927 -28.203226 40.855755 -27.055811 -108.63445
1840000000 -4.6250014 174.237 18.232321 71.582291 -28.076853 40.19162 -26.783756 -108.93625
1850000000 -4.6319509 174.05165 18.187048 71.358467 -28.017181 39.994698 -26.684029 -109.75441
1860000000 -4.6333818 173.80043 18.144135 71.032356 -28.095413 39.782936 -26.572496 -109.60114
1870000000 -4.6414094 173.71635 18.100462 70.802032 -28.124359 39.818203 -26.345495 -109.71007
1880000000 -4.6375237 173.53204 18.052891 70.55719 -28.092173 41.04388 -26.177729 -109.21123
1890000000 -4.6410384 173.31485 18.017918 70.292801 -27.956425 40.404514 -26.096487 -108.73225
1900000000 -4.6369929 173.17963 17.973148 70.066109 -27.910442 40.528217 -25.872356 -108.53447
1910000000 -4.6394553 173.02841 17.937916 69.771111 -27.807281 39.594151 -25.732698 -110.29506
1920000000 -4.6286483 172.77261 17.892017 69.500221 -27.793453 40.423542 -25.542889 -109.81869
1930000000 -4.6358671 172.5472 17.850204 69.227242 -27.809561 40.145947 -25.424585 -110.0149
1940000000 -4.6317897 172.36145 17.806023 69.002502 -27.836067 39.853928 -25.335049 -110.03618
1950000000 -4.6409144 172.22763 17.769169 68.78524 -27.713051 40.024853 -25.272104 -109.26855
1960000000 -4.6415205 172.08633 17.732985 68.513222 -27.650686 39.131367 -25.057634 -109.5817
1970000000 -4.6371527 171.92834 17.690229 68.264381 -27.53413 39.574783 -24.927059 -109.31306
1980000000 -4.63234 171.76714 17.655207 68.010971 -27.581503 39.359325 -24.711235 -109.49542
1990000000 -4.630043 171.58931 17.610392 67.767731 -27.633547 40.542526 -24.60214 -109.38015
2000000000 -4.6676259 171.34695 17.568439 67.463699 -27.547043 39.564854 -24.59259 -110.26386
2010000000 -4.6369023 171.18045 17.534306 67.253242 -27.453461 38.534088 -24.378658 -109.55935
2020000000 -4.6426592 171.02908 17.495747 67.002693 -27.506693 39.790745 -24.264343 -110.57564
2030000000 -4.6432576 170.86568 17.454031 66.759445 -27.428833 39.921574 -24.219265 -110.71694
2040000000 -4.63765 170.66196 17.420979 66.523468 -27.385429 39.501682 -24.009184 -110.88927
2050000000 -4.6411476 170.42453 17.386442 66.277573 -27.449465 39.021664 -23.815838 -110.86134
2060000000 -4.6352963 170.30609 17.350376 65.992912 -27.267807 39.574432 -23.652428 -110.5958
2070000000 -4.6329947 169.96245 17.310797 65.677925 -27.295528 38.918915 -23.63245 -111.01128
2080000000 -4.63557 169.82697 17.271784 65.478912 -27.193487 38.585991 -23.494623 -111.45239
2090000000 -4.6432519 169.69391 17.225149 65.258835 -27.234951 38.112381 -23.39579 -111.33181
2100000000 -4.6452112 169.42897 17.192385 64.964317 -27.280794 39.092476 -23.33256 -111.77045
2110000000 -4.6378083 169.3105 17.170359 64.750122 -27.144835 39.054459 -23.313648 -111.30368
2120000000 -4.6283298 169.11522 17.122568 64.508331 -27.15975 39.289856 -23.125605 -111.26707
