# Hz S  dB   R 50
10000000 -6.5535069 -78.655403 34.607002 146.73572 -36.418205 28.643024 -6.1753488 -107.96704
20000000 -9.3961287 -108.39327 32.110401 152.20929 -36.017906 17.597919 -7.6699052 -140.49225
30000000 -10.634271 -123.24812 31.142395 156.53511 -34.756969 13.893352 -8.0340414 -153.96208
40000000 -11.066331 -132.69098 30.703491 158.85207 -34.842079 10.712731 -8.1958294 -161.92979
50000000 -11.318158 -137.68123 30.484077 160.11729 -34.34798 10.142127 -8.230689 -166.97212
60000000 -11.349436 -140.86989 30.330431 160.50717 -34.959507 9.2720861 -8.2947693 -171.11386
70000000 -11.334919 -142.88139 30.236513 160.44691 -34.759808 10.929562 -8.3747845 -173.99789
80000000 -11.246182 -144.14177 30.135695 160.05374 -34.845943 10.194283 -8.4530096 -176.44763
90000000 -11.099232 -144.87518 30.064209 159.45338 -35.04142 7.4634538 -8.4704657 -178.44482
100000000 -11.012905 -145.24986 29.995108 158.79376 -34.656414 8.6664267 -8.5289469 179.56992
110000000 -10.840284 -145.64944 29.927097 157.95879 -34.68187 8.4925117 -8.5850611 177.99998
120000000 -10.642038 -146.10541 29.859354 157.0479 -34.706722 7.9116516 -8.6251879 176.65428
130000000 -10.470318 -146.16772 29.789293 156.06348 -34.788498 8.3169327 -8.6848793 175.29538
140000000 -10.287952 -146.25815 29.721067 155.0558 -34.816116 8.2880287 -8.7678633 173.9379
150000000 -10.086305 -146.26033 29.65115 154.04871 -34.893986 7.7203813 -8.8419476 172.82045
160000000 -9.9324646 -146.12247 29.593309 152.98747 -34.712589 8.5347795 -8.9255247 171.76456
170000000 -9.7361546 -146.43584 29.515371 151.96883 -34.763351 8.7384844 -8.9698763 170.73001
180000000 -9.5130978 -146.48543 29.43327 150.83359 -34.624638 10.156069 -9.0107489 169.68105
190000000 -9.3309641 -146.61047 29.371906 149.7016 -34.829121 9.6164112 -9.0674009 168.86337
200000000 -9.1861525 -146.86107 29.282166 148.71375 -34.747585 11.363655 -9.1581926 167.89549
210000000 -8.9834719 -146.96477 29.208067 147.65263 -34.827351 10.789192 -9.260745 166.99178
220000000 -8.8063107 -147.0502 29.127266 146.50926 -34.649292 10.906366 -9.3414717 166.21378
230000000 -8.6563864 -147.34789 29.043531 145.53746 -34.877335 11.049722 -9.4227514 165.43362
240000000 -8.4979343 -147.4418 28.958744 144.46402 -34.847862 12.622466 -9.5101089 164.74791
250000000 -8.3510494 -147.72865 28.864063 143.42958 -34.873196 12.144999 -9.589139 164.00742
260000000 -8.1800432 -147.92223 28.790272 142.43947 -34.654362 11.438342 -9.6938629 163.3654
270000000 -8.0442848 -148.43254 28.696444 141.39603 -34.663925 15.724501 -9.7527485 162.7063
280000000 -7.8709216 -148.5182 28.604612 140.36882 -34.718544 11.696704 -9.8776588 162.28943
290000000 -7.7586269 -148.69582 28.510302 139.40581 -34.337978 14.52078 -9.9637499 161.74715
300000000 -7.6183214 -149.20508 28.414772 138.41632 -34.930111 13.074554 -10.010072 161.03661
310000000 -7.4829698 -149.54269 28.320299 137.3963 -34.51136 16.082212 -10.14529 160.46169
320000000 -7.3685279 -149.83018 28.230339 136.49107 -34.8092 17.476908 -10.206391 160.0733
330000000 -7.2581735 -150.2061 28.131596 135.60744 -34.621399 16.787382 -10.295439 159.61267
340000000 -7.1605673 -150.56822 28.034367 134.68736 -34.455658 15.894414 -10.400948 159.16084
350000000 -7.0443454 -151.04643 27.935322 133.77628 -34.804882 19.578152 -10.503715 158.79987
360000000 -6.9331813 -151.3681 27.845005 132.87668 -34.643272 18.288647 -10.601115 158.27101
370000000 -6.8600965 -151.79884 27.729963 132.01982 -34.510807 20.301704 -10.689964 157.68571
380000000 -6.7416806 -152.06938 27.649513 131.1398 -34.620037 16.807932 -10.790376 157.55151
390000000 -6.6373382 -152.45142 27.556547 130.23972 -34.43956 18.215117 -10.888082 157.26802
400000000 -6.5710583 -152.79959 27.453148 129.46104 -34.61264 18.714439 -10.950934 156.82477
410000000 -6.461555 -153.24467 27.353079 128.63503 -34.511822 20.145844 -11.056686 156.56685
420000000 -6.3843956 -153.61853 27.251966 127.87805 -34.330433 19.905216 -11.157017 156.34698
430000000 -6.3117766 -153.93456 27.147785 127.15324 -34.586823 19.322674 -11.244442 156.07346
440000000 -6.2399473 -154.36185 27.052597 126.33054 -34.619625 20.206974 -11.338165 155.89346
450000000 -6.1699567 -154.70486 26.961697 125.54389 -34.323357 23.72806 -11.454428 155.47211
460000000 -6.0935807 -155.08795 26.856318 124.83006 -34.393032 21.17717 -11.55843 155.3895
470000000 -6.029613 -155.48949 26.765072 124.07713 -34.454006 21.007933 -11.618217 155.06017
480000000 -5.9745231 -155.8799 26.659033 123.36378 -34.358685 23.952946 -11.763535 154.92009
490000000 -5.8861823 -156.15521 26.570229 122.61607 -34.320313 25.093937 -11.849161 154.69917
500000000 -5.8796339 -156.50609 26.475037 121.94527 -33.87505 24.758875 -11.890791 154.54419
510000000 -5.7820878 -156.78973 26.369062 121.26122 -34.227184 22.875509 -12.022326 154.20522
520000000 -5.7390108 -157.17934 26.285931 120.64562 -34.268642 26.138332 -12.128349 154.24797
530000000 -5.6777759 -157.61591 26.188349 119.90508 -33.86459 26.518612 -12.203219 154.18011
540000000 -5.6368165 -157.91377 26.084633 119.2724 -34.082951 27.434877 -12.287406 153.88548
550000000 -5.5786619 -158.3195 25.992022 118.62952 -34.13681 27.212044 -12.366172 153.7177
560000000 -5.5358348 -158.63763 25.888933 117.99249 -33.737511 26.536987 -12.47798 153.71649
570000000 -5.5067315 -158.961 25.80743 117.38193 -33.663738 27.874498 -12.549619 153.54832
580000000 -5.4472861 -159.18442 25.710159 116.72867 -33.884098 27.827753 -12.61177 153.50603
590000000 -5.3916073 -159.60963 25.627892 116.15327 -33.634781 28.488232 -12.733213 153.52251
600000000 -5.3542871 -159.91566 25.538898 115.54745 -33.751396 28.000568 -12.789646 153.14075
610000000 -5.3244925 -160.23138 25.428534 114.99255 -33.893356 28.90048 -12.921186 153.32275
620000000 -5.2923999 -160.69797 25.342632 114.4332 -33.652615 28.971224 -13.003428 153.40279
630000000 -5.2493539 -161.01198 25.2526 113.80788 -33.792313 30.489988 -13.086403 153.17627
640000000 -5.2102299 -161.33832 25.143082 113.2925 -33.486458 29.849157 -13.189943 153.47447
650000000 -5.1976304 -161.58968 25.069715 112.75468 -33.705227 31.881992 -13.247968 153.34781
660000000 -5.1539655 -161.90298 24.978121 112.22102 -33.321819 30.894011 -13.314244 153.47023
670000000 -5.1247592 -162.25974 24.895323 111.67632 -33.232567 31.317013 -13.411906 153.61075
680000000 -5.1022229 -162.53459 24.81074 111.10846 -33.410591 32.200588 -13.476507 153.57706
690000000 -5.0780959 -162.77602 24.722658 110.64592 -33.10788 31.833906 -13.562026 153.50908
700000000 -5.0590777 -163.09297 24.634708 110.13583 -33.114723 31.941343 -13.62775 153.47011
710000000 -5.0184588 -163.40903 24.543877 109.55524 -33.029564 33.348961 -13.736494 153.64072
720000000 -4.9868588 -163.62149 24.476307 109.05649 -33.038788 32.988659 -13.796108 153.36342
730000000 -4.9578381 -163.92227 24.383734 108.56729 -32.857655 32.475483 -13.863153 153.71812
740000000 -4.9338202 -164.16435 24.298471 108.03313 -32.744415 33.748547 -13.94373 153.67061
750000000 -4.9243727 -164.50011 24.210821 107.62575 -32.891033 33.611996 -14.006683 153.58897
760000000 -4.8956099 -164.77492 24.133673 107.1289 -32.839813 33.834469 -14.055836 153.58594
770000000 -4.8743877 -164.99541 24.049976 106.65673 -32.774746 35.22963 -14.16085 154.04732
780000000 -4.8483052 -165.31287 23.967211 106.19453 -32.824055 33.851425 -14.224989 153.8093
790000000 -4.8317194 -165.62668 23.880646 105.75378 -32.73436 34.569454 -14.312618 154.06964
800000000 -4.8103747 -165.95154 23.798462 105.28729 -32.665115 35.075401 -14.376838 153.88666
810000000 -4.7941771 -166.13785 23.726151 104.81676 -32.56525 35.386448 -14.423481 154.36165
820000000 -4.7781577 -166.39391 23.649574 104.36945 -32.212757 35.210186 -14.484398 154.48094
830000000 -4.7728529 -166.69269 23.561636 103.97943 -32.423946 35.750961 -14.55588 154.41769
840000000 -4.7598996 -166.88252 23.478773 103.54397 -32.408958 36.0578 -14.653514 154.57558
850000000 -4.7420287 -167.21065 23.40814 103.10891 -32.324993 38.277702 -14.727286 154.62402
860000000 -4.7242494 -167.39896 23.330309 102.67498 -32.317505 37.352554 -14.740532 154.7905
870000000 -4.6934705 -167.64545 23.259466 102.24945 -32.060051 36.01392 -14.821783 155.02399
880000000 -4.6848269 -167.87033 23.17498 101.82979 -32.128658 36.835583 -14.889395 155.17802
890000000 -4.6724133 -168.20226 23.10528 101.43533 -32.171997 38.021839 -14.944248 155.22034
900000000 -4.6669145 -168.40135 23.020678 101.07285 -32.021427 38.492004 -15.042013 155.65669
910000000 -4.6503835 -168.55588 22.94875 100.68703 -32.012379 37.990917 -15.075768 155.4007
920000000 -4.6281295 -168.80852 22.87982 100.29072 -31.81534 37.607487 -15.182932 155.47342
930000000 -4.6267781 -168.94823 22.809723 99.93425 -31.74103 37.786114 -15.221368 155.83386
940000000 -4.6018662 -169.18399 22.738823 99.518394 -31.485968 38.398266 -15.298785 155.91037
950000000 -4.6003366 -169.48753 22.658281 99.100494 -31.837578 38.912624 -15.383946 155.91745
960000000 -4.5926442 -169.75026 22.596415 98.667305 -31.540039 39.119404 -15.419794 156.36394
970000000 -4.5773764 -169.98149 22.515486 98.317123 -31.65654 39.395489 -15.486719 156.48686
980000000 -4.5786276 -170.25302 22.450987 97.965706 -31.346767 39.298061 -15.524448 156.69206
990000000 -4.5680881 -170.49765 22.371548 97.54747 -31.51952 39.332539 -15.560823 156.87505
1000000000 -4.5425262 -172.52037 22.318441 97.189003 -31.435884 40.223083 -15.669308 158.58923
1010000000 -4.5519733 -170.95488 22.249418 96.797249 -31.307421 39.187462 -15.670295 157.04802
1020000000 -4.5360975 -171.21201 22.166302 96.398628 -31.346943 39.603249 -15.759166 157.3391
1030000000 -4.5233436 -171.35324 22.100672 96.03846 -31.123466 39.650219 -15.836176 157.63939
1040000000 -4.5160975 -171.60332 22.034519 95.706512 -31.133772 40.043758 -15.874183 157.72601
1050000000 -4.5148659 -171.85252 21.967241 95.366913 -30.95462 40.356049 -15.937429 157.89804
1060000000 -4.5125642 -171.94124 21.894024 95.083359 -30.992231 39.980427 -15.977621 158.29974
1070000000 -4.4953561 -172.14821 21.830982 94.68174 -31.050985 40.431686 -16.05501 158.45703
1080000000 -4.4997869 -172.40605 21.7575 94.333267 -30.926882 40.623447 -16.080238 158.36455
1090000000 -4.4893918 -172.60437 21.690943 93.984329 -30.864048 40.449371 -16.18565 158.84552
1100000000 -4.4775844 -172.81683 21.63735 93.639259 -30.86635 40.627041 -16.201838 158.93398
1110000000 -4.4790115 -172.94603 21.574541 93.289993 -30.770929 40.125851 -16.266005 159.31468
1120000000 -4.4718108 -173.23904 21.504612 93.021225 -30.715372 40.276978 -16.333656 159.49219
1130000000 -4.4706612 -173.35966 21.442226 92.647842 -30.620693 41.535301 -16.388042 159.77942
1140000000 -4.4792681 -173.64523 21.379225 92.378281 -30.665018 41.337738 -16.42515 159.80702
1150000000 -4.458858 -173.87828 21.313705 91.961067 -30.496132 41.635769 -16.487724 160.13242
1160000000 -4.4600911 -174.0448 21.255228 91.628883 -30.507231 40.925354 -16.562004 160.39503
1170000000 -4.4506888 -174.22932 21.19323 91.322731 -30.459974 42.663662 -16.569309 160.76344
1180000000 -4.4394979 -174.41669 21.130684 90.966698 -30.453207 41.678078 -16.643587 160.91655
1190000000 -4.4418988 -174.65636 21.068678 90.73896 -30.226343 41.943272 -16.69359 160.98338
1200000000 -4.4383998 -174.85316 21.00489 90.320625 -30.174913 42.412838 -16.776197 161.13477
1210000000 -4.4287782 -175.04517 20.945564 90.049423 -30.250854 42.733204 -16.799953 161.67496
1220000000 -4.4377232 -175.1891 20.88348 89.752686 -30.289524 41.333664 -16.79808 161.67299
1230000000 -4.423409 -175.3465 20.827385 89.433617 -29.999924 41.869598 -16.935261 161.96486
1240000000 -4.4229178 -175.51927 20.771511 89.133522 -30.093363 42.093365 -16.936705 162.23006
1250000000 -4.4230552 -175.72778 20.714264 88.819527 -29.926579 42.43721 -16.944506 162.54637
1260000000 -4.4204159 -175.94179 20.656315 88.471756 -29.908836 42.941738 -17.005592 162.44183
1270000000 -4.4140711 -176.14998 20.594414 88.200668 -29.764723 42.356857 -17.006857 162.93271
1280000000 -4.4122715 -176.34201 20.537521 87.874344 -29.711527 42.387386 -17.058363 163.24687
1290000000 -4.4006238 -176.5826 20.476196 87.576828 -29.665833 42.769199 -17.066238 163.38657
1300000000 -4.3928747 -176.75937 20.423122 87.274963 -29.715593 43.181564 -17.115662 163.59763
1310000000 -4.3915911 -176.95831 20.367256 86.936722 -29.691849 43.218815 -17.16239 163.92525
1320000000 -4.3940125 -177.16254 20.31138 86.664696 -29.625734 42.653297 -17.24194 163.71103
1330000000 -4.3883815 -177.3286 20.262928 86.385406 -29.510159 42.545799 -17.270174 164.05692
1340000000 -4.3902969 -177.47289 20.201138 86.110832 -29.640417 42.067043 -17.288786 164.49673
1350000000 -4.3864512 -177.67978 20.147875 85.804893 -29.384178 43.426228 -17.352432 164.5242
1360000000 -4.3902869 -177.88501 20.101654 85.509659 -29.456703 42.229828 -17.380354 164.54327
1370000000 -4.3829956 -178.04883 20.034805 85.232216 -29.34104 43.286633 -17.43718 164.75826
1380000000 -4.3745818 -178.25943 19.98595 84.938454 -29.134075 42.915901 -17.483805 165.03604
1390000000 -4.3686957 -178.42 19.944038 84.626007 -29.064974 42.556953 -17.407158 165.06102
1400000000 -4.3784027 -178.65213 19.878042 84.304947 -29.271383 43.192886 -17.497032 165.63837
1410000000 -4.380846 -178.82718 19.825321 84.012665 -29.105469 42.256805 -17.565218 165.8602
1420000000 -4.3803139 -179.05827 19.768978 83.793617 -29.051783 43.800091 -17.573942 165.85715
1430000000 -4.3783174 -179.26237 19.712736 83.465088 -29.046299 42.4533 -17.613226 166.35657
1440000000 -4.3764601 -179.43939 19.672895 83.191383 -29.017807 42.853508 -17.629425 166.53569
1450000000 -4.3655076 -179.52434 19.619787 82.924889 -28.861032 43.541435 -17.675533 166.45035
1460000000 -4.3696146 -179.75711 19.565426 82.57663 -28.824806 43.124176 -17.659164 166.9756
1470000000 -4.355021 -179.96342 19.516296 82.372162 -28.776754 43.954102 -17.744844 167.04189
1480000000 -4.3651366 179.84663 19.46085 82.09446 -28.803656 43.397484 -17.765862 167.22441
1490000000 -4.3696117 179.63367 19.405947 81.816528 -28.782967 43.187653 -17.746866 167.3701
1500000000 -4.374341 179.45535 19.353388 81.508858 -28.560778 44.3465 -17.719238 167.79185
1510000000 -4.3765216 179.31 19.309612 81.232368 -28.690432 43.972679 -17.797525 167.6877
1520000000 -4.3694472 179.13217 19.259581 81.000137 -28.663439 43.726654 -17.846525 168.09024
1530000000 -4.3658504 178.95952 19.210672 80.717445 -28.489378 43.4851 -17.86062 168.43172
1540000000 -4.3573403 178.75386 19.16802 80.411972 -28.588278 43.426487 -17.866219 168.57646
1550000000 -4.3701787 178.5327 19.112518 80.117203 -28.348961 43.530052 -17.946686 168.85078
1560000000 -4.365541 178.34203 19.072134 79.879295 -28.36581 44.236874 -17.894711 168.96739
1570000000 -4.3675671 178.16078 19.015882 79.616531 -28.306725 43.77029 -17.92038 169.2662
1580000000 -4.3762412 177.96863 18.972273 79.344864 -28.366264 43.34927 -17.975128 169.51294
1590000000 -4.3685441 177.87286 18.922245 79.091675 -28.307358 43.594646 -17.939381 169.45032
1600000000 -4.3651133 177.58713 18.871231 78.819855 -28.255787 42.728523 -17.983574 170.05136
1610000000 -4.354228 177.52705 18.830687 78.536842 -28.215574 43.070255 -18.012529 170.07718
1620000000 -4.3570786 177.28366 18.78912 78.296349 -27.987007 42.89743 -17.991188 170.23618
1630000000 -4.3619804 177.13399 18.743187 78.00518 -28.05785 43.539261 -18.004366 170.81517
1640000000 -4.3596082 176.86166 18.696402 77.75367 -27.993961 43.904476 -17.966377 170.64499
1650000000 -4.3722672 176.74496 18.645029 77.510437 -27.918737 42.633812 -18.044437 170.74904
1660000000 -4.3634524 176.66692 18.600548 77.232971 -27.894835 43.121059 -18.013494 170.99146
1670000000 -4.3566899 176.47003 18.5667 77.011902 -27.904121 43.374542 -18.060371 171.25249
1680000000 -4.3581338 176.207 18.521326 76.691238 -27.939228 43.498943 -18.049915 171.73618
1690000000 -4.3495822 176.03693 18.470711 76.514709 -27.866276 43.102543 -18.041245 171.8976
1700000000 -4.3636241 175.77631 18.425232 76.153389 -27.771446 43.250561 -18.051756 171.98495
1710000000 -4.3580322 175.58636 18.383556 75.92382 -27.705034 43.070961 -18.07847 171.77588
1720000000 -4.3616176 175.46719 18.333466 75.657074 -27.667301 43.225811 -18.089624 171.93796
1730000000 -4.3651381 175.24666 18.294668 75.403427 -27.643326 43.299358 -18.112793 172.24609
1740000000 -4.3635759 175.1754 18.251331 75.164856 -27.609598 43.32193 -18.137123 172.71098
1750000000 -4.3757749 174.86938 18.199223 74.834709 -27.519182 43.557884 -18.156404 172.72243
1760000000 -4.3550959 174.68819 18.163767 74.644478 -27.456192 42.446827 -18.098577 173.16902
1770000000 -4.3685336 174.50664 18.113373 74.372192 -27.489429 43.135723 -18.137358 172.74803
1780000000 -4.3620353 174.41411 18.071741 74.094864 -27.332462 42.679386 -18.146469 173.50642
1790000000 -4.3684483 174.14319 18.02562 73.877975 -27.311394 42.599979 -18.086275 173.62585
1800000000 -4.3716931 174.00644 17.987751 73.653847 -27.320101 43.214493 -18.193947 173.68588
1810000000 -4.3630185 173.78262 17.945084 73.388916 -27.400494 43.666058 -18.122477 173.96484
1820000000 -4.3613172 173.6386 17.90402 73.105766 -27.271502 42.571354 -18.196075 174.34952
1830000000 -4.3670268 173.4395 17.86425 72.872681 -27.144211 43.119659 -18.161428 174.74652
1840000000 -4.3552094 173.23708 17.825035 72.573738 -27.247677 42.691101 -18.109486 174.72499
1850000000 -4.3642931 172.99078 17.781757 72.356697 -27.114479 42.475422 -18.111719 174.48982
1860000000 -4.3603339 172.77777 17.735937 72.007042 -27.101095 42.208927 -18.098114 175.1478
1870000000 -4.3659506 172.72032 17.694569 71.811775 -27.202892 42.509029 -18.099649 175.04826
1880000000 -4.3760047 172.55646 17.647718 71.568901 -27.040575 42.552219 -18.096935 175.44299
1890000000 -4.3764424 172.38515 17.621477 71.344048 -27.092993 42.385265 -18.117819 175.47273
1900000000 -4.3732357 172.15714 17.567064 71.107468 -26.94021 42.517601 -18.145729 176.20667
1910000000 -4.3666782 172.01471 17.533043 70.798912 -26.845688 42.843513 -18.094172 175.81062
1920000000 -4.3638272 171.74556 17.489635 70.540131 -26.901476 42.196545 -18.103092 176.53397
1930000000 -4.3811107 171.5623 17.449389 70.287018 -26.782621 42.59771 -18.067043 176.49406
1940000000 -4.3765516 171.35556 17.405453 70.036278 -26.749699 41.989288 -18.039389 176.45848
1950000000 -4.3671846 171.22078 17.370445 69.855049 -26.729033 42.098717 -18.083256 176.73007
1960000000 -4.3706889 171.05904 17.335184 69.597832 -26.781519 41.639462 -18.07959 176.80019
1970000000 -4.3751321 170.92763 17.293907 69.345268 -26.637917 41.949253 -18.113993 177.19949
1980000000 -4.3783178 170.85535 17.251045 69.086937 -26.720755 41.020466 -18.073946 177.38495
1990000000 -4.3691287 170.50168 17.208944 68.888184 -26.596685 41.744862 -18.068899 177.8197
2000000000 -4.4035559 170.27914 17.172405 68.554298 -26.525946 42.206394 -17.970425 177.61581
2010000000 -4.3815188 170.07918 17.130375 68.378021 -26.608765 41.490173 -18.071859 177.90967
2020000000 -4.3775368 169.97835 17.095623 68.111679 -26.542122 42.907085 -17.969503 177.72746
2030000000 -4.3823628 169.82761 17.054289 67.866211 -26.38806 41.999592 -17.990074 177.87035
2040000000 -4.3760676 169.63298 17.023777 67.631302 -26.444136 41.763294 -17.977224 178.44385
2050000000 -4.3849902 169.49161 16.989002 67.410255 -26.359089 41.674706 -17.97821 178.98616
2060000000 -4.3650384 169.24759 16.948906 67.107132 -26.3407 41.17881 -17.868187 179.1898
2070000000 -4.3731785 168.97945 16.90888 66.852318 -26.372494 40.485249 -17.947178 179.01135
2080000000 -4.3790526 168.75687 16.870691 66.640068 -26.182665 41.255589 -17.88838 179.06592
2090000000 -4.3846874 168.62065 16.829817 66.431221 -26.214592 41.087303 -17.836996 179.27876
2100000000 -4.3820643 168.45 16.796576 66.135612 -26.266651 40.621716 -17.862522 179.17375
2110000000 -4.3805685 168.26331 16.776571 65.942451 -26.187052 41.033436 -17.910627 179.67436
2120000000 -4.3697643 168.08011 16.724609 65.702644 -26.001892 40.626446 -17.881311 179.27437
2130000000 -4.3674135 167.93607 16.696634 65.381149 -26.106161 41.049736 -17.844421 179.33202
