# Hz S  dB   R 50
10000000 -6.2822776 -83.519997 34.961655 148.86815 -35.836594 38.067734 -7.2162137 -109.44273
20000000 -8.5173349 -115.12179 32.534111 153.19524 -35.414127 24.426811 -7.9031315 -141.98393
30000000 -9.3287401 -131.11639 31.569599 157.08888 -34.637741 10.673797 -8.0272169 -155.23462
40000000 -9.7591915 -140.2326 31.126837 159.17755 -34.778454 9.5748262 -8.1184711 -163.64583
50000000 -9.9907856 -145.88814 30.894337 160.32852 -34.868721 10.010204 -8.1849766 -168.89934
60000000 -10.073253 -149.50763 30.732992 160.67424 -34.707439 7.5653396 -8.2195988 -173.25916
70000000 -10.137721 -151.47243 30.632864 160.60042 -35.079323 5.6904187 -8.2886286 -176.33238
80000000 -10.085423 -152.86893 30.526064 160.22087 -34.944153 8.4404764 -8.3331594 -178.93265
90000000 -10.072701 -153.80881 30.454454 159.62688 -35.181534 7.8405261 -8.375246 178.58522
100000000 -10.047685 -154.24448 30.383135 158.97455 -34.974731 8.0030136 -8.4312134 176.51767
110000000 -9.9792471 -154.60512 30.313961 158.15924 -34.810535 7.6668243 -8.483243 174.83476
120000000 -9.8498783 -154.66975 30.244776 157.25397 -34.69434 7.6133199 -8.5468063 172.97498
130000000 -9.7439737 -154.74069 30.172859 156.29979 -34.867222 7.6334476 -8.616518 171.33524
140000000 -9.6328802 -154.785 30.101839 155.30603 -34.909622 6.85216 -8.7060843 169.73956
150000000 -9.5008516 -154.71512 30.032476 154.33281 -35.050972 7.9771676 -8.7816715 168.24579
160000000 -9.4124947 -154.5442 29.97814 153.29814 -35.048939 7.6269879 -8.8637123 166.97194
170000000 -9.2877827 -154.59825 29.900951 152.30878 -35.089054 7.4249306 -8.9283142 165.67366
180000000 -9.1413593 -154.45955 29.82246 151.20401 -34.887741 9.5816784 -8.9607201 164.31963
190000000 -9.0077925 -154.28242 29.76403 150.08746 -35.222641 8.3568058 -9.048954 163.19939
200000000 -8.8990536 -154.46227 29.679119 149.11639 -34.984852 10.415793 -9.1290855 161.98547
210000000 -8.7601528 -154.34804 29.604515 148.05626 -34.912888 7.1503773 -9.2471714 160.71474
220000000 -8.6145239 -154.06689 29.525831 146.92155 -35.235458 10.144146 -9.3418961 159.74284
230000000 -8.5027885 -154.3089 29.446367 145.97672 -35.010277 9.7254324 -9.4369907 158.66652
240000000 -8.3740349 -154.37914 29.364695 144.90822 -35.019398 10.61293 -9.5360699 157.77266
250000000 -8.2671366 -154.47151 29.273422 143.88873 -34.982025 10.511127 -9.6347532 156.6463
260000000 -8.1476412 -154.35648 29.200808 142.92307 -35.212776 5.5373998 -9.7602577 155.66829
270000000 -8.0200386 -154.58017 29.115673 141.8783 -35.044834 11.236359 -9.8363628 154.72067
280000000 -7.8640294 -154.64505 29.02742 140.85811 -34.889153 10.133649 -9.9767542 154.07167
290000000 -7.7868371 -154.70723 28.934526 139.91353 -35.168644 12.193852 -10.07339 152.97382
300000000 -7.6554251 -154.85394 28.845146 138.91544 -34.859344 14.798621 -10.169724 152.05949
310000000 -7.5369401 -155.02318 28.751299 137.9071 -34.869946 12.796491 -10.291854 151.35739
320000000 -7.4239583 -155.27672 28.665745 137.0097 -35.05302 12.515217 -10.381408 150.17845
330000000 -7.3486814 -155.62111 28.570429 136.14059 -34.90712 15.120203 -10.495347 149.59544
340000000 -7.2675524 -155.71121 28.477674 135.20444 -35.128429 14.016509 -10.616851 148.84352
350000000 -7.1479883 -155.93744 28.382929 134.30521 -35.259018 15.022419 -10.753566 148.32524
360000000 -7.066422 -156.24527 28.293428 133.38188 -35.097336 16.38559 -10.878613 147.60986
370000000 -6.9727297 -156.5462 28.186644 132.53113 -35.018867 16.313753 -10.988046 146.84793
380000000 -6.8912807 -156.57965 28.108311 131.66002 -35.208858 16.503284 -11.130294 146.20848
390000000 -6.8104467 -156.86473 28.012505 130.76688 -35.280937 16.615517 -11.238093 145.56708
400000000 -6.724833 -157.13376 27.920145 129.95749 -35.165668 18.72089 -11.346375 145.08992
410000000 -6.6489635 -157.45607 27.817097 129.10873 -34.915092 17.427483 -11.500225 144.35196
420000000 -6.5769653 -157.79556 27.722929 128.37309 -34.782631 18.543079 -11.626052 143.92596
430000000 -6.5087967 -158.06496 27.618137 127.64388 -34.885601 18.041662 -11.749977 143.48172
440000000 -6.426878 -158.39172 27.52747 126.77745 -35.50267 19.672361 -11.856 142.85233
450000000 -6.3697848 -158.56195 27.440483 126.0003 -34.818726 20.480627 -12.01627 141.86447
460000000 -6.2968683 -158.82314 27.334087 125.29645 -34.760967 19.571171 -12.138182 141.7012
470000000 -6.2343783 -159.12875 27.244259 124.52304 -34.643112 22.077063 -12.250726 141.27997
480000000 -6.1719098 -159.3284 27.140818 123.83584 -34.744541 20.688314 -12.412282 140.65103
490000000 -6.1123219 -159.64011 27.055113 123.07087 -34.622997 22.030867 -12.512643 140.24544
500000000 -6.1052222 -159.8663 26.965065 122.36736 -34.995098 22.175314 -12.611005 139.61746
510000000 -6.0195241 -160.14655 26.858841 121.67409 -34.871731 23.074305 -12.776315 139.28082
520000000 -5.9710813 -160.43079 26.777723 121.07207 -34.498665 23.197893 -12.936727 138.90392
530000000 -5.9137301 -160.7298 26.680502 120.29276 -34.620743 22.391617 -13.039436 138.59396
540000000 -5.8642139 -160.88362 26.584284 119.6714 -34.594257 23.447882 -13.162514 138.02261
550000000 -5.8189859 -161.33554 26.48601 119.01226 -34.510155 24.842005 -13.299736 137.57431
560000000 -5.7767262 -161.44199 26.391287 118.34117 -34.295544 25.644663 -13.416529 137.25424
570000000 -5.7371922 -161.82854 26.306942 117.74369 -34.4795 25.000622 -13.535781 136.91222
580000000 -5.6903968 -162.01553 26.211447 117.08201 -34.311539 27.571331 -13.679222 136.42763
590000000 -5.6433053 -162.34174 26.12641 116.51258 -34.411758 25.158253 -13.822652 136.24142
600000000 -5.6035709 -162.50081 26.04496 115.87874 -33.980335 25.464611 -13.921279 135.75383
610000000 -5.5628982 -162.93591 25.936638 115.31601 -34.007351 25.492071 -14.075356 135.76892
620000000 -5.5380654 -163.14398 25.853905 114.76086 -34.356766 27.166048 -14.260434 135.27646
630000000 -5.4959769 -163.45186 25.7637 114.12096 -34.149933 28.367254 -14.388521 135.16422
640000000 -5.465127 -163.82271 25.654257 113.5809 -34.266819 30.028805 -14.558093 134.92738
650000000 -5.4399014 -163.99837 25.583439 113.01772 -34.062908 30.133389 -14.691168 134.78421
660000000 -5.4096389 -164.28877 25.494362 112.48705 -34.05072 29.144058 -14.777435 134.65436
670000000 -5.3658271 -164.48041 25.409081 111.92561 -33.867958 28.827869 -14.923162 134.35815
680000000 -5.3498225 -164.7937 25.328747 111.36545 -33.746033 28.865524 -15.033391 134.28207
690000000 -5.32513 -165.03951 25.241791 110.88274 -33.737511 28.630409 -15.227774 134.05157
700000000 -5.3003693 -165.31065 25.156651 110.33303 -34.143791 31.192579 -15.325942 133.95203
710000000 -5.2722273 -165.57864 25.064707 109.76554 -33.522449 30.503704 -15.526197 133.66327
720000000 -5.2421331 -165.73566 24.99296 109.2502 -33.596031 31.123123 -15.583915 133.32111
730000000 -5.2145958 -165.96445 24.906811 108.76613 -33.459904 31.311043 -15.730238 133.51367
740000000 -5.1942148 -166.22304 24.815403 108.21772 -33.619686 32.400459 -15.88901 133.16182
750000000 -5.1724529 -166.45078 24.733 107.7894 -33.654507 33.729568 -16.005268 133.08775
760000000 -5.1454606 -166.74045 24.657438 107.27485 -33.553284 32.446133 -16.125025 132.89633
770000000 -5.1339645 -166.93784 24.577387 106.80081 -33.197853 32.526024 -16.321297 132.50742
780000000 -5.1147075 -167.21483 24.491777 106.34146 -33.27071 34.553185 -16.433918 132.75368
790000000 -5.0853968 -167.43448 24.410568 105.88096 -33.186844 33.613327 -16.541143 132.61852
800000000 -5.0850244 -167.67603 24.325443 105.41875 -33.245262 34.75375 -16.664505 132.27541
810000000 -5.0512495 -167.86469 24.253895 104.92426 -33.258476 35.038853 -16.821352 132.7287
820000000 -5.0346804 -168.20636 24.174784 104.494 -33.080933 35.967079 -16.998121 132.45184
830000000 -5.0182881 -168.47031 24.091946 104.02834 -33.028347 36.171997 -17.129166 132.32025
840000000 -5.0167122 -168.59622 24.013922 103.61123 -33.072613 35.600643 -17.20433 132.35863
850000000 -4.9957476 -168.93198 23.937714 103.16229 -33.034767 35.974033 -17.400232 132.40668
860000000 -4.9815626 -169.02129 23.861675 102.70879 -32.614231 35.89064 -17.512844 132.23105
870000000 -4.9513884 -169.24171 23.791035 102.31181 -32.748093 36.42445 -17.712097 132.2458
880000000 -4.950314 -169.49365 23.703529 101.84998 -32.98946 35.851967 -17.800617 132.2408
890000000 -4.9319954 -169.71576 23.634146 101.45927 -32.722328 37.278545 -17.950346 132.47626
900000000 -4.9261885 -169.87027 23.553312 101.08516 -32.659451 37.791904 -18.104382 132.52768
910000000 -4.9084477 -170.03381 23.47957 100.66744 -32.691032 37.466202 -18.203592 132.54433
920000000 -4.8979745 -170.28763 23.411169 100.27808 -32.5429 36.565914 -18.32461 132.24413
930000000 -4.8813276 -170.40115 23.344807 99.916145 -32.520729 37.094006 -18.505417 132.22493
940000000 -4.8752995 -170.63928 23.27272 99.490585 -32.44347 36.925503 -18.658344 132.49579
950000000 -4.8636622 -170.86963 23.189669 99.047722 -32.377762 37.432476 -18.829096 132.50874
960000000 -4.8509884 -171.09782 23.129702 98.619186 -32.402561 38.186768 -18.982456 132.81792
970000000 -4.8316946 -171.37778 23.048376 98.273613 -32.21767 39.058395 -19.094105 133.03088
980000000 -4.8293347 -171.63063 22.988047 97.880806 -32.115852 39.378956 -19.242079 132.88246
990000000 -4.8253069 -171.88196 22.909664 97.477409 -31.932062 37.39185 -19.373343 133.19231
1000000000 -4.8072944 -173.8376 22.849972 97.105263 -32.124935 38.245068 -19.573982 134.68893
1010000000 -4.8150072 -172.20279 22.779682 96.680916 -32.052242 39.082851 -19.634462 133.54396
1020000000 -4.8016729 -172.43597 22.69788 96.276009 -31.99065 39.65202 -19.876289 133.55782
1030000000 -4.7850242 -172.66983 22.634462 95.911827 -31.856462 38.381512 -20.015066 133.79845
1040000000 -4.7795215 -172.83162 22.573256 95.584671 -31.93576 39.369286 -20.164322 134.02231
1050000000 -4.7815661 -173.00352 22.499027 95.247948 -31.772102 38.461456 -20.2644 134.15453
1060000000 -4.7708921 -173.22069 22.430964 94.936989 -31.839024 39.983501 -20.454029 134.53107
1070000000 -4.7646308 -173.35396 22.366865 94.50251 -31.635677 40.424587 -20.612528 134.80396
1080000000 -4.75383 -173.5466 22.297001 94.167847 -31.65029 40.020664 -20.719082 134.57991
1090000000 -4.7485456 -173.74297 22.224228 93.820053 -31.371931 39.180622 -20.968418 134.69768
1100000000 -4.7406754 -173.90918 22.16971 93.437775 -31.521421 40.011971 -21.078747 135.10551
1110000000 -4.738462 -174.0844 22.107264 93.116325 -31.287067 40.038662 -21.32765 135.56497
1120000000 -4.7299643 -174.38791 22.046974 92.810341 -31.420607 40.344074 -21.485653 135.95325
1130000000 -4.7214131 -174.47591 21.975901 92.459724 -31.141645 40.750492 -21.582392 136.47888
1140000000 -4.7230825 -174.73607 21.915911 92.167519 -31.246351 40.117844 -21.680782 136.88953
1150000000 -4.718749 -174.92828 21.847616 91.754211 -31.268358 40.805962 -21.94191 136.89548
1160000000 -4.7145095 -175.07921 21.793427 91.385742 -31.184847 40.60033 -22.084772 137.46036
1170000000 -4.7082825 -175.27347 21.725531 91.079041 -31.194124 41.474438 -22.22576 137.72029
1180000000 -4.6942401 -175.41484 21.670099 90.725845 -31.072882 41.084816 -22.370392 137.77734
1190000000 -4.6948752 -175.6848 21.603975 90.466827 -31.162941 41.754787 -22.611952 138.39011
1200000000 -4.6883783 -175.86507 21.540298 90.071342 -31.020069 42.008842 -22.713676 138.93681
1210000000 -4.6880774 -176.07698 21.483316 89.771088 -30.944361 41.389145 -22.92001 139.99368
1220000000 -4.6913562 -176.18501 21.416842 89.441116 -30.872057 42.166965 -23.026188 140.13461
1230000000 -4.6779022 -176.34859 21.3657 89.125206 -30.83993 41.334938 -23.290718 139.80582
1240000000 -4.6836696 -176.49483 21.303358 88.831177 -30.869671 41.833439 -23.41024 140.68246
1250000000 -4.6778097 -176.65561 21.248587 88.538773 -30.585865 42.014488 -23.570635 141.66809
1260000000 -4.6647239 -176.89857 21.191805 88.178604 -30.535223 41.0905 -23.700531 142.25073
1270000000 -4.6689057 -177.11316 21.132744 87.853401 -30.586115 42.397892 -23.804977 142.98412
1280000000 -4.661746 -177.33057 21.070478 87.561012 -30.583691 41.923244 -24.013695 143.8308
1290000000 -4.6534114 -177.44473 21.013882 87.221321 -30.503313 41.514343 -24.076941 144.26637
1300000000 -4.65062 -177.55688 20.960344 86.95015 -30.45858 42.524239 -24.209209 145.49867
1310000000 -4.6466055 -177.80437 20.903019 86.606224 -30.459215 41.772572 -24.400051 146.15074
1320000000 -4.6571965 -178.01353 20.843809 86.328125 -30.158096 41.656879 -24.602066 145.70801
1330000000 -4.6416702 -178.18971 20.797346 86.032913 -30.200348 42.790783 -24.773981 146.17137
1340000000 -4.6475568 -178.28484 20.734783 85.746391 -30.136696 42.103092 -24.991243 147.54362
1350000000 -4.6471953 -178.51146 20.679234 85.444626 -30.242245 42.324318 -25.047937 148.31152
1360000000 -4.6446309 -178.694 20.632027 85.150047 -30.078049 43.082443 -25.243729 148.2014
1370000000 -4.6350613 -178.76521 20.5693 84.852394 -30.036196 42.450039 -25.326588 148.46848
1380000000 -4.6305203 -179.01086 20.517883 84.533424 -29.84539 42.391628 -25.527336 150.16077
1390000000 -4.6272354 -179.19475 20.471592 84.203079 -29.937109 42.734116 -25.567131 150.09825
1400000000 -4.6356287 -179.42429 20.412195 83.920525 -29.75539 42.529724 -25.715706 152.19804
1410000000 -4.6225381 -179.58046 20.361355 83.631668 -29.779755 42.696297 -25.873062 153.00362
1420000000 -4.6328764 -179.81235 20.300146 83.394417 -29.734787 42.690136 -26.020214 153.00093
1430000000 -4.6337805 -179.89734 20.24902 83.058739 -29.68679 42.444595 -26.303915 155.31483
1440000000 -4.6325855 179.8696 20.201323 82.778412 -29.671698 42.907299 -26.217506 155.62723
1450000000 -4.6310749 179.71219 20.150066 82.489105 -29.634569 42.434231 -26.399483 156.63614
1460000000 -4.6266613 179.55591 20.096813 82.15905 -29.71776 42.207382 -26.384136 157.99686
1470000000 -4.6111155 179.31377 20.047312 81.907028 -29.510721 43.289719 -26.645473 159.40146
1480000000 -4.6237454 179.12851 19.992178 81.634926 -29.37089 43.768959 -26.745684 159.82062
1490000000 -4.6201558 179.02097 19.940573 81.342766 -29.502329 43.051758 -26.7651 160.68451
1500000000 -4.6232429 178.80536 19.889135 81.03746 -29.385658 43.715343 -26.844942 161.3916
1510000000 -4.628562 178.63998 19.836201 80.770546 -29.460833 44.160763 -27.006794 162.43956
1520000000 -4.6165175 178.54427 19.788061 80.540337 -29.323879 43.059204 -27.212715 164.38812
1530000000 -4.6201959 178.4028 19.739357 80.249107 -29.162291 42.277306 -27.179152 165.40213
1540000000 -4.6138663 178.16292 19.698494 79.955826 -29.181679 43.252613 -27.436708 166.95885
1550000000 -4.6124277 177.94212 19.644588 79.629456 -29.207779 43.214478 -27.485987 166.57034
1560000000 -4.6150012 177.76552 19.601976 79.366554 -29.132103 43.059025 -27.399553 168.64537
1570000000 -4.6161828 177.56667 19.543028 79.111786 -29.004435 43.090641 -27.300318 170.7424
1580000000 -4.6380048 177.40167 19.497124 78.808853 -29.102379 43.479271 -27.56806 171.83347
1590000000 -4.6220508 177.29103 19.450043 78.595688 -28.930716 43.308208 -27.54558 172.81306
1600000000 -4.6190605 177.11589 19.39802 78.309448 -29.022793 43.240444 -27.712122 174.7023
1610000000 -4.6037974 176.9698 19.35741 78.004601 -28.774416 42.966396 -27.637745 175.36514
1620000000 -4.6081166 176.743 19.318813 77.749893 -28.924904 43.473495 -27.736996 176.26492
1630000000 -4.6037073 176.54491 19.269436 77.478569 -28.800377 43.22921 -27.58161 178.82965
1640000000 -4.6237197 176.39757 19.218647 77.21357 -28.62674 42.376743 -27.636639 178.60126
1650000000 -4.621623 176.25082 19.172905 76.964287 -28.772732 43.431366 -27.60668 -178.84691
1660000000 -4.621563 176.16423 19.122599 76.703537 -28.753845 43.744125 -27.636335 -179.05388
1670000000 -4.6162777 175.94601 19.087242 76.449829 -28.550812 43.48634 -27.613562 -177.20164
1680000000 -4.6117635 175.70079 19.046497 76.119987 -28.564661 42.34161 -27.386513 -175.22052
1690000000 -4.5996838 175.51624 18.995411 75.934555 -28.538347 42.750896 -27.582685 -174.51247
1700000000 -4.6059942 175.34258 18.953173 75.564102 -28.494381 43.33194 -27.53417 -173.12172
1710000000 -4.6264033 175.15202 18.904932 75.319588 -28.506145 42.802513 -27.665213 -173.02985
1720000000 -4.6200094 174.99991 18.858648 75.058456 -28.313639 42.936596 -27.542036 -172.66089
1730000000 -4.6267152 174.83014 18.814423 74.799896 -28.412868 42.132813 -27.674891 -169.93404
1740000000 -4.6121054 174.73077 18.776279 74.575073 -28.24184 42.542812 -27.422615 -168.08377
1750000000 -4.6139789 174.41068 18.727949 74.225853 -28.293961 42.674801 -27.403635 -168.14432
1760000000 -4.6051712 174.30699 18.686537 74.053673 -28.16766 43.169941 -27.45752 -167.27812
1770000000 -4.6097064 174.06731 18.63479 73.744179 -28.15708 42.817509 -27.293158 -166.1349
1780000000 -4.620132 173.93686 18.594233 73.491707 -28.19758 42.339272 -27.323284 -164.35541
1790000000 -4.6140518 173.76579 18.54759 73.236282 -28.2314 43.061836 -27.123512 -164.1884
1800000000 -4.6360869 173.62573 18.50832 73.029213 -28.141619 42.429787 -27.228212 -162.34563
1810000000 -4.631216 173.36316 18.466869 72.756958 -27.975744 43.081501 -27.081438 -161.7412
1820000000 -4.6241522 173.22951 18.428135 72.475357 -28.059576 42.558239 -26.954893 -160.88171
1830000000 -4.6191616 173.09978 18.387857 72.235443 -27.924452 42.928116 -26.892038 -159.24242
1840000000 -4.6086693 172.90881 18.343876 71.927681 -27.938353 42.005459 -26.764318 -159.26935
1850000000 -4.6151571 172.681 18.302465 71.685051 -27.860411 42.693127 -26.47151 -158.33868
1860000000 -4.6113682 172.44188 18.2579 71.369743 -27.812876 42.422421 -26.522121 -158.03352
1870000000 -4.6251545 172.32054 18.211483 71.16851 -27.829973 42.846405 -26.449066 -157.24049
1880000000 -4.6269298 172.19273 18.166451 70.904526 -27.818018 42.064301 -26.444695 -156.01819
1890000000 -4.6168199 172.02263 18.138609 70.652428 -27.79899 42.139351 -26.326727 -155.13268
1900000000 -4.6240001 171.86906 18.089245 70.428566 -27.521521 41.954521 -26.246021 -153.51514
1910000000 -4.6211228 171.72704 18.052376 70.120422 -27.501394 41.995274 -25.95159 -154.31335
1920000000 -4.6054716 171.38075 18.00843 69.824562 -27.501856 41.512768 -25.85601 -152.29257
1930000000 -4.6357718 171.23512 17.962963 69.594025 -27.488367 42.560272 -25.960312 -153.02318
1940000000 -4.6203027 171.08447 17.92395 69.386803 -27.457666 41.661232 -25.771198 -152.80385
1950000000 -4.6326766 170.92361 17.885509 69.159546 -27.548653 42.29681 -25.695677 -151.00517
1960000000 -4.6347218 170.85091 17.849936 68.915077 -27.364155 42.019821 -25.664478 -151.13937
1970000000 -4.6291094 170.6048 17.807959 68.63768 -27.351147 42.180252 -25.664158 -149.95903
1980000000 -4.6262302 170.45853 17.769718 68.371422 -27.474152 41.784035 -25.549223 -149.00124
1990000000 -4.6274767 170.24557 17.724924 68.164299 -27.361778 41.421608 -25.285166 -148.95889
2000000000 -4.6605334 170.02524 17.685251 67.855919 -27.323339 41.609688 -25.186422 -149.14354
2010000000 -4.6340446 169.82159 17.647209 67.662918 -27.200916 41.389305 -25.096073 -148.15538
2020000000 -4.6342549 169.701 17.607851 67.370491 -27.195503 41.943981 -25.051601 -148.01498
2030000000 -4.6424208 169.52209 17.5681 67.145988 -27.149147 42.321861 -24.908148 -147.59993
2040000000 -4.6295457 169.39821 17.533808 66.915062 -27.162399 40.564117 -24.757627 -147.02635
2050000000 -4.6349177 169.20244 17.500143 66.679565 -27.012331 41.027493 -24.612988 -145.80194
2060000000 -4.620892 169.06926 17.462664 66.418434 -27.098417 41.551228 -24.49765 -145.71631
2070000000 -4.6228266 168.71237 17.4256 66.09272 -26.996681 41.56525 -24.452572 -145.60556
2080000000 -4.6257925 168.55513 17.386089 65.908195 -27.058941 41.740944 -24.303524 -146.11888
2090000000 -4.6364784 168.47389 17.343876 65.680595 -27.038668 40.611877 -24.168774 -145.45581
2100000000 -4.6344194 168.19127 17.306467 65.408997 -26.852436 41.082199 -24.203051 -145.41243
2110000000 -4.6365457 168.01575 17.285782 65.159317 -26.856913 40.673981 -24.14114 -144.86418
2120000000 -4.6308112 167.88329 17.235273 64.948677 -26.748039 41.446999 -24.037868 -144.36459
2130000000 -4.6263604 167.70935 17.20372 64.636223 -26.846041 40.971783 -23.860907 -144.47786
