# Hz S  dB   R 50
10000000 -6.3804355 -78.654953 34.688496 147.84903 -35.498234 31.650898 -6.386754 -101.27008
20000000 -9.2009764 -109.65378 32.231007 152.51772 -34.8102 17.696791 -8.0677376 -135.2254
30000000 -10.483383 -125.70399 31.238621 156.58531 -34.590233 10.873479 -8.5479498 -150.53313
40000000 -10.996012 -134.05664 30.785593 158.86298 -34.188942 9.7409363 -8.8300724 -159.26279
50000000 -11.263546 -139.26056 30.551765 160.13315 -34.116154 8.7921276 -8.9128637 -165.34277
60000000 -11.295633 -142.80591 30.391384 160.54208 -34.443672 10.307775 -8.9738407 -170.1131
70000000 -11.343746 -144.52748 30.292929 160.52608 -34.233459 6.0519519 -9.061306 -173.55176
80000000 -11.293389 -145.98254 30.191641 160.17339 -34.289539 8.1492004 -9.1567125 -176.26651
90000000 -11.15968 -146.6123 30.121166 159.62273 -34.372997 7.6728125 -9.1806726 -178.7159
100000000 -11.095467 -147.09877 30.052938 158.97885 -34.29744 6.1852369 -9.2518339 179.18498
110000000 -10.935817 -147.51901 29.984266 158.17989 -34.575523 5.574882 -9.3110094 177.38016
120000000 -10.77865 -147.54483 29.918083 157.30478 -34.452877 7.202817 -9.3538542 175.75261
130000000 -10.603921 -147.61342 29.848246 156.345 -34.391827 5.6283617 -9.4188652 174.06567
140000000 -10.442662 -147.65625 29.782932 155.35144 -34.341537 8.1576481 -9.5325603 172.44672
150000000 -10.262841 -147.57233 29.714285 154.37158 -34.555912 6.2767277 -9.6007557 171.12608
160000000 -10.106957 -147.51186 29.660002 153.34822 -34.429451 8.5267363 -9.6912718 169.78419
170000000 -9.9339552 -147.67928 29.583479 152.36275 -34.461342 7.2990646 -9.745225 168.59192
180000000 -9.722455 -147.65451 29.505556 151.23717 -34.266781 7.1071606 -9.7870455 167.312
190000000 -9.5406876 -147.70393 29.446165 150.13579 -34.286121 8.8727226 -9.8477736 166.30574
200000000 -9.4051189 -147.91032 29.362181 149.16605 -34.175781 8.0875273 -9.9566555 165.07904
210000000 -9.2244368 -147.81018 29.286495 148.11668 -34.529568 8.374507 -10.054692 163.89717
220000000 -9.0322847 -147.80984 29.212976 146.98442 -34.381165 7.5320544 -10.147638 163.02139
230000000 -8.8980694 -148.09822 29.130354 146.02754 -34.304665 9.0146894 -10.241551 162.02109
240000000 -8.7353477 -148.29199 29.049736 144.97089 -34.426292 9.4511557 -10.353397 161.29675
250000000 -8.5942106 -148.44075 28.959524 143.93504 -34.5093 8.6552181 -10.443665 160.20435
260000000 -8.4532185 -148.521 28.885422 142.95914 -34.535728 13.45471 -10.535441 159.18108
270000000 -8.295104 -148.86882 28.800089 141.9413 -34.380074 13.347652 -10.652062 158.40479
280000000 -8.1361237 -149.07782 28.70883 140.92548 -34.046623 11.196253 -10.740914 157.73297
290000000 -7.9958434 -149.33263 28.619261 139.93774 -34.827358 10.188514 -10.850489 157.17398
300000000 -7.865653 -149.66245 28.531183 138.97873 -34.356071 14.168219 -10.948714 156.34831
310000000 -7.7189441 -149.82016 28.437178 137.97481 -34.503353 14.830405 -11.08626 155.55473
320000000 -7.6537361 -150.21646 28.347076 137.06631 -34.799942 11.197211 -11.188275 154.47974
330000000 -7.5079422 -150.70976 28.256363 136.19402 -34.326248 14.387389 -11.272364 154.24289
340000000 -7.3983665 -150.89078 28.159571 135.27669 -34.394775 13.421611 -11.382119 153.51175
350000000 -7.2826142 -151.18753 28.063656 134.35452 -34.536705 11.258311 -11.526479 153.05321
360000000 -7.1623669 -151.61198 27.977455 133.45724 -34.557255 13.735365 -11.623346 152.39841
370000000 -7.0886011 -151.93787 27.867741 132.62398 -34.042629 13.154829 -11.746383 151.80354
380000000 -6.9891281 -152.20609 27.789093 131.73476 -34.724037 14.44185 -11.860304 151.15411
390000000 -6.9030495 -152.51506 27.695646 130.87257 -34.264599 15.748528 -11.970785 150.90962
400000000 -6.820457 -152.91417 27.599764 130.05357 -34.060955 15.034498 -12.065984 150.45523
410000000 -6.7118988 -153.21225 27.501112 129.2196 -34.37962 17.173857 -12.221351 149.86203
420000000 -6.6279864 -153.59918 27.404795 128.46574 -34.311096 18.247875 -12.341807 149.37607
430000000 -6.5694208 -154.08612 27.300127 127.72971 -34.244751 19.614384 -12.43762 148.91988
440000000 -6.4838486 -154.37915 27.210329 126.90064 -34.234394 18.747225 -12.548364 148.55399
450000000 -6.3970871 -154.67 27.120453 126.11647 -34.127846 17.756292 -12.697223 148.02357
460000000 -6.3437328 -155.03296 27.01749 125.39282 -34.224857 18.345882 -12.823142 147.74089
470000000 -6.2736602 -155.39261 26.927031 124.63974 -34.170212 19.024757 -12.913108 147.3439
480000000 -6.2083077 -155.72813 26.825075 123.91282 -33.973015 18.6957 -13.077133 147.07901
490000000 -6.1374187 -156.06017 26.738333 123.17443 -34.145248 20.801935 -13.209535 146.59708
500000000 -6.1243901 -156.38516 26.64534 122.49469 -34.353252 22.279085 -13.297659 146.23541
510000000 -6.0131774 -156.79747 26.545683 121.7986 -34.424194 22.078611 -13.409198 145.71191
520000000 -5.9632845 -157.13057 26.46139 121.18451 -34.149918 21.233892 -13.615729 145.60959
530000000 -5.9049802 -157.4066 26.366673 120.41579 -34.168491 20.705677 -13.676983 145.60001
540000000 -5.8599272 -157.81282 26.264969 119.79091 -33.669514 22.493567 -13.751436 145.13635
550000000 -5.8074245 -158.1292 26.172285 119.14032 -33.492859 24.233637 -13.928143 144.71021
560000000 -5.7626429 -158.36328 26.077337 118.48113 -33.776993 24.83585 -14.031119 144.64211
570000000 -5.7232976 -158.82008 25.991993 117.86958 -33.994652 24.869135 -14.102749 144.54074
580000000 -5.691844 -158.92485 25.898411 117.25473 -33.822605 24.600706 -14.216135 144.12674
590000000 -5.623632 -159.35669 25.814346 116.65154 -33.661243 24.419436 -14.376871 144.00874
600000000 -5.5781441 -159.64589 25.730551 116.01557 -33.586216 25.191475 -14.490125 143.62978
610000000 -5.5477791 -160.00748 25.620647 115.44859 -33.698242 27.407673 -14.651302 143.9502
620000000 -5.5090609 -160.3679 25.543888 114.90875 -33.825535 26.077818 -14.753236 143.64555
630000000 -5.4666176 -160.63295 25.452835 114.26085 -33.670883 27.54125 -14.877091 143.44032
640000000 -5.4229293 -161.05064 25.345362 113.73099 -33.496384 28.716551 -15.053913 143.38982
650000000 -5.400249 -161.24602 25.274382 113.20139 -33.590458 28.122425 -15.150154 143.3632
660000000 -5.3769937 -161.57649 25.178465 112.65235 -33.534119 28.289501 -15.279844 143.38808
670000000 -5.3351927 -161.85196 25.097673 112.08807 -33.547768 27.815887 -15.395512 143.43898
680000000 -5.3132052 -162.17795 25.019714 111.55118 -33.568527 27.710953 -15.475362 143.4558
690000000 -5.2825332 -162.43549 24.930357 111.05944 -33.464798 28.446283 -15.646016 143.20015
700000000 -5.2531667 -162.7079 24.846218 110.52049 -33.388306 27.365715 -15.716869 143.30035
710000000 -5.2209425 -163.02792 24.752983 109.94257 -33.199486 30.775476 -15.910836 143.2392
720000000 -5.2050271 -163.21692 24.685221 109.45361 -33.334946 31.290674 -15.99657 142.74219
730000000 -5.176271 -163.56587 24.596647 108.93661 -33.131794 30.02874 -16.076456 143.1274
740000000 -5.1455088 -163.86078 24.507845 108.42827 -32.977036 31.056498 -16.271481 143.12723
750000000 -5.126761 -164.06549 24.423382 107.9792 -33.100784 30.959572 -16.371284 143.15059
760000000 -5.1089807 -164.37434 24.344664 107.47987 -32.932747 30.775057 -16.4347 142.89742
770000000 -5.0772533 -164.64713 24.266485 106.99269 -32.874542 29.784826 -16.570906 143.22211
780000000 -5.0650578 -164.95193 24.182545 106.52454 -32.780582 32.510498 -16.667526 143.3806
790000000 -5.0320482 -165.20714 24.102144 106.0483 -32.807461 31.196684 -16.801483 143.28012
800000000 -5.0183797 -165.46449 24.018909 105.6088 -32.820786 30.937424 -16.924177 143.38686
810000000 -4.9993215 -165.77031 23.945639 105.12199 -32.786999 32.787422 -17.025034 143.38664
820000000 -4.9817266 -166.00449 23.868744 104.68762 -32.584858 32.454838 -17.136562 143.49449
830000000 -4.9611602 -166.28395 23.784513 104.23446 -32.489792 32.289894 -17.219086 143.44438
840000000 -4.9511642 -166.42949 23.705053 103.82803 -32.585098 32.683846 -17.347733 143.78674
850000000 -4.9389372 -166.75397 23.630774 103.36494 -32.379452 33.908535 -17.54612 143.77763
860000000 -4.9225779 -166.97411 23.554205 102.91774 -32.360378 33.618774 -17.579432 143.98622
870000000 -4.8990884 -167.18341 23.48288 102.51862 -32.343807 35.440548 -17.735893 144.16818
880000000 -4.8787303 -167.46486 23.401628 102.07264 -32.299908 33.993847 -17.840256 144.72252
890000000 -4.8741531 -167.68839 23.328939 101.65434 -32.495754 34.057602 -17.933111 144.18272
900000000 -4.8662877 -167.91232 23.248156 101.30932 -32.290825 34.769234 -18.053532 144.73947
910000000 -4.8386512 -168.13417 23.174746 100.87415 -32.153404 35.289925 -18.145149 144.74486
920000000 -4.8203039 -168.36502 23.105772 100.51468 -32.182697 35.594418 -18.333193 145.03502
930000000 -4.8270702 -168.43915 23.034533 100.14456 -32.0602 33.707283 -18.376459 145.06345
940000000 -4.8062572 -168.73912 22.965345 99.683556 -31.955349 36.896729 -18.534529 145.27826
950000000 -4.7888532 -168.99872 22.885124 99.264763 -32.025654 36.296532 -18.687698 145.48935
960000000 -4.7734241 -169.26349 22.826283 98.850204 -31.862284 36.010956 -18.843512 146.22482
970000000 -4.7646961 -169.48561 22.747974 98.489998 -31.820169 36.098164 -18.894354 146.16093
980000000 -4.7528939 -169.78473 22.683296 98.098587 -31.700846 37.343887 -18.974478 146.565
990000000 -4.7488265 -169.97235 22.606092 97.723961 -31.702206 37.089211 -19.099899 147.04333
1000000000 -4.7287726 -172.08061 22.547819 97.310791 -31.708822 36.356754 -19.272512 148.85564
1010000000 -4.740582 -170.40762 22.478392 96.929634 -31.664963 36.556953 -19.274055 147.3817
1020000000 -4.7218947 -170.68005 22.394436 96.514206 -31.437874 36.996693 -19.438168 147.80417
1030000000 -4.7044692 -170.87881 22.335215 96.148338 -31.500727 37.016212 -19.524351 148.43414
1040000000 -4.7003326 -171.13611 22.271753 95.789497 -31.426859 37.795578 -19.663973 148.38873
1050000000 -4.7012072 -171.32085 22.202805 95.46669 -31.402151 38.141758 -19.764368 148.69308
1060000000 -4.6956325 -171.50339 22.1313 95.142403 -31.408234 38.275082 -19.889816 149.55698
1070000000 -4.6821461 -171.74994 22.066795 94.758316 -31.341616 38.849743 -19.985447 149.69174
1080000000 -4.682724 -171.88686 21.995474 94.414223 -31.172609 37.893543 -20.104671 149.57721
1090000000 -4.6644602 -172.11108 21.925817 94.055588 -31.144678 38.759102 -20.262768 150.58887
1100000000 -4.6676288 -172.29706 21.869694 93.697151 -31.217579 38.222553 -20.358528 150.70285
1110000000 -4.6696601 -172.48463 21.808899 93.350662 -31.050606 39.643684 -20.49855 151.05989
1120000000 -4.6493597 -172.68951 21.745937 93.088707 -30.785547 38.853409 -20.627468 151.68405
1130000000 -4.6405907 -172.93713 21.680792 92.682411 -31.109026 39.068577 -20.678499 152.01064
1140000000 -4.652935 -173.14944 21.616907 92.408684 -30.878197 39.331238 -20.785147 152.7108
1150000000 -4.6360087 -173.37767 21.545938 92.001663 -30.833256 39.114677 -20.939699 152.91344
1160000000 -4.6324973 -173.52055 21.495106 91.643822 -30.781481 38.408901 -21.039803 153.37965
1170000000 -4.62568 -173.71097 21.428242 91.321121 -30.72777 39.096378 -21.142939 154.09096
1180000000 -4.6273665 -173.90485 21.367655 90.986519 -30.767986 39.26133 -21.224703 154.40396
1190000000 -4.6145668 -174.11436 21.307159 90.716408 -30.803404 39.719742 -21.343494 154.91267
1200000000 -4.6137362 -174.30997 21.242899 90.327393 -30.519377 39.076481 -21.426716 155.59428
1210000000 -4.6138148 -174.51859 21.188145 90.057442 -30.599272 40.289669 -21.570951 155.75513
1220000000 -4.6035872 -174.67943 21.125084 89.709351 -30.451273 40.096882 -21.491226 156.38309
1230000000 -4.6048374 -174.81227 21.070568 89.390381 -30.476326 39.853916 -21.755623 156.32829
1240000000 -4.6010804 -175.00966 21.010717 89.108932 -30.337257 39.955608 -21.794039 157.54147
1250000000 -4.5876098 -175.27351 20.954687 88.7714 -30.319 40.969585 -21.848944 158.11281
1260000000 -4.5872827 -175.44435 20.895245 88.438927 -30.112982 40.893612 -22.029928 158.48599
1270000000 -4.5778284 -175.67374 20.837788 88.121391 -30.290064 40.585003 -21.936565 159.45779
1280000000 -4.5860281 -175.83041 20.775394 87.797676 -30.07646 40.482052 -22.163681 160.24863
1290000000 -4.5742631 -176.03008 20.718645 87.484955 -30.215168 40.237869 -22.183321 160.58676
1300000000 -4.5676866 -176.18947 20.663387 87.2155 -29.921492 40.897511 -22.244526 161.27762
1310000000 -4.5585866 -176.44348 20.609331 86.867439 -30.065742 40.397003 -22.368725 161.86894
1320000000 -4.5661974 -176.59888 20.552347 86.567802 -29.973606 40.899792 -22.483583 162.47592
1330000000 -4.5573082 -176.74084 20.50238 86.2911 -29.969788 40.251114 -22.503128 162.70418
1340000000 -4.5556927 -176.99461 20.441164 85.983337 -29.852249 40.157478 -22.619663 163.79509
1350000000 -4.5603895 -177.17284 20.38751 85.699677 -29.7342 40.756191 -22.705587 164.15598
1360000000 -4.5645895 -177.28258 20.338669 85.415154 -29.936296 41.237774 -22.794544 164.47723
1370000000 -4.5566564 -177.41866 20.277246 85.102074 -29.76265 40.990543 -22.854996 164.62065
1380000000 -4.5383244 -177.69899 20.230362 84.810478 -29.641029 40.919521 -22.922688 165.60272
1390000000 -4.5366139 -177.88144 20.181746 84.495644 -29.704796 41.021194 -22.964872 165.79355
1400000000 -4.5427928 -178.13452 20.119747 84.169472 -29.633793 41.597546 -23.043612 167.06859
1410000000 -4.538579 -178.25867 20.066347 83.879425 -29.543819 40.236748 -23.076916 168.11549
1420000000 -4.5492082 -178.43076 20.010462 83.650055 -29.41613 40.680401 -23.0702 168.24199
1430000000 -4.5490961 -178.69025 19.95838 83.308861 -29.421934 40.759518 -23.213717 169.12775
1440000000 -4.538517 -178.89034 19.911669 83.029015 -29.407974 40.479439 -23.218803 169.67639
1450000000 -4.5372071 -179.01344 19.861853 82.751045 -29.34201 41.282005 -23.285437 170.01309
1460000000 -4.5263143 -179.27637 19.810816 82.398369 -29.192013 42.607456 -23.232111 171.21761
1470000000 -4.5300264 -179.3513 19.759228 82.19323 -29.315819 41.17564 -23.434462 171.97119
1480000000 -4.5297284 -179.62286 19.703276 81.909706 -29.285414 41.01046 -23.453251 172.88548
1490000000 -4.5283442 -179.83905 19.651659 81.61097 -29.201008 40.876949 -23.46377 172.92354
1500000000 -4.5347915 -179.92152 19.599316 81.300865 -29.039597 41.121693 -23.41099 173.66455
1510000000 -4.5329089 179.82086 19.549801 81.044189 -29.057566 40.821121 -23.537437 174.10204
1520000000 -4.5300789 179.72122 19.503973 80.797493 -29.01438 41.315987 -23.61215 175.04552
1530000000 -4.5275064 179.52954 19.451134 80.512383 -29.071886 41.208698 -23.568453 175.95107
1540000000 -4.526896 179.31261 19.411301 80.215561 -28.913635 41.57563 -23.685881 176.27094
1550000000 -4.5239797 179.07353 19.355366 79.900536 -28.795177 41.499294 -23.660589 177.07181
1560000000 -4.5154901 178.92888 19.315804 79.652237 -28.838169 41.552612 -23.588301 177.43887
1570000000 -4.5295014 178.74243 19.25749 79.393135 -28.766993 40.538757 -23.594995 178.77298
1580000000 -4.5369725 178.56839 19.211481 79.098618 -28.855249 41.194424 -23.68746 179.02504
1590000000 -4.5282679 178.43788 19.163847 78.868607 -28.756365 41.611008 -23.659176 -179.65645
1600000000 -4.5321007 178.20184 19.11096 78.57795 -28.683695 40.747898 -23.748398 -179.66417
1610000000 -4.5204945 178.09258 19.071058 78.301765 -28.58943 40.837112 -23.682138 -178.66
1620000000 -4.5239272 177.87961 19.029213 78.042801 -28.403133 41.14307 -23.713623 -178.35548
1630000000 -4.5111899 177.78934 18.983347 77.746948 -28.557829 41.372684 -23.590168 -177.21919
1640000000 -4.5287991 177.50996 18.935665 77.483925 -28.503174 41.388508 -23.585823 -176.91292
1650000000 -4.522521 177.41304 18.887833 77.247932 -28.402552 41.33633 -23.761568 -176.3008
1660000000 -4.5228271 177.27724 18.840899 76.981461 -28.431862 40.650036 -23.611088 -175.3452
1670000000 -4.5222397 177.00552 18.805981 76.731651 -28.393948 40.534924 -23.573101 -174.78893
1680000000 -4.5124044 176.86752 18.760061 76.415977 -28.299665 41.313728 -23.59663 -174.3269
1690000000 -4.5156789 176.5914 18.710123 76.201454 -28.205759 41.452343 -23.624256 -173.17545
1700000000 -4.5137887 176.38478 18.666954 75.848755 -28.373724 42.081161 -23.525471 -172.73109
1710000000 -4.5236745 176.17134 18.620909 75.59922 -28.271326 41.558937 -23.614937 -172.74231
1720000000 -4.5128393 176.0481 18.579893 75.345459 -28.10424 40.914509 -23.514397 -171.89111
1730000000 -4.5249119 175.85658 18.533632 75.080315 -28.105534 41.445854 -23.65803 -170.82979
1740000000 -4.5182843 175.68248 18.493004 74.828445 -27.993433 41.489059 -23.552317 -170.32178
1750000000 -4.5226154 175.40263 18.442715 74.485786 -27.846073 41.468365 -23.519867 -170.13406
1760000000 -4.5235028 175.30513 18.403946 74.320015 -28.023262 41.851398 -23.530869 -169.99887
1770000000 -4.5173874 175.11873 18.351862 74.023369 -27.942118 41.172405 -23.486483 -169.60002
1780000000 -4.5292244 174.88121 18.310568 73.77401 -27.894958 40.554176 -23.417749 -168.97794
1790000000 -4.524312 174.76208 18.27076 73.518204 -27.882097 41.264809 -23.370407 -168.39545
1800000000 -4.5222673 174.5806 18.230322 73.30864 -27.793667 41.159763 -23.468769 -167.63416
1810000000 -4.531209 174.42252 18.185005 73.04821 -27.796801 41.236595 -23.314356 -166.75087
1820000000 -4.5299025 174.22693 18.142723 72.750496 -27.739792 41.370708 -23.356136 -166.22754
1830000000 -4.5218611 174.00134 18.107161 72.512978 -27.690186 41.188896 -23.152079 -165.50769
1840000000 -4.5094891 173.80266 18.060623 72.213173 -27.636627 40.94838 -23.162783 -165.17816
1850000000 -4.5153332 173.61426 18.022507 71.963463 -27.591244 40.716846 -23.085278 -165.50291
1860000000 -4.5141659 173.42206 17.977268 71.663475 -27.589725 40.717304 -23.050156 -164.53177
1870000000 -4.5268221 173.30035 17.934738 71.441078 -27.555405 40.546024 -23.085716 -164.79179
1880000000 -4.5368085 173.12424 17.886137 71.191368 -27.450047 40.996273 -22.998667 -163.85371
1890000000 -4.534462 172.94148 17.855371 70.923401 -27.436899 40.93298 -22.956905 -163.60445
1900000000 -4.5241456 172.83357 17.80901 70.712852 -27.330643 40.493572 -23.025711 -162.21179
1910000000 -4.5256848 172.58478 17.770521 70.413811 -27.510324 40.332363 -22.742722 -162.49368
1920000000 -4.5235615 172.34398 17.726395 70.153633 -27.378902 40.811172 -22.734848 -161.14645
1930000000 -4.5364256 172.14392 17.686016 69.877716 -27.421383 40.540001 -22.731993 -161.8244
1940000000 -4.5305567 171.93657 17.644606 69.642876 -27.240696 40.137581 -22.747171 -161.44606
1950000000 -4.5313325 171.83716 17.607307 69.438248 -27.184608 41.130142 -22.581575 -160.38713
1960000000 -4.5227132 171.71048 17.56797 69.200836 -27.138544 40.731113 -22.667377 -160.40311
1970000000 -4.5266018 171.57245 17.530872 68.939911 -27.312723 40.66515 -22.610184 -159.76334
1980000000 -4.528441 171.33548 17.490648 68.652031 -27.095905 40.654675 -22.579552 -159.75485
1990000000 -4.5229745 171.13138 17.450268 68.439819 -26.969177 40.632504 -22.476751 -158.99292
2000000000 -4.5573897 170.96262 17.40638 68.144577 -27.207956 41.035107 -22.37641 -159.24014
2010000000 -4.5304761 170.71077 17.369339 67.916939 -27.071507 40.487999 -22.291985 -158.06459
2020000000 -4.5423608 170.56308 17.329666 67.67585 -27.05563 39.684723 -22.264801 -158.27936
2030000000 -4.5455589 170.43391 17.291515 67.412659 -26.946585 39.91193 -22.272783 -158.15469
2040000000 -4.5327573 170.27406 17.256207 67.18824 -26.935476 41.000118 -22.188858 -157.69765
2050000000 -4.5366335 170.09267 17.224833 66.964149 -26.872841 39.352795 -22.054386 -157.24701
2060000000 -4.5203118 169.83821 17.185202 66.66259 -26.860632 40.033825 -21.963081 -156.82042
2070000000 -4.5289016 169.52899 17.147757 66.370316 -26.885418 39.982639 -22.009474 -157.04485
2080000000 -4.5340166 169.41835 17.105627 66.165886 -26.77487 39.86834 -21.868906 -157.12979
2090000000 -4.5341411 169.2355 17.06695 65.947098 -26.72723 39.224354 -21.77136 -156.46175
2100000000 -4.5404429 168.9819 17.032015 65.662819 -26.693256 39.516407 -21.853937 -156.4745
2110000000 -4.5407696 168.88916 17.010933 65.426941 -26.690283 39.692097 -21.811104 -156.29451
2120000000 -4.5166388 168.67627 16.961872 65.216125 -26.550802 39.068703 -21.749313 -155.5827
2130000000 -4.5245767 168.47626 16.930796 64.907982 -26.585569 39.138718 -21.669542 -155.35378
