# Hz S  dB   R 50
10000000 -6.1441607 -82.387337 34.912956 148.6255 -35.99181 33.410549 -6.9716873 -106.95684
20000000 -8.5461235 -114.3765 32.507702 153.09471 -35.585991 20.399622 -7.9145336 -140.25789
30000000 -9.5658579 -130.62073 31.542385 156.97166 -34.738426 14.567285 -8.1604681 -154.64018
40000000 -9.9034166 -139.77473 31.098564 159.07399 -35.103058 9.1945429 -8.2175798 -163.15375
50000000 -10.134935 -145.19925 30.864254 160.24178 -34.804001 11.443011 -8.3397074 -168.33751
60000000 -10.218997 -148.6377 30.700109 160.59715 -34.96698 8.8232136 -8.3696747 -172.79198
70000000 -10.31013 -150.72639 30.597237 160.54266 -35.065884 4.2993832 -8.4496965 -175.92017
80000000 -10.281697 -152.1723 30.492241 160.1644 -35.16576 5.6100483 -8.5113926 -178.56467
90000000 -10.210233 -152.75447 30.420567 159.59119 -34.665615 5.1085658 -8.5423508 179.00018
100000000 -10.211056 -153.42969 30.349716 158.93694 -34.756226 6.6865044 -8.5943584 176.75938
110000000 -10.143852 -153.6257 30.2784 158.12318 -34.640499 6.9812617 -8.6457176 175.09383
120000000 -10.004718 -153.81721 30.209604 157.23065 -34.859871 7.8959565 -8.7062101 173.36975
130000000 -9.8972664 -153.94484 30.13802 156.27271 -34.791809 7.2250767 -8.7813988 171.66765
140000000 -9.7987385 -153.84517 30.068581 155.28838 -34.673023 5.8146548 -8.8568563 170.05983
150000000 -9.6624956 -153.82568 29.998915 154.30734 -34.892788 9.2558146 -8.9491787 168.52214
160000000 -9.5429363 -153.66194 29.943956 153.28741 -34.764023 7.7518744 -9.0323143 167.1935
170000000 -9.4170895 -153.69873 29.868328 152.29622 -35.128155 7.0047975 -9.0801554 165.93123
180000000 -9.2577171 -153.59619 29.789661 151.1945 -34.783951 7.8406305 -9.1227236 164.56969
190000000 -9.1180058 -153.3891 29.729603 150.07402 -35.089211 8.0668631 -9.2056866 163.50951
200000000 -9.0016022 -153.46619 29.646332 149.10641 -35.092594 8.2328053 -9.2987261 162.16438
210000000 -8.8561754 -153.40549 29.573269 148.05266 -34.688541 7.9855943 -9.4018288 160.87372
220000000 -8.7087765 -153.22438 29.494184 146.92931 -34.730816 10.504963 -9.51826 159.73405
230000000 -8.5801344 -153.42233 29.413952 145.96689 -34.961937 9.6574192 -9.5957747 158.82858
240000000 -8.4564009 -153.409 29.332375 144.89531 -35.10281 11.131568 -9.7006702 157.94278
250000000 -8.347105 -153.51863 29.24119 143.89302 -34.913761 11.269833 -9.796711 156.84297
260000000 -8.2226601 -153.50723 29.169451 142.92509 -35.025829 8.178916 -9.9411755 155.66357
270000000 -8.0923719 -153.77734 29.079323 141.87407 -34.807934 11.86197 -10.020065 154.81897
280000000 -7.9478269 -153.9808 28.989555 140.87753 -35.407818 10.78851 -10.153239 154.04285
290000000 -7.8401461 -153.96814 28.902819 139.88127 -35.405521 12.802405 -10.220782 153.35681
300000000 -7.7322159 -154.21851 28.814749 138.90848 -34.682877 13.909778 -10.345879 152.63821
310000000 -7.601357 -154.24315 28.719624 137.91335 -34.777927 14.535648 -10.467721 151.6196
320000000 -7.4691653 -154.50279 28.633801 137.02618 -35.074604 13.393167 -10.549104 150.36931
330000000 -7.3832574 -154.87274 28.537239 136.15875 -35.127129 16.415255 -10.689397 150.0584
340000000 -7.3014574 -155.04855 28.444769 135.19484 -35.004253 14.368302 -10.780806 149.26443
350000000 -7.2014875 -155.31819 28.348063 134.29366 -34.699406 17.015125 -10.912945 148.58414
360000000 -7.0966821 -155.37459 28.260746 133.38347 -34.890007 13.101962 -11.0542 147.84174
370000000 -7.0041494 -155.75105 28.153795 132.5358 -34.78722 15.491462 -11.149167 147.05696
380000000 -6.9302182 -155.91327 28.070326 131.64365 -34.988373 16.984385 -11.308815 146.53168
390000000 -6.8420801 -156.19325 27.978491 130.76872 -34.823956 17.717081 -11.404939 145.84335
400000000 -6.764266 -156.58508 27.885077 129.95976 -34.933571 16.903339 -11.542595 145.35072
410000000 -6.6700878 -156.71487 27.783058 129.14262 -35.129684 17.347486 -11.659791 144.61417
420000000 -6.6015139 -157.11729 27.689623 128.38734 -34.734665 20.564714 -11.767843 144.22426
430000000 -6.5405774 -157.42656 27.583424 127.6218 -34.760796 20.088156 -11.921047 143.77731
440000000 -6.4525638 -157.60545 27.492088 126.81529 -34.895256 17.501045 -12.027716 143.22401
450000000 -6.3875222 -157.86333 27.406179 126.00892 -34.895592 18.532873 -12.162569 142.3895
460000000 -6.3126478 -158.25713 27.303192 125.2981 -34.591789 18.979527 -12.300401 141.93889
470000000 -6.2613339 -158.49557 27.212887 124.53578 -34.538349 20.17391 -12.423449 141.6292
480000000 -6.2022886 -158.77382 27.110868 123.84242 -34.505653 20.386412 -12.573165 141.08507
490000000 -6.1285529 -159.06213 27.022121 123.06102 -34.669418 20.738874 -12.698309 140.5365
500000000 -6.128788 -159.21799 26.92923 122.39063 -34.737259 21.295498 -12.801543 139.97699
510000000 -6.0307336 -159.498 26.823414 121.702 -34.836693 24.050373 -12.983096 139.67438
520000000 -5.9879184 -159.91383 26.743587 121.07059 -34.507179 21.915668 -13.094159 139.07915
530000000 -5.92272 -160.10594 26.648085 120.30202 -34.463272 23.627285 -13.239552 138.86067
540000000 -5.8845034 -160.55096 26.553822 119.69122 -34.326458 23.957989 -13.343393 138.4323
550000000 -5.836607 -160.87463 26.45322 119.04475 -34.294304 24.382479 -13.461801 137.80132
560000000 -5.7972174 -160.95996 26.358952 118.35747 -34.65255 24.425203 -13.592427 137.56886
570000000 -5.7551069 -161.35368 26.275776 117.74651 -34.660946 23.763174 -13.725419 137.30872
580000000 -5.7149086 -161.50351 26.180017 117.10138 -34.913425 26.616442 -13.837481 137.03439
590000000 -5.6528983 -161.90091 26.094435 116.50385 -34.550678 24.231962 -13.979184 136.69089
600000000 -5.612865 -162.05907 26.010427 115.88006 -34.163109 25.523849 -14.076596 136.33073
610000000 -5.5822902 -162.53346 25.902922 115.31489 -34.124222 27.557755 -14.278107 136.17693
620000000 -5.5447798 -162.76575 25.820927 114.77659 -34.039368 26.631432 -14.416718 135.80772
630000000 -5.508379 -162.99692 25.731098 114.10383 -34.180489 26.397663 -14.555572 135.37367
640000000 -5.4571638 -163.3963 25.624992 113.581 -34.142925 27.520897 -14.752885 135.53127
650000000 -5.4595799 -163.46698 25.554104 113.0408 -34.035149 28.539001 -14.857164 135.21098
660000000 -5.4157863 -163.79881 25.458796 112.51541 -33.882751 29.232038 -14.99103 135.07472
670000000 -5.3751822 -164.11588 25.37603 111.93238 -33.812347 29.07667 -15.109922 135.06046
680000000 -5.3510242 -164.40965 25.29591 111.36514 -33.869431 29.454744 -15.244096 134.74301
690000000 -5.3331127 -164.66423 25.208794 110.88293 -33.706825 30.158308 -15.396344 134.37679
700000000 -5.3118672 -164.83536 25.123522 110.35969 -34.069134 30.531366 -15.491247 134.26823
710000000 -5.2680812 -165.14664 25.033903 109.78854 -33.691593 29.387644 -15.675467 134.35161
720000000 -5.2525191 -165.29536 24.962078 109.27159 -33.708538 30.764391 -15.772842 133.57274
730000000 -5.2405457 -165.55276 24.870737 108.78192 -33.486347 30.209059 -15.933457 134.0531
740000000 -5.1843424 -165.8877 24.78793 108.21837 -33.258205 31.198757 -16.055569 133.44815
750000000 -5.1824994 -166.12358 24.698652 107.80088 -33.38839 31.711479 -16.192986 133.63882
760000000 -5.1532936 -166.33122 24.624283 107.30019 -33.417328 32.968563 -16.345699 133.36485
770000000 -5.135088 -166.50616 24.540352 106.81686 -33.225552 32.250664 -16.496075 133.31737
780000000 -5.1274066 -166.83551 24.45783 106.34627 -33.221649 35.146679 -16.664389 133.27228
790000000 -5.1027513 -167.0905 24.376984 105.87632 -33.508923 32.450306 -16.707531 133.27081
800000000 -5.0826669 -167.3214 24.291603 105.40486 -33.062542 32.461124 -16.903658 133.07564
810000000 -5.0522814 -167.54362 24.220345 104.93718 -32.956631 33.37112 -17.023188 133.17519
820000000 -5.0391874 -167.80469 24.14473 104.48907 -33.099747 33.158829 -17.183485 132.89479
830000000 -5.0323687 -168.05637 24.060699 104.06326 -32.856781 35.247471 -17.273241 132.94173
840000000 -5.025177 -168.30492 23.980953 103.61377 -33.046761 33.572124 -17.438192 132.8969
850000000 -4.9994211 -168.4838 23.907526 103.15313 -32.809692 35.792068 -17.607143 132.99068
860000000 -4.9828348 -168.72351 23.82995 102.72211 -32.735813 36.535473 -17.718637 132.77571
870000000 -4.9570708 -168.89973 23.759783 102.32234 -32.766586 34.254658 -17.867016 132.98193
880000000 -4.9434953 -169.12537 23.673498 101.8424 -32.60891 36.113617 -18.024456 133.2511
890000000 -4.9367857 -169.44209 23.603779 101.45082 -32.431229 35.465714 -18.098602 133.21722
900000000 -4.9362082 -169.5705 23.522909 101.11114 -32.630394 36.238342 -18.287643 133.10587
910000000 -4.909687 -169.7455 23.450363 100.67918 -32.560307 36.315128 -18.398052 133.12723
920000000 -4.8865232 -169.93063 23.380989 100.29327 -32.463177 35.970337 -18.627752 132.91042
930000000 -4.8895702 -170.11957 23.309744 99.907463 -32.46719 37.69989 -18.715754 133.01572
940000000 -4.8665876 -170.34857 23.237192 99.496727 -32.305866 37.644085 -18.892729 133.42264
950000000 -4.853528 -170.58488 23.159496 99.030228 -32.236523 36.518108 -19.069279 133.27939
960000000 -4.8480587 -170.82732 23.097803 98.637573 -32.280819 38.060501 -19.216032 133.62939
970000000 -4.8454666 -171.08829 23.018238 98.282707 -32.127541 37.609787 -19.334345 133.80714
980000000 -4.8382349 -171.215 22.956272 97.89933 -32.070858 37.911236 -19.476746 133.68285
990000000 -4.8239179 -171.53024 22.874964 97.49511 -32.040134 37.598446 -19.591692 133.95656
1000000000 -4.8130231 -173.53961 22.817944 97.09993 -32.086102 38.304367 -19.787445 135.7117
1010000000 -4.8143635 -171.87851 22.751081 96.701378 -32.002586 39.107273 -19.839504 134.6778
1020000000 -4.7953258 -172.19467 22.668299 96.295227 -32.018845 38.69635 -20.121563 134.47176
1030000000 -4.7773666 -172.31282 22.604912 95.935562 -31.85737 37.768551 -20.213799 134.48871
1040000000 -4.7783432 -172.55406 22.5413 95.588905 -31.695591 37.623997 -20.376598 135.17908
1050000000 -4.7695417 -172.70409 22.471014 95.236038 -31.860991 39.256622 -20.536314 135.05107
1060000000 -4.7717018 -172.93973 22.402832 94.931358 -31.660269 38.922684 -20.665312 135.60413
1070000000 -4.7620869 -173.10315 22.3339 94.51767 -31.483873 40.099804 -20.836025 135.72957
1080000000 -4.7585611 -173.27261 22.265491 94.18457 -31.65451 40.072292 -21.00061 135.57266
1090000000 -4.7499352 -173.52667 22.197414 93.818062 -31.437208 39.737534 -21.185444 136.12732
1100000000 -4.7408185 -173.66252 22.140106 93.456627 -31.452423 39.886242 -21.254169 136.10175
1110000000 -4.7375655 -173.81525 22.077839 93.114288 -31.341589 40.174625 -21.509821 136.62321
1120000000 -4.7311869 -174.05498 22.012308 92.834114 -31.434525 40.371548 -21.640137 137.3212
1130000000 -4.7306213 -174.20552 21.947193 92.457542 -31.300388 40.991032 -21.856569 137.61531
1140000000 -4.7324448 -174.45453 21.886324 92.195648 -31.210627 39.268024 -21.933924 137.76447
1150000000 -4.7198887 -174.63554 21.815294 91.790787 -31.046072 40.199039 -22.230272 138.36691
1160000000 -4.7176237 -174.84761 21.760695 91.408791 -31.131886 39.667744 -22.310461 138.79121
1170000000 -4.7057133 -174.96655 21.696648 91.107712 -30.999649 40.493214 -22.479733 138.88892
1180000000 -4.6993403 -175.13437 21.634212 90.761581 -30.969131 40.360287 -22.601418 139.32674
1190000000 -4.6994386 -175.39235 21.570684 90.464958 -30.972288 41.787891 -22.771484 139.71175
1200000000 -4.6834378 -175.57314 21.509991 90.079124 -30.972521 41.948906 -23.024708 140.44124
1210000000 -4.6882334 -175.76355 21.45175 89.807411 -30.963728 40.306015 -23.180443 141.26511
1220000000 -4.6980157 -175.9057 21.386459 89.469475 -30.759504 41.279144 -23.223806 141.26076
1230000000 -4.686111 -176.1035 21.331894 89.143608 -30.829628 40.943954 -23.565599 141.3627
1240000000 -4.6768274 -176.17079 21.275532 88.853973 -30.71748 41.880524 -23.714767 142.8403
1250000000 -4.6752 -176.43398 21.217436 88.525131 -30.592981 42.077343 -23.714359 143.01157
1260000000 -4.6762671 -176.59349 21.157322 88.200874 -30.625919 41.240578 -23.987722 143.59053
1270000000 -4.6690755 -176.83084 21.103039 87.85804 -30.684465 41.1623 -23.97126 145.07686
1280000000 -4.6656222 -177.01022 21.04233 87.574341 -30.430935 41.543854 -24.248987 145.27779
1290000000 -4.660687 -177.18221 20.982225 87.248161 -30.373819 41.979515 -24.384506 146.49687
1300000000 -4.6571293 -177.35506 20.928444 86.951218 -30.412367 42.106514 -24.41519 146.80881
1310000000 -4.6469727 -177.51263 20.870516 86.616074 -30.27396 42.558872 -24.562229 147.27391
1320000000 -4.6465368 -177.73024 20.814754 86.328461 -30.301786 41.899281 -24.886408 147.73048
1330000000 -4.6446495 -177.91193 20.763584 86.036453 -30.227474 42.091087 -24.958269 148.41234
1340000000 -4.6467619 -178.1129 20.706196 85.748001 -30.191908 42.283279 -25.220587 150.77803
1350000000 -4.6395645 -178.28296 20.650906 85.443832 -30.183538 41.855354 -25.308271 150.21268
1360000000 -4.6449313 -178.44307 20.59902 85.140587 -30.114811 42.113983 -25.338705 149.79689
1370000000 -4.6384778 -178.54388 20.535456 84.853828 -29.956303 42.235069 -25.581949 150.75894
1380000000 -4.626122 -178.778 20.489832 84.551926 -29.951477 42.567539 -25.749182 152.43742
1390000000 -4.6200533 -178.94453 20.444208 84.246155 -29.797548 42.730862 -25.799973 152.99731
1400000000 -4.6308575 -179.17175 20.382467 83.936729 -29.744755 42.266613 -25.910858 154.39088
1410000000 -4.6380367 -179.33635 20.32938 83.621803 -29.674091 42.385994 -26.139914 155.10645
1420000000 -4.640275 -179.52625 20.268667 83.388527 -29.712042 41.885406 -26.18836 155.93816
1430000000 -4.6332202 -179.72141 20.222206 83.054291 -29.63982 41.682972 -26.337795 157.24512
1440000000 -4.6214776 -179.87782 20.175537 82.779236 -29.688601 42.776989 -26.440767 158.1205
1450000000 -4.6248364 179.94302 20.11986 82.498322 -29.482645 42.692375 -26.564709 159.34723
1460000000 -4.6188617 179.74785 20.070856 82.14592 -29.716709 42.409145 -26.711185 161.27254
1470000000 -4.6178956 179.57036 20.018419 81.936798 -29.527409 42.129215 -26.867239 162.13106
1480000000 -4.6046395 179.35747 19.963846 81.631584 -29.498896 42.069191 -26.975124 162.86488
1490000000 -4.6217842 179.18413 19.910088 81.33197 -29.479507 42.190151 -26.944017 163.37531
1500000000 -4.6236525 179.03143 19.859547 81.057091 -29.435419 42.054626 -26.948822 164.4588
1510000000 -4.6286206 178.80394 19.809366 80.77829 -29.399485 41.818562 -27.256403 164.74208
1520000000 -4.6313653 178.7498 19.758013 80.528969 -29.354122 42.930302 -27.20882 166.4937
1530000000 -4.6101923 178.60597 19.708164 80.247154 -29.261375 42.952908 -27.233231 168.66301
1540000000 -4.6150193 178.32431 19.668625 79.949936 -29.295599 43.631996 -27.421917 169.87961
1550000000 -4.613976 178.1227 19.609476 79.649307 -29.120413 43.387386 -27.368687 170.84282
1560000000 -4.6145353 177.93063 19.573299 79.386391 -29.158236 43.233433 -27.315582 171.92931
1570000000 -4.6181641 177.78763 19.515621 79.117111 -29.200218 42.511017 -27.467146 174.21735
1580000000 -4.6338487 177.60876 19.470203 78.815117 -29.122717 42.32695 -27.587145 174.11314
1590000000 -4.6221013 177.51733 19.42053 78.598488 -29.014774 42.356731 -27.573206 176.32295
1600000000 -4.6230311 177.35141 19.370295 78.314857 -28.961714 42.538067 -27.711987 177.05154
1610000000 -4.6046872 177.2299 19.329817 78.021255 -28.798811 43.03772 -27.608728 178.89871
1620000000 -4.6022558 176.97809 19.285275 77.751091 -28.728313 42.921944 -27.638708 -179.51212
1630000000 -4.606091 176.79482 19.240471 77.488548 -28.836657 42.693203 -27.628544 -178.79855
1640000000 -4.6128492 176.5443 19.19124 77.207672 -28.782162 43.158226 -27.62291 -178.09361
1650000000 -4.618649 176.4081 19.144936 76.950172 -28.746548 41.358147 -27.670387 -176.77448
1660000000 -4.6228104 176.36627 19.094971 76.700974 -28.658367 42.911243 -27.573946 -175.31865
1670000000 -4.6026883 176.10197 19.05979 76.429871 -28.635473 41.916832 -27.604404 -173.33836
1680000000 -4.6071734 175.94713 19.01889 76.133644 -28.557438 41.74049 -27.525866 -172.75075
1690000000 -4.6015348 175.73442 18.969154 75.928322 -28.543377 42.890163 -27.534563 -170.7907
1700000000 -4.617291 175.50587 18.921818 75.599197 -28.674242 42.425758 -27.603025 -169.56409
1710000000 -4.6145 175.30438 18.878431 75.33342 -28.372099 42.108326 -27.51136 -171.28146
1720000000 -4.609798 175.15523 18.829704 75.072601 -28.34483 43.048302 -27.332283 -169.19156
1730000000 -4.6183457 175.07841 18.789858 74.817841 -28.309542 42.530846 -27.411488 -167.15823
1740000000 -4.6063714 174.81866 18.745785 74.549248 -28.43255 42.694298 -27.36216 -165.92213
1750000000 -4.6139665 174.5556 18.69573 74.221481 -28.317589 42.329147 -27.319523 -165.21968
1760000000 -4.6004629 174.41449 18.661068 74.026001 -28.345057 42.802429 -27.343063 -164.88364
1770000000 -4.6073127 174.24353 18.609322 73.759155 -28.246731 42.058121 -27.114241 -163.76334
1780000000 -4.621398 174.13557 18.564161 73.487656 -28.26162 42.313511 -27.141029 -162.22649
1790000000 -4.6214905 173.92389 18.519876 73.224693 -28.082329 41.612499 -26.930464 -162.35796
1800000000 -4.6092911 173.76228 18.48284 73.023743 -28.116707 42.979229 -26.966141 -160.06863
1810000000 -4.6247349 173.55177 18.437309 72.771942 -27.928061 42.375957 -27.00716 -159.64124
1820000000 -4.6185732 173.44336 18.394751 72.485672 -28.070362 41.858341 -26.828907 -158.76367
1830000000 -4.6068826 173.22061 18.360363 72.236488 -27.917385 42.279751 -26.588858 -156.48122
1840000000 -4.6032276 173.07536 18.317682 71.932014 -27.986023 41.857784 -26.684422 -157.00131
1850000000 -4.608458 172.85825 18.275192 71.683449 -27.855129 43.092609 -26.462431 -156.24521
1860000000 -4.599153 172.60483 18.231255 71.352623 -27.657076 42.515816 -26.214205 -155.72784
1870000000 -4.6208792 172.57797 18.185995 71.162376 -27.861973 42.423985 -26.248863 -154.95212
1880000000 -4.6331768 172.3504 18.138926 70.905754 -27.733419 41.914886 -26.194647 -154.15279
1890000000 -4.6239395 172.15955 18.107073 70.655586 -27.706074 41.87944 -26.217979 -153.42657
1900000000 -4.6103387 171.93611 18.064734 70.422844 -27.729668 42.608433 -25.928947 -152.13742
1910000000 -4.6222925 171.81644 18.025682 70.114655 -27.485228 41.33992 -25.823227 -151.84485
1920000000 -4.6144748 171.58305 17.981245 69.855293 -27.581495 42.236683 -25.762331 -151.03557
1930000000 -4.6214595 171.44431 17.937624 69.60321 -27.624657 42.379627 -25.701378 -151.10692
1940000000 -4.627521 171.18507 17.894314 69.367836 -27.486757 41.21376 -25.597326 -149.84416
1950000000 -4.6372738 171.07349 17.855 69.144844 -27.504713 41.205288 -25.48897 -149.5139
1960000000 -4.6256437 170.92906 17.82296 68.900528 -27.59783 40.78857 -25.501322 -149.30043
1970000000 -4.6237602 170.77367 17.777966 68.638649 -27.46941 41.676243 -25.438841 -148.43256
1980000000 -4.6116738 170.63153 17.741644 68.368584 -27.348387 41.73592 -25.331774 -147.80301
1990000000 -4.6148982 170.45944 17.697847 68.165825 -27.415937 41.533707 -25.184452 -147.18074
2000000000 -4.6486335 170.24297 17.657829 67.868347 -27.297901 41.33725 -24.992468 -147.22353
2010000000 -4.6187978 170.01491 17.621218 67.652168 -27.267298 41.162514 -24.848694 -146.90311
2020000000 -4.6334891 169.89816 17.584257 67.387543 -27.221411 40.911983 -24.812212 -146.34172
2030000000 -4.6357226 169.75754 17.540924 67.134926 -27.208054 41.524399 -24.834091 -146.2672
2040000000 -4.6319256 169.59132 17.508858 66.909698 -27.164133 40.820568 -24.652948 -145.57903
2050000000 -4.6324825 169.39253 17.471193 66.686638 -27.012379 41.074516 -24.457157 -145.16478
2060000000 -4.6224775 169.24895 17.432915 66.392944 -27.102289 39.778141 -24.27224 -144.92757
2070000000 -4.6133571 168.8624 17.399303 66.100449 -26.986242 41.06065 -24.264292 -144.68805
2080000000 -4.6195793 168.69719 17.356234 65.8871 -26.945644 41.66983 -24.136656 -144.10428
2090000000 -4.6324663 168.49176 17.311605 65.696304 -26.847897 41.218807 -24.11945 -145.27113
2100000000 -4.6276073 168.34665 17.28125 65.389107 -26.954233 40.647884 -24.048372 -143.89542
2110000000 -4.6211877 168.18335 17.261278 65.147926 -26.872482 40.041344 -23.890463 -143.59956
2120000000 -4.6210256 167.9292 17.209314 64.928368 -26.882322 41.276241 -23.900417 -143.28925
2130000000 -4.6277995 167.76668 17.176403 64.612152 -26.898394 39.891903 -23.741272 -143.18146
