# Hz S  dB   R 50
10000000 -5.9015899 -75.892281 34.421131 150.92168 -35.56744 35.576733 -7.5331955 -97.128075
20000000 -8.7182941 -105.80129 32.14608 154.49969 -34.022186 19.703852 -9.0552711 -131.99895
30000000 -10.045136 -122.68188 31.21331 157.94867 -33.748219 14.032959 -9.4436436 -148.50771
40000000 -10.615924 -132.55188 30.784986 159.8609 -33.737389 12.80578 -9.6382627 -158.21227
50000000 -10.947206 -138.6077 30.55323 160.89909 -33.750412 9.8214579 -9.7488852 -164.76947
60000000 -11.089425 -143.05447 30.392057 161.18945 -33.886951 7.3679547 -9.7982063 -170.12758
70000000 -11.218148 -145.17584 30.291824 161.09544 -33.468071 7.5862732 -9.8808784 -173.85352
80000000 -11.200364 -146.83891 30.192123 160.70105 -33.715286 6.4978757 -9.9749212 -176.92816
90000000 -11.146047 -147.50809 30.121067 160.11377 -34.057899 4.6996899 -9.9914274 -179.51768
100000000 -11.147071 -148.11284 30.054792 159.43494 -33.583828 6.6238551 -10.051305 177.85782
110000000 -11.043554 -148.45369 29.987976 158.60379 -33.828724 4.4795494 -10.091453 175.98221
120000000 -10.88057 -148.44719 29.920412 157.71036 -33.938297 5.8889894 -10.167141 173.95645
130000000 -10.735486 -148.70793 29.85104 156.74026 -34.122856 7.4112096 -10.246549 171.99696
140000000 -10.60153 -148.63396 29.782606 155.75233 -33.925739 6.9177728 -10.3575 170.22366
150000000 -10.446292 -148.66621 29.714787 154.78577 -33.985111 6.6458368 -10.435383 168.60085
160000000 -10.322985 -148.37738 29.660456 153.76393 -34.033535 6.1318388 -10.540285 167.10616
170000000 -10.17626 -148.55556 29.588154 152.78117 -34.004005 5.9011316 -10.571761 165.65553
180000000 -9.9761724 -148.50859 29.512186 151.67422 -33.870575 6.5344152 -10.607969 163.98965
190000000 -9.8252983 -148.21265 29.456228 150.56419 -34.020596 5.9769726 -10.686163 162.75752
200000000 -9.6803131 -148.50395 29.373817 149.59648 -34.01638 7.6151905 -10.794723 161.44048
210000000 -9.5043221 -148.17764 29.302891 148.53348 -34.140305 7.3291798 -10.911224 159.99849
220000000 -9.3207541 -148.25383 29.225121 147.41811 -34.053802 7.5441542 -11.042723 158.77229
230000000 -9.1684208 -148.51331 29.147593 146.4631 -33.891335 6.9673376 -11.11625 157.62587
240000000 -9.030365 -148.53636 29.068577 145.40344 -34.25761 7.9666934 -11.23341 156.57788
250000000 -8.8943195 -148.58031 28.980316 144.3873 -34.046242 8.2841301 -11.342002 155.33183
260000000 -8.754591 -148.67508 28.912647 143.39249 -34.673691 8.3484869 -11.440992 153.94772
270000000 -8.5964575 -148.94191 28.821878 142.37785 -34.281002 8.1317205 -11.553963 152.91882
280000000 -8.4292431 -149.10234 28.741236 141.37602 -34.262005 7.9733205 -11.736544 152.27892
290000000 -8.3194885 -149.18106 28.652081 140.37785 -33.988819 10.230767 -11.804272 151.35864
300000000 -8.1574335 -149.39246 28.562847 139.40779 -34.007065 12.120984 -11.90118 150.3273
310000000 -8.0253201 -149.8136 28.473074 138.42004 -34.370548 6.2555995 -12.053153 149.02922
320000000 -7.8955641 -149.9642 28.385765 137.49115 -34.159763 10.622615 -12.175454 148.21155
330000000 -7.8024263 -150.32901 28.296324 136.63445 -34.467548 10.876218 -12.266931 147.61485
340000000 -7.7105131 -150.54753 28.2078 135.69058 -34.178726 12.408333 -12.393099 146.48154
350000000 -7.5755014 -150.89369 28.112043 134.77832 -34.200546 11.123866 -12.552459 145.78883
360000000 -7.4736571 -151.13876 28.028482 133.88985 -34.237244 11.518929 -12.681955 144.99707
370000000 -7.3438263 -151.50711 27.922855 133.02887 -34.10215 11.888524 -12.808621 143.90617
380000000 -7.2764549 -151.73451 27.840946 132.12991 -34.427746 12.01969 -12.940501 143.24446
390000000 -7.1697855 -152.00133 27.751587 131.25098 -34.233772 11.699368 -13.063415 142.48933
400000000 -7.0941997 -152.31993 27.657873 130.4451 -34.233624 11.510738 -13.207386 141.92172
410000000 -6.9827266 -152.64191 27.561932 129.61238 -34.139584 13.421021 -13.358068 141.08643
420000000 -6.9106073 -153.14114 27.465723 128.84721 -34.304623 13.995532 -13.503207 140.64702
430000000 -6.8311644 -153.49141 27.370348 128.08876 -34.157185 15.81301 -13.651626 139.97879
440000000 -6.7322016 -153.8371 27.276918 127.26119 -34.0816 14.004801 -13.786397 139.26334
450000000 -6.6597457 -154.09863 27.191629 126.47552 -34.04216 15.568115 -13.954751 138.45461
460000000 -6.5802536 -154.38051 27.088467 125.76045 -34.124271 14.856112 -14.074724 137.81644
470000000 -6.5056667 -154.75494 27.00099 124.98207 -34.045158 16.540766 -14.217277 137.25476
480000000 -6.45401 -155.00871 26.898602 124.25934 -33.935341 17.108318 -14.389426 136.59012
490000000 -6.3801746 -155.36009 26.812748 123.51117 -34.204681 18.367306 -14.544608 135.76849
500000000 -6.3506126 -155.6653 26.721403 122.80485 -34.057846 18.223644 -14.66877 135.39893
510000000 -6.2649188 -155.97498 26.61908 122.12033 -33.996571 20.393843 -14.842177 134.82481
520000000 -6.2087188 -156.31085 26.538956 121.48976 -33.968178 19.429056 -15.045333 134.29584
530000000 -6.1426125 -156.65765 26.444307 120.7154 -33.929832 18.366894 -15.098594 133.49031
540000000 -6.0955987 -156.99144 26.349916 120.11404 -33.669781 21.079023 -15.300362 133.24466
550000000 -6.04392 -157.342 26.256739 119.43452 -34.010685 20.32519 -15.416445 132.33266
560000000 -5.9842396 -157.6161 26.160831 118.74832 -33.684635 20.381721 -15.573153 132.21158
570000000 -5.9444728 -157.98882 26.080511 118.12943 -34.082264 19.912834 -15.717142 131.7238
580000000 -5.8999586 -158.13959 25.983124 117.48235 -33.877422 20.664732 -15.894335 130.87816
590000000 -5.8322144 -158.55539 25.89979 116.88661 -33.777378 22.394642 -16.045984 130.65869
600000000 -5.7868872 -158.75415 25.818415 116.25568 -33.797199 20.713684 -16.158787 130.27306
610000000 -5.7503915 -159.26984 25.712584 115.67241 -33.699291 21.787493 -16.407671 130.00531
620000000 -5.7210975 -159.46985 25.629761 115.11187 -33.713234 22.239168 -16.558065 129.64676
630000000 -5.6683474 -159.85851 25.540653 114.46198 -33.756203 24.413706 -16.708162 129.21072
640000000 -5.6281247 -160.21899 25.439219 113.92568 -33.711376 23.399515 -16.946392 128.7104
650000000 -5.5883031 -160.34456 25.366787 113.34994 -33.470615 24.486555 -17.104969 128.32829
660000000 -5.5641665 -160.78134 25.27463 112.82813 -33.475136 25.249855 -17.233252 128.37567
670000000 -5.5233655 -160.98235 25.194353 112.26134 -33.513348 25.886967 -17.438879 128.01756
680000000 -5.4945078 -161.3949 25.113602 111.68867 -33.247139 25.476765 -17.606094 127.91456
690000000 -5.4689603 -161.67744 25.025185 111.19745 -33.353889 25.622053 -17.764229 127.08721
700000000 -5.4614305 -161.93036 24.942318 110.63917 -33.271358 26.863573 -17.891104 126.72318
710000000 -5.4184532 -162.17566 24.84654 110.08151 -33.187492 25.003088 -18.160021 126.95162
720000000 -5.3799376 -162.47231 24.780439 109.55133 -33.417721 25.192932 -18.259108 126.03764
730000000 -5.3526912 -162.74716 24.693748 109.04097 -32.977013 25.808117 -18.430269 126.04941
740000000 -5.3337498 -162.95883 24.607639 108.50999 -33.373573 27.398445 -18.639971 125.71712
750000000 -5.3092756 -163.21594 24.523928 108.07775 -33.121403 28.580416 -18.814453 125.68248
760000000 -5.2796464 -163.50139 24.444721 107.54567 -33.335201 28.113659 -19.001095 125.23379
770000000 -5.2461414 -163.79123 24.364761 107.05693 -33.096657 28.302912 -19.197384 125.07351
780000000 -5.2319274 -164.08467 24.285406 106.5695 -32.957058 29.108187 -19.34819 124.74094
790000000 -5.2114539 -164.36496 24.202593 106.10552 -32.913601 27.433596 -19.563311 124.58362
800000000 -5.1920595 -164.62691 24.118769 105.65765 -32.749645 28.560087 -19.733015 124.27603
810000000 -5.1633992 -164.88699 24.048502 105.164 -32.907101 29.512774 -19.874666 124.00951
820000000 -5.1381283 -165.17285 23.970722 104.7053 -32.706852 29.783266 -20.055157 123.93156
830000000 -5.1313214 -165.40324 23.889627 104.27734 -32.852943 28.83511 -20.274382 123.69987
840000000 -5.1231723 -165.61356 23.807112 103.81015 -32.833176 30.101337 -20.434397 123.54595
850000000 -5.0940604 -165.89224 23.733803 103.35844 -32.585159 29.479681 -20.672268 123.39317
860000000 -5.0810547 -166.11136 23.657648 102.90998 -32.620987 30.180891 -20.849697 123.51822
870000000 -5.055974 -166.36235 23.588514 102.51453 -32.672215 30.68899 -21.136221 123.03053
880000000 -5.0384336 -166.59065 23.503763 102.0379 -32.555298 32.087734 -21.309835 122.91475
890000000 -5.0313606 -166.81331 23.433168 101.63055 -32.374603 31.779531 -21.489225 123.14875
900000000 -5.0182796 -167.06502 23.355825 101.27103 -32.355495 32.130917 -21.722134 123.11137
910000000 -4.9893484 -167.28865 23.282942 100.82851 -32.389606 31.481272 -21.943676 122.726
920000000 -4.9787726 -167.48193 23.212292 100.44866 -32.249344 31.173552 -22.136261 122.65488
930000000 -4.9757938 -167.63416 23.141975 100.05848 -32.259933 33.572506 -22.33839 122.21299
940000000 -4.9420686 -167.93886 23.075266 99.604843 -32.183067 32.738277 -22.580534 122.53542
950000000 -4.9434462 -168.16385 22.990274 99.196236 -32.119629 33.792782 -22.912066 122.28516
960000000 -4.9300814 -168.4229 22.933172 98.763885 -32.202549 32.786213 -23.092896 122.45064
970000000 -4.9124436 -168.70616 22.853491 98.381798 -32.065464 32.930092 -23.308865 122.85268
980000000 -4.9003944 -168.85846 22.792011 97.989822 -31.936907 33.076656 -23.481384 122.82605
990000000 -4.9033608 -169.19858 22.711723 97.593849 -31.957697 33.18111 -23.798191 122.91628
1000000000 -4.8890047 -171.22066 22.650665 97.203773 -31.860025 33.830379 -24.052803 124.07913
1010000000 -4.8720107 -169.56395 22.587139 96.774399 -31.867748 33.754429 -24.216194 123.16398
1020000000 -4.8669734 -169.7975 22.503489 96.406532 -31.696342 34.439499 -24.595352 122.59728
1030000000 -4.8502026 -170.04922 22.440121 96.022652 -31.74921 34.990311 -24.835724 122.59364
1040000000 -4.8404131 -170.27629 22.382679 95.677284 -31.863176 34.259338 -25.054869 123.56016
1050000000 -4.8396363 -170.51395 22.306242 95.303894 -31.788467 34.708729 -25.374521 123.0892
1060000000 -4.840579 -170.67877 22.235271 94.984154 -31.65012 34.077244 -25.591711 123.5178
1070000000 -4.8330865 -170.83469 22.171839 94.592445 -31.725746 34.552437 -26.069689 123.42596
1080000000 -4.8078156 -171.04695 22.102982 94.248535 -31.541002 36.125717 -26.103027 123.76938
1090000000 -4.8018093 -171.26587 22.032942 93.879478 -31.567648 35.409363 -26.681917 124.23841
1100000000 -4.7994604 -171.41891 21.979765 93.497643 -31.363237 35.74136 -26.915298 124.56417
1110000000 -4.7945495 -171.65039 21.919445 93.147736 -31.400515 35.800514 -27.320704 124.81969
1120000000 -4.7908893 -171.88893 21.850842 92.855309 -31.435606 36.157829 -27.548796 125.43102
1130000000 -4.7781644 -172.02367 21.786715 92.498131 -31.26626 36.118416 -27.904085 125.66323
1140000000 -4.7778907 -172.33324 21.725962 92.198761 -31.228676 36.464481 -28.234478 126.40391
1150000000 -4.7649937 -172.48502 21.658689 91.800888 -31.136297 36.404892 -28.67156 127.15568
1160000000 -4.7604256 -172.74397 21.605154 91.424904 -31.012764 36.848251 -28.905447 126.58656
1170000000 -4.7511139 -172.87581 21.538319 91.112274 -31.062555 36.487148 -29.303278 127.88785
1180000000 -4.7519693 -173.00475 21.478638 90.760147 -31.100899 37.576931 -29.633171 128.43533
1190000000 -4.746253 -173.29814 21.416668 90.443954 -30.956682 37.410698 -30.091032 128.67607
1200000000 -4.7469711 -173.51543 21.349316 90.064514 -31.05409 37.786156 -30.659004 130.14941
1210000000 -4.7315025 -173.67986 21.297611 89.767838 -30.923088 36.408482 -31.011061 131.08835
1220000000 -4.7371268 -173.80333 21.233084 89.443291 -30.861965 36.928436 -31.238554 133.86069
1230000000 -4.7254043 -174.05087 21.176172 89.12162 -30.820955 37.646881 -32.128223 133.84822
1240000000 -4.7191811 -174.18272 21.118881 88.821732 -30.79217 38.593334 -32.42918 136.47166
1250000000 -4.7223263 -174.39711 21.060318 88.498711 -30.682957 37.868683 -32.565533 135.59744
1260000000 -4.7067909 -174.61154 21.004744 88.152206 -30.497225 38.38905 -33.277927 138.10371
1270000000 -4.705471 -174.82664 20.944113 87.821098 -30.596395 37.130753 -33.1292 141.06326
1280000000 -4.7044725 -174.99493 20.884178 87.530975 -30.546968 37.773365 -34.255257 144.28253
1290000000 -4.7029266 -175.1813 20.82416 87.179222 -30.506994 38.473145 -34.61401 146.78108
1300000000 -4.6862445 -175.32605 20.77198 86.89949 -30.544516 37.862362 -34.994598 148.5937
1310000000 -4.6867409 -175.604 20.714754 86.559837 -30.329081 37.719791 -35.422123 153.33369
1320000000 -4.6848574 -175.74988 20.660355 86.26754 -30.410524 37.629036 -36.571278 155.09071
1330000000 -4.6824474 -176.02263 20.608124 85.952103 -30.335842 38.656372 -36.358959 157.12683
1340000000 -4.6776614 -176.17203 20.549158 85.677368 -30.420835 38.408649 -36.867149 163.34859
1350000000 -4.6863847 -176.33524 20.492638 85.369743 -30.218208 38.076275 -37.280468 167.33507
1360000000 -4.6745086 -176.49368 20.449087 85.064301 -30.100084 37.545216 -37.999668 168.39668
1370000000 -4.6682696 -176.65173 20.382441 84.758575 -30.117104 39.118191 -37.779133 172.81329
1380000000 -4.6518183 -176.90118 20.334606 84.425537 -30.12278 38.685883 -38.705772 -175.73355
1390000000 -4.6502624 -177.10077 20.291115 84.119164 -29.968485 38.418476 -38.53323 -175.75703
1400000000 -4.6669083 -177.28497 20.22584 83.82193 -30.128962 38.791847 -37.921253 -169.00365
1410000000 -4.6595254 -177.42206 20.174379 83.512268 -29.955206 38.040417 -38.605305 -161.55698
1420000000 -4.6632504 -177.67181 20.118666 83.275696 -29.840412 38.574623 -38.053375 -158.58527
1430000000 -4.6701636 -177.84734 20.062004 82.926765 -29.816204 39.200329 -37.616108 -149.9212
1440000000 -4.6613445 -178.06999 20.016649 82.667572 -29.815722 37.866512 -37.163696 -146.59714
1450000000 -4.645402 -178.21582 19.967937 82.365425 -29.609737 39.233772 -37.182102 -145.26357
1460000000 -4.6498547 -178.3761 19.91349 82.021393 -29.714024 39.194046 -36.720829 -140.3602
1470000000 -4.6463151 -178.61261 19.864586 81.774239 -29.731905 39.11058 -36.694374 -137.08127
1480000000 -4.6427369 -178.76183 19.809917 81.501472 -29.524586 38.680008 -35.770187 -131.43938
1490000000 -4.651917 -179.05853 19.759203 81.185921 -29.632332 39.883587 -35.619362 -129.52953
1500000000 -4.6470609 -179.14594 19.703878 80.883591 -29.653608 40.08548 -35.261173 -128.22067
1510000000 -4.6549253 -179.35963 19.651846 80.628014 -29.496975 38.617851 -35.039936 -125.21507
1520000000 -4.6436677 -179.46577 19.604469 80.374367 -29.390329 40.026657 -34.58152 -121.90145
1530000000 -4.6345801 -179.65266 19.557133 80.055519 -29.461788 39.524918 -34.229767 -120.98489
1540000000 -4.640976 -179.87401 19.514593 79.772034 -29.29644 39.005116 -33.761662 -118.44778
1550000000 -4.6405106 179.87514 19.460272 79.447014 -29.293764 39.699013 -33.368965 -117.5724
1560000000 -4.6392074 179.76328 19.415213 79.196274 -29.221903 39.839561 -33.051826 -116.96391
1570000000 -4.6414819 179.55539 19.363699 78.919289 -29.178589 39.877659 -32.498978 -115.82288
1580000000 -4.6453948 179.39246 19.316544 78.635384 -29.010796 39.013905 -32.127228 -113.68343
1590000000 -4.6381879 179.22 19.266432 78.401192 -29.070368 39.53582 -31.866768 -113.66077
1600000000 -4.6349387 179.04831 19.215773 78.116882 -29.116339 39.625004 -31.59638 -111.41016
1610000000 -4.6152849 178.92496 19.175621 77.819389 -29.043915 39.067547 -31.380842 -111.35883
1620000000 -4.6161175 178.62262 19.137808 77.534737 -28.96258 40.282867 -30.795729 -109.94362
1630000000 -4.6264911 178.49493 19.08642 77.253334 -28.879637 40.52544 -30.651239 -111.22765
1640000000 -4.6350079 178.2942 19.040792 76.978844 -28.928097 38.90646 -30.350103 -110.94009
1650000000 -4.6291804 178.16928 18.990185 76.733871 -28.810413 38.685448 -30.073086 -110.7551
1660000000 -4.6319947 178.06081 18.941244 76.487465 -28.890757 39.370426 -29.863743 -109.40407
1670000000 -4.6222463 177.85118 18.90641 76.219383 -28.893438 39.356281 -29.787346 -109.11991
1680000000 -4.6183681 177.61476 18.865665 75.902321 -28.732204 39.411304 -29.414888 -108.9406
1690000000 -4.6125855 177.41992 18.817038 75.674026 -28.737345 39.352303 -28.959736 -108.59986
1700000000 -4.6238551 177.25516 18.771328 75.340858 -28.637449 39.983349 -28.865631 -108.39561
1710000000 -4.6278253 177.02545 18.723722 75.091316 -28.604115 39.288525 -28.904106 -107.61586
1720000000 -4.6172647 176.87717 18.676468 74.839386 -28.644407 40.186848 -28.457291 -107.78673
1730000000 -4.6354785 176.64926 18.638481 74.54557 -28.499725 38.532936 -28.358461 -105.95264
1740000000 -4.6137004 176.53423 18.594023 74.32505 -28.492855 40.059486 -28.069075 -106.34314
1750000000 -4.6275716 176.27574 18.54701 73.974472 -28.376637 39.572407 -27.952143 -107.18638
1760000000 -4.61202 176.1917 18.508099 73.781151 -28.425732 40.231758 -27.753736 -106.73159
1770000000 -4.6180983 175.92262 18.458904 73.475327 -28.417299 39.404137 -27.485498 -106.73638
1780000000 -4.6169934 175.74768 18.414019 73.198761 -28.274054 39.629986 -27.209093 -107.33788
1790000000 -4.6247325 175.57742 18.369562 72.974602 -28.339077 39.752106 -27.085091 -107.65555
1800000000 -4.6222978 175.39006 18.333134 72.74585 -28.304689 39.503769 -26.906513 -106.13578
1810000000 -4.6336374 175.16328 18.286978 72.477745 -28.231617 39.88356 -26.839354 -106.51825
1820000000 -4.6334481 175.0425 18.243355 72.196899 -28.178419 39.892632 -26.577486 -107.09278
1830000000 -4.6224179 174.78656 18.208847 71.915581 -28.170959 39.246719 -26.262371 -106.19431
1840000000 -4.6125402 174.61296 18.166956 71.6297 -28.122347 38.933819 -26.192739 -106.85791
1850000000 -4.6210494 174.38948 18.123861 71.382713 -27.964434 39.623077 -26.000471 -107.35966
1860000000 -4.6106439 174.22665 18.079889 71.068787 -28.039841 39.218575 -25.930212 -106.94998
1870000000 -4.6281886 174.11299 18.036385 70.836426 -27.955698 39.767723 -25.749166 -107.19227
1880000000 -4.6270571 173.9604 17.988224 70.60614 -27.922016 39.485138 -25.678665 -107.4488
1890000000 -4.6352468 173.76863 17.953571 70.336479 -27.818323 39.016396 -25.573914 -107.61645
1900000000 -4.6216335 173.52188 17.909197 70.106667 -27.983471 39.852047 -25.366238 -107.04082
1910000000 -4.6194959 173.38974 17.872757 69.797089 -27.813244 39.5709 -25.168564 -107.85583
1920000000 -4.617157 173.15453 17.829788 69.532799 -27.813169 38.836132 -24.890852 -108.15725
1930000000 -4.6158361 173.02061 17.783243 69.279953 -27.633656 39.264977 -24.904577 -108.10237
1940000000 -4.6267667 172.74254 17.743877 69.033791 -27.661266 39.637024 -24.722944 -107.85492
1950000000 -4.6236353 172.58945 17.706524 68.817513 -27.631681 39.417 -24.569218 -108.23023
1960000000 -4.6303821 172.48425 17.668568 68.559692 -27.678608 39.57621 -24.492918 -107.93216
1970000000 -4.6286545 172.27104 17.627703 68.301445 -27.69507 38.825874 -24.350342 -107.54292
1980000000 -4.6233478 172.12747 17.591026 68.050179 -27.688194 39.234631 -24.263807 -108.25622
1990000000 -4.6204782 171.923 17.54833 67.801247 -27.560307 39.461037 -24.104649 -108.34541
2000000000 -4.648982 171.70827 17.510054 67.496223 -27.594603 39.26619 -23.943443 -108.39935
2010000000 -4.6244783 171.51379 17.471649 67.279831 -27.541761 39.052578 -23.855743 -108.59579
2020000000 -4.629447 171.37354 17.430822 67.027885 -27.382286 39.317741 -23.857374 -108.06976
2030000000 -4.637713 171.2218 17.386499 66.773277 -27.397924 38.100636 -23.64963 -109.02586
2040000000 -4.6362915 171.00763 17.355503 66.537361 -27.413944 39.616047 -23.510412 -109.29736
2050000000 -4.6394281 170.79805 17.319399 66.303246 -27.356558 38.36729 -23.394245 -109.33179
2060000000 -4.6286626 170.6207 17.282536 66.005836 -27.401335 38.346546 -23.183075 -109.2769
2070000000 -4.6261816 170.3952 17.247112 65.71666 -27.246021 38.716732 -23.260365 -109.08904
2080000000 -4.6180248 170.24402 17.207338 65.51535 -27.177086 38.329769 -22.968559 -110.30424
2090000000 -4.6310763 170.00465 17.164978 65.301247 -27.247017 39.139648 -22.847677 -110.48155
2100000000 -4.6333346 169.8625 17.131006 65.004196 -27.129921 38.419964 -22.908361 -109.70438
2110000000 -4.6274371 169.66167 17.105297 64.740425 -27.148151 37.984665 -22.835178 -110.39137
2120000000 -4.6188579 169.53246 17.057732 64.536743 -27.007238 38.146511 -22.654835 -110.81425
