# Hz S  dB   R 50
10000000 -6.161664 -79.708549 34.843922 148.41484 -34.845501 29.466707 -7.1020217 -102.7915
20000000 -8.687645 -113.27352 32.462559 153.02724 -35.037304 23.361765 -8.1144695 -139.23486
30000000 -9.7144318 -129.85071 31.493198 156.89995 -35.057545 9.1701784 -8.2826405 -153.7995
40000000 -10.146644 -138.81836 31.047388 159.01688 -34.509621 10.872887 -8.4780159 -161.60393
50000000 -10.394723 -144.23865 30.810835 160.18829 -34.902149 7.4757266 -8.5180159 -167.64703
60000000 -10.473599 -147.86436 30.645807 160.55367 -34.385422 7.7366238 -8.5791168 -172.19615
70000000 -10.553199 -149.7533 30.542042 160.5143 -34.69384 7.4865732 -8.629384 -175.33
80000000 -10.532393 -151.21367 30.437693 160.1458 -34.562557 8.2725668 -8.7347326 -178.08049
90000000 -10.464734 -151.81107 30.363426 159.57988 -34.660564 5.4844079 -8.7589617 179.58894
100000000 -10.422677 -152.52464 30.292763 158.93437 -35.07132 6.3273406 -8.8126469 177.25771
110000000 -10.351616 -152.58655 30.223804 158.12807 -34.755402 8.4163923 -8.8566465 175.40521
120000000 -10.207393 -152.71753 30.154699 157.24161 -34.73666 6.5793834 -8.927927 173.72736
130000000 -10.095247 -152.78043 30.082703 156.28322 -34.696815 7.2860985 -8.9948301 171.92561
140000000 -9.9668646 -152.6683 30.013857 155.29317 -34.821354 5.6371703 -9.0850067 170.40254
150000000 -9.8226404 -152.56934 29.945503 154.33073 -34.662132 7.0397601 -9.1763725 168.93201
160000000 -9.704917 -152.42506 29.888487 153.30338 -34.781281 7.2626514 -9.2561626 167.51433
170000000 -9.5750914 -152.52106 29.815376 152.31822 -34.706284 8.0802193 -9.3184032 166.31522
180000000 -9.3961792 -152.39543 29.737154 151.22351 -34.695652 8.5640984 -9.3500566 164.84056
190000000 -9.2534904 -152.17267 29.676054 150.10579 -34.734566 9.8981314 -9.4383268 163.82784
200000000 -9.14013 -152.3495 29.593233 149.13557 -34.745495 9.0413132 -9.5389824 162.46286
210000000 -8.983449 -152.3089 29.520521 148.07689 -34.852673 6.6178408 -9.6641388 161.22476
220000000 -8.8263693 -152.10922 29.443344 146.96188 -34.747379 9.3716831 -9.7317934 160.17546
230000000 -8.7046003 -152.30168 29.361469 145.98848 -34.899158 9.5291471 -9.8344126 159.12256
240000000 -8.5595493 -152.4467 29.2792 144.92932 -34.981892 9.5178471 -9.9401407 158.13591
250000000 -8.4409208 -152.47177 29.187731 143.91289 -34.875549 10.250425 -10.053232 157.21159
260000000 -8.3394661 -152.49396 29.114334 142.9332 -34.743904 9.1777353 -10.142492 156.0799
270000000 -8.193593 -152.73048 29.028835 141.88802 -34.396202 11.887444 -10.234299 155.11748
280000000 -8.0127344 -152.81377 28.939402 140.87679 -34.651848 10.998408 -10.39001 154.53267
290000000 -7.9269514 -152.78926 28.850309 139.91335 -34.742405 11.602318 -10.461701 153.78142
300000000 -7.7908387 -153.01585 28.761461 138.93364 -34.962059 14.294197 -10.585923 152.61188
310000000 -7.6696968 -153.32251 28.669535 137.95714 -34.953606 12.864055 -10.7054 151.70184
320000000 -7.5577111 -153.5435 28.583399 137.03596 -34.776184 13.492728 -10.797013 150.86783
330000000 -7.4657526 -153.91342 28.485283 136.17296 -34.722176 11.176837 -10.905172 150.18257
340000000 -7.3650274 -154.10001 28.394249 135.23526 -34.766659 12.788112 -11.010741 149.54767
350000000 -7.2519298 -154.43906 28.295553 134.3253 -34.956738 14.827273 -11.169258 148.94914
360000000 -7.1646619 -154.52119 28.211254 133.42319 -34.758732 16.917669 -11.255814 148.01828
370000000 -7.0671225 -154.92143 28.107376 132.55653 -34.813595 16.455982 -11.409945 147.43611
380000000 -6.9696593 -155.03639 28.026323 131.68556 -34.596233 15.849613 -11.528526 146.644
390000000 -6.9024501 -155.31207 27.93049 130.81784 -34.810486 16.962788 -11.663358 146.10551
400000000 -6.8111048 -155.61226 27.831739 129.99565 -34.838074 17.924751 -11.785752 145.65024
410000000 -6.7338161 -156.00664 27.733313 129.17076 -34.98481 16.824343 -11.9106 145.00331
420000000 -6.6349392 -156.29305 27.638931 128.41327 -34.735497 19.083857 -12.029628 144.53065
430000000 -6.5837317 -156.61465 27.535784 127.67102 -34.40451 18.457367 -12.152247 143.79314
440000000 -6.499578 -156.96904 27.442516 126.81756 -34.713463 17.864304 -12.271357 143.54735
450000000 -6.4173174 -157.22473 27.359356 126.04665 -34.768494 18.863653 -12.388622 142.80176
460000000 -6.373702 -157.41573 27.251383 125.34231 -34.618549 20.313549 -12.543337 142.20822
470000000 -6.3034577 -157.78543 27.163338 124.5904 -34.562756 19.066486 -12.65864 141.8441
480000000 -6.2375193 -158.03479 27.058838 123.87454 -34.566608 21.306076 -12.813859 141.34805
490000000 -6.173317 -158.35834 26.974991 123.12361 -34.676956 20.581026 -12.943878 140.99023
500000000 -6.1513348 -158.54271 26.883356 122.41665 -34.669781 22.005732 -13.053561 140.15778
510000000 -6.0537906 -158.7991 26.781216 121.74026 -34.666996 21.382072 -13.200803 140.00111
520000000 -6.0149841 -159.25798 26.69775 121.11387 -34.236629 22.857077 -13.380034 139.31688
530000000 -5.9460168 -159.51259 26.602688 120.35496 -34.246956 22.11924 -13.451351 139.12958
540000000 -5.9098411 -159.7532 26.507675 119.72219 -34.321091 23.591604 -13.606076 138.76456
550000000 -5.8649983 -160.07852 26.406921 119.08451 -34.05645 24.128502 -13.74606 138.2935
560000000 -5.8051248 -160.21622 26.311886 118.41132 -34.178143 23.645737 -13.838386 137.82411
570000000 -5.7732882 -160.65648 26.23053 117.79433 -34.092182 23.427197 -13.954751 137.97281
580000000 -5.7270465 -160.79942 26.135418 117.14382 -34.09095 25.311209 -14.123484 137.15361
590000000 -5.6697779 -161.13805 26.049326 116.56203 -33.97644 25.747734 -14.245708 136.84714
600000000 -5.6345115 -161.52979 25.961761 115.93658 -33.95575 25.180483 -14.386984 136.72485
610000000 -5.6085925 -161.79666 25.856161 115.35978 -34.00457 27.783298 -14.566134 136.5166
620000000 -5.5739622 -162.11922 25.777679 114.81711 -33.900349 28.134079 -14.688712 136.34044
630000000 -5.5303311 -162.45152 25.683548 114.15976 -33.982525 27.912235 -14.813737 135.66444
640000000 -5.4899983 -162.7495 25.580864 113.61353 -33.801933 26.811819 -14.997228 136.07724
650000000 -5.4615688 -162.92624 25.50839 113.07387 -33.953884 28.592022 -15.103854 135.51718
660000000 -5.4179072 -163.26195 25.41827 112.54259 -33.885094 26.618082 -15.238169 135.46213
670000000 -5.3921647 -163.53452 25.333887 111.98451 -33.697983 28.543756 -15.394727 135.32198
680000000 -5.3724022 -163.82912 25.253805 111.41479 -33.713902 29.001595 -15.528773 135.00195
690000000 -5.3398123 -164.05389 25.167185 110.94051 -33.38625 29.107306 -15.683093 134.90694
700000000 -5.3181529 -164.26456 25.081379 110.40591 -33.750256 29.292889 -15.805621 134.83145
710000000 -5.286778 -164.54478 24.987848 109.83462 -33.435791 28.600811 -15.932729 134.94463
720000000 -5.278554 -164.80873 24.918098 109.30225 -33.682228 32.616112 -16.056431 133.96947
730000000 -5.2365003 -165.05121 24.832403 108.81828 -33.446114 30.029083 -16.207203 134.41571
740000000 -5.2039056 -165.27116 24.743471 108.28836 -33.329021 31.606022 -16.301355 134.16118
750000000 -5.1892409 -165.59154 24.659967 107.83828 -33.361767 31.79529 -16.521969 134.36305
760000000 -5.1609735 -165.83138 24.582399 107.35473 -33.168865 32.528244 -16.589123 134.25877
770000000 -5.143456 -166.05788 24.500692 106.8779 -33.406803 31.186829 -16.769215 133.75764
780000000 -5.1326981 -166.28459 24.415871 106.38097 -33.069157 32.888004 -16.909412 133.6651
790000000 -5.1045504 -166.62042 24.336685 105.92405 -33.274727 34.36977 -16.980902 133.4751
800000000 -5.0862241 -166.80765 24.252514 105.44616 -33.051945 32.210815 -17.171255 133.40715
810000000 -5.0631418 -167.03227 24.178946 104.98093 -32.996075 33.212399 -17.32365 133.70595
820000000 -5.0477076 -167.30392 24.101751 104.53159 -33.015526 32.713821 -17.464914 133.45625
830000000 -5.0414248 -167.58492 24.017229 104.0748 -33.006653 33.826931 -17.557428 133.48154
840000000 -5.025209 -167.84218 23.941372 103.66205 -32.913326 34.269665 -17.738855 133.3112
850000000 -5.00244 -168.01878 23.866066 103.21427 -32.725555 33.888184 -17.914942 133.51048
860000000 -4.9933748 -168.20564 23.784821 102.76105 -32.742786 33.892685 -18.016226 133.63689
870000000 -4.9722085 -168.44011 23.715456 102.36331 -32.626675 35.011688 -18.188046 133.6989
880000000 -4.954608 -168.69481 23.632822 101.91378 -32.65831 35.238781 -18.314369 133.62318
890000000 -4.9383802 -168.90395 23.561228 101.50629 -32.551556 34.806454 -18.448395 133.5782
900000000 -4.9312243 -169.14664 23.484104 101.13633 -32.617546 35.064411 -18.612268 133.68028
910000000 -4.9207058 -169.31807 23.406172 100.71763 -32.466156 35.033401 -18.701658 133.84961
920000000 -4.89994 -169.48878 23.336079 100.33293 -32.319492 35.790028 -18.877972 133.58519
930000000 -4.8949718 -169.67912 23.270132 99.96991 -32.346573 35.841255 -19.019222 133.79721
940000000 -4.8888302 -169.94859 23.195686 99.551323 -32.401825 37.204304 -19.204796 134.08488
950000000 -4.860548 -170.1842 23.119562 99.082649 -32.245232 34.764984 -19.390333 133.94705
960000000 -4.8572907 -170.38185 23.057425 98.676865 -32.144215 36.744064 -19.506804 134.26544
970000000 -4.838872 -170.68684 22.980267 98.320023 -32.137596 37.238594 -19.683762 134.34169
980000000 -4.8379149 -170.85565 22.916313 97.924049 -32.075741 36.455063 -19.791729 134.33508
990000000 -4.8292394 -171.09698 22.836102 97.540512 -32.151379 37.523586 -19.931971 135.00134
1000000000 -4.8040318 -173.11736 22.779856 97.130844 -32.011406 36.603016 -20.142378 136.44435
1010000000 -4.8164425 -171.48663 22.711355 96.752167 -31.878447 37.66058 -20.201382 135.36009
1020000000 -4.804245 -171.74585 22.62702 96.334404 -31.903862 37.54073 -20.407711 135.18565
1030000000 -4.781455 -171.94588 22.56382 95.977852 -31.647758 36.838326 -20.551289 135.86653
1040000000 -4.7685518 -172.19383 22.50503 95.618492 -31.685539 39.102562 -20.725908 135.97783
1050000000 -4.7817364 -172.38361 22.428974 95.261429 -31.70537 37.600159 -20.858976 136.15742
1060000000 -4.7737346 -172.53348 22.361994 94.975533 -31.587038 38.978367 -21.028503 136.50287
1070000000 -4.7667942 -172.68407 22.294634 94.544243 -31.539309 38.318707 -21.250368 136.81017
1080000000 -4.7543807 -172.93791 22.224588 94.223167 -31.638287 39.476463 -21.374487 136.78282
1090000000 -4.7516608 -173.11378 22.155964 93.84877 -31.532589 39.541985 -21.601959 137.98117
1100000000 -4.744946 -173.22435 22.101519 93.507607 -31.347694 39.669895 -21.696329 137.19655
1110000000 -4.734015 -173.45366 22.038778 93.149101 -31.198509 38.554859 -21.89653 137.77809
1120000000 -4.7325072 -173.68942 21.973938 92.86644 -31.222414 39.46447 -22.040504 138.16516
1130000000 -4.7325029 -173.83215 21.907986 92.495132 -31.090324 40.268127 -22.238319 138.93695
1140000000 -4.7243066 -174.06355 21.846796 92.208687 -31.140787 40.140163 -22.382238 139.3479
1150000000 -4.7172461 -174.26567 21.777637 91.794937 -31.132698 39.565823 -22.548063 139.70796
1160000000 -4.7165475 -174.43361 21.723436 91.439468 -31.233896 38.629784 -22.759798 139.62788
1170000000 -4.6971698 -174.62517 21.656231 91.121025 -31.091164 39.39838 -22.852493 140.81462
1180000000 -4.7067504 -174.8175 21.596874 90.767174 -30.951359 40.137131 -23.041574 140.90863
1190000000 -4.7000146 -175.05319 21.537838 90.4832 -30.941103 40.331036 -23.222111 141.21982
1200000000 -4.6892409 -175.18988 21.472015 90.099915 -30.85384 39.415028 -23.388729 142.34685
1210000000 -4.6913176 -175.40942 21.411877 89.816154 -30.955133 40.65472 -23.579489 142.40129
1220000000 -4.6919265 -175.5304 21.351242 89.49395 -30.751354 40.303532 -23.620649 143.55075
1230000000 -4.6781268 -175.70662 21.295607 89.174385 -30.715672 40.052341 -23.994381 143.5291
1240000000 -4.68433 -175.87294 21.23617 88.890709 -30.714468 40.566433 -24.065895 144.40228
1250000000 -4.675468 -176.09332 21.182066 88.563133 -30.75242 40.533508 -24.21134 144.67189
1260000000 -4.6709371 -176.25388 21.115932 88.226082 -30.541224 40.97657 -24.346365 145.14699
1270000000 -4.6646791 -176.50272 21.06407 87.908501 -30.508173 40.195332 -24.365416 146.80084
1280000000 -4.6679192 -176.67403 21.000807 87.578934 -30.562172 41.467064 -24.578388 147.37923
1290000000 -4.654706 -176.86047 20.943628 87.280876 -30.43099 40.829029 -24.691853 148.23979
1300000000 -4.6490164 -176.9912 20.88858 86.986954 -30.456949 40.920723 -24.868063 148.80373
1310000000 -4.6495194 -177.20731 20.832861 86.651741 -30.240391 41.417366 -25.049158 149.96758
1320000000 -4.6510963 -177.37674 20.77737 86.38031 -30.210609 41.485744 -25.280779 150.49973
1330000000 -4.6412592 -177.59482 20.724115 86.052994 -30.208 41.199238 -25.369627 150.90802
1340000000 -4.639267 -177.78314 20.668468 85.777863 -30.178499 41.257614 -25.592958 152.54353
1350000000 -4.6393867 -177.96065 20.614986 85.465202 -30.154957 41.893787 -25.709122 152.75255
1360000000 -4.6393232 -178.09792 20.562986 85.170845 -30.230953 41.130054 -25.931154 153.48192
1370000000 -4.6266375 -178.22353 20.503479 84.903572 -30.055449 41.610962 -26.009882 153.2796
1380000000 -4.6259232 -178.47392 20.450314 84.574715 -29.957722 40.803028 -26.127831 154.91052
1390000000 -4.6204028 -178.63193 20.404259 84.247704 -29.946918 41.885162 -26.218983 155.51105
1400000000 -4.6330061 -178.86676 20.342199 83.9664 -29.843353 41.151955 -26.272495 157.73875
1410000000 -4.624084 -179.03253 20.293192 83.648354 -29.86622 41.927097 -26.454525 158.52274
1420000000 -4.6309323 -179.27284 20.236404 83.411415 -29.775196 42.077595 -26.516905 159.48468
1430000000 -4.6251173 -179.46689 20.181583 83.07962 -29.833254 41.283295 -26.723888 160.86784
1440000000 -4.6265836 -179.57266 20.135851 82.784584 -29.598574 41.47123 -26.708969 161.89769
1450000000 -4.6135645 -179.74954 20.084959 82.520851 -29.626629 42.522247 -26.881645 162.89555
1460000000 -4.6202755 -179.92264 20.031174 82.175995 -29.461506 42.852795 -26.919651 163.79234
1470000000 -4.6174245 179.8911 19.981546 81.955017 -29.559135 40.692322 -27.050867 165.04108
1480000000 -4.6170955 179.68137 19.92601 81.668816 -29.515934 42.354927 -27.192583 166.66229
1490000000 -4.6219807 179.51741 19.869219 81.358406 -29.365297 43.066875 -27.197172 167.67563
1500000000 -4.6193357 179.33662 19.81958 81.068199 -29.479067 41.985859 -27.239258 168.61053
1510000000 -4.628336 179.17249 19.767418 80.793022 -29.391563 42.077812 -27.449978 168.68378
1520000000 -4.616818 179.02916 19.726103 80.536407 -29.178522 42.010811 -27.562075 171.10056
1530000000 -4.6147699 178.83846 19.671192 80.254173 -29.230959 41.889435 -27.470844 172.7477
1540000000 -4.6071119 178.70488 19.630903 79.971466 -29.291111 42.660065 -27.640636 174.73544
1550000000 -4.6167541 178.38852 19.576937 79.64946 -29.133493 42.156136 -27.689022 174.7856
1560000000 -4.6112952 178.25101 19.533216 79.395363 -29.046915 42.54879 -27.774412 175.92261
1570000000 -4.6182609 178.09993 19.477079 79.132645 -29.062157 42.114578 -27.56628 178.09865
1580000000 -4.6291962 177.91273 19.43255 78.845741 -28.992765 42.22752 -27.771133 179.39764
1590000000 -4.6154203 177.80132 19.383457 78.627419 -28.872253 40.990013 -27.683231 179.80128
1600000000 -4.6120205 177.60596 19.33432 78.321281 -28.979027 41.715977 -27.797773 -178.52841
1610000000 -4.6033525 177.51193 19.29104 78.041199 -28.806154 42.293621 -27.870647 -177.22911
1620000000 -4.6018729 177.24469 19.250805 77.775932 -28.813772 42.777477 -27.718752 -175.60179
1630000000 -4.6036949 177.10126 19.202341 77.488655 -28.764732 42.533627 -27.604828 -174.70412
1640000000 -4.6166444 176.88589 19.155375 77.213417 -28.870106 42.116554 -27.695856 -173.48878
1650000000 -4.6142244 176.69124 19.108959 76.965363 -28.763632 42.030602 -27.524641 -172.03802
1660000000 -4.6039085 176.64546 19.060587 76.713516 -28.686916 42.232403 -27.557766 -171.4355
1670000000 -4.6052518 176.34775 19.028311 76.444786 -28.784626 40.857124 -27.579496 -170.05673
1680000000 -4.5990291 176.14282 18.980288 76.142128 -28.542353 42.350349 -27.49935 -168.6125
1690000000 -4.5968056 175.99974 18.93465 75.942879 -28.578655 42.226025 -27.445751 -167.19864
1700000000 -4.6077576 175.79391 18.885561 75.566223 -28.481232 42.441875 -27.323858 -166.18416
1710000000 -4.6073341 175.56433 18.838785 75.325089 -28.458763 41.89505 -27.424032 -166.38007
1720000000 -4.6121564 175.44943 18.793854 75.068497 -28.394793 41.370934 -27.3241 -165.44131
1730000000 -4.6187019 175.30438 18.752855 74.833305 -28.290958 42.84137 -27.352894 -163.56387
1740000000 -4.6073694 175.12431 18.711592 74.568604 -28.381163 41.800865 -27.304026 -162.10477
1750000000 -4.6128626 174.93895 18.661297 74.255562 -28.146883 41.285954 -27.225138 -160.33447
1760000000 -4.6064072 174.71431 18.621344 74.052925 -28.233515 41.692276 -27.158409 -160.51501
1770000000 -4.6065435 174.58008 18.570704 73.755501 -28.283966 42.107029 -27.082809 -159.72018
1780000000 -4.6148977 174.41797 18.528074 73.490906 -28.224344 42.518093 -27.011812 -158.74606
1790000000 -4.6234975 174.16093 18.483265 73.257736 -28.092104 42.136524 -26.759733 -157.61491
1800000000 -4.616982 174.05498 18.446005 73.028557 -28.081463 41.553265 -27.072674 -156.45102
1810000000 -4.6268435 173.82797 18.402405 72.749657 -27.987341 41.283554 -26.849524 -155.86249
1820000000 -4.6165085 173.6976 18.359718 72.469429 -28.015347 41.903694 -26.73678 -154.58231
1830000000 -4.5997825 173.4682 18.325302 72.232887 -27.991188 41.058079 -26.421595 -153.85616
1840000000 -4.6033173 173.31152 18.279133 71.941994 -27.951237 42.324936 -26.564461 -153.28841
1850000000 -4.6084833 173.12151 18.235512 71.70356 -27.947596 41.506271 -26.266693 -153.45898
1860000000 -4.5883641 172.8555 18.195774 71.373116 -27.83647 41.805645 -26.06587 -152.77977
1870000000 -4.6141744 172.75461 18.150566 71.166672 -27.84269 42.405544 -26.115889 -151.42409
1880000000 -4.6151209 172.66588 18.102694 70.91758 -27.873177 41.921108 -25.974163 -150.86246
1890000000 -4.6175733 172.44676 18.070215 70.665199 -27.706781 40.839329 -25.943405 -150.63512
1900000000 -4.6149602 172.32954 18.021164 70.454704 -27.547401 41.094696 -25.810341 -149.44627
1910000000 -4.6064029 172.11226 17.989309 70.135475 -27.622427 41.045689 -25.586897 -149.58347
1920000000 -4.6159067 171.85977 17.944365 69.852051 -27.586657 41.809505 -25.550564 -148.45624
1930000000 -4.6173906 171.63605 17.901529 69.584793 -27.482372 41.5746 -25.384384 -148.40956
1940000000 -4.6272621 171.43633 17.857643 69.377998 -27.557014 40.968239 -25.338112 -148.31723
1950000000 -4.6268597 171.35017 17.821627 69.151115 -27.476248 40.956696 -25.261261 -146.71025
1960000000 -4.6188679 171.20119 17.784849 68.903107 -27.523161 41.010452 -25.338144 -146.56187
1970000000 -4.6070776 171.03209 17.743237 68.644363 -27.399469 40.903984 -25.168976 -145.54271
1980000000 -4.6099873 170.90413 17.705189 68.386848 -27.428188 41.131931 -25.033123 -145.40787
1990000000 -4.6063046 170.7099 17.661901 68.177132 -27.361307 41.391335 -24.941778 -145.11427
2000000000 -4.645072 170.4664 17.622282 67.849129 -27.258156 40.385231 -24.743938 -145.74683
2010000000 -4.6121111 170.2702 17.582069 67.664154 -27.08515 41.05225 -24.759445 -145.14975
2020000000 -4.6408749 170.07085 17.543386 67.392372 -27.11916 40.99474 -24.69565 -143.6824
2030000000 -4.6293983 169.98969 17.505114 67.129311 -27.156731 40.937725 -24.557981 -144.11458
2040000000 -4.6128268 169.89131 17.474192 66.911942 -27.142565 39.717731 -24.352928 -143.43135
2050000000 -4.6218681 169.57451 17.435135 66.65844 -27.056242 41.206223 -24.309057 -142.83308
2060000000 -4.6071591 169.44324 17.40007 66.391991 -27.04837 40.440983 -24.074774 -142.34904
2070000000 -4.6095891 169.07951 17.362823 66.095909 -26.966778 40.041065 -24.139765 -142.13742
2080000000 -4.6192303 168.89793 17.322565 65.88176 -26.96987 40.64027 -24.030865 -142.42717
2090000000 -4.6331882 168.81485 17.278208 65.685562 -26.900194 40.318878 -23.835011 -142.62376
2100000000 -4.6227279 168.60847 17.245001 65.395744 -26.870226 39.71991 -23.790899 -141.53485
2110000000 -4.6208205 168.43909 17.220131 65.155708 -27.007153 40.470573 -23.758343 -142.12904
2120000000 -4.6113782 168.32417 17.173981 64.938454 -26.786015 40.862606 -23.667042 -141.27831
2130000000 -4.6070447 168.02702 17.143114 64.625641 -26.915812 39.98777 -23.400347 -141.72922
