# Hz S  dB   R 50
10000000 -5.7001433 -79.173615 34.630615 150.59218 -36.432346 29.083147 -7.3945637 -102.18244
20000000 -8.4037247 -110.27142 32.33176 154.22189 -35.143951 12.574061 -8.5097628 -137.65546
30000000 -9.5830088 -127.12666 31.390757 157.81357 -34.970203 9.4973783 -8.7832956 -153.37755
40000000 -10.067854 -136.4288 30.96557 159.79221 -34.374809 9.6869793 -8.9950294 -161.8219
50000000 -10.307839 -142.52429 30.735626 160.85851 -34.277748 7.3968339 -9.0213375 -167.68164
60000000 -10.437653 -146.49316 30.57864 161.16377 -34.461197 8.3062277 -9.080739 -172.31203
70000000 -10.511337 -148.47495 30.482601 161.07176 -34.69323 5.3865643 -9.149375 -175.79945
80000000 -10.502453 -150.5278 30.384474 160.67072 -34.464645 8.2766399 -9.230402 -178.47438
90000000 -10.491592 -151.20811 30.314526 160.06259 -34.359337 6.3928843 -9.2426434 178.84465
100000000 -10.460538 -151.98813 30.248537 159.38205 -34.551109 4.3889484 -9.3008308 176.42546
110000000 -10.420065 -152.23906 30.180779 158.55228 -34.497742 8.0830336 -9.366147 174.31645
120000000 -10.267551 -152.41771 30.112787 157.63588 -34.432514 6.7696552 -9.4178305 172.6779
130000000 -10.165366 -152.61671 30.044382 156.66975 -34.403427 6.4233384 -9.4887085 170.79066
140000000 -10.047558 -152.51773 29.974159 155.67409 -34.612938 6.4387574 -9.577858 169.01282
150000000 -9.9120522 -152.52463 29.906734 154.69518 -34.573597 6.2311711 -9.670083 167.40123
160000000 -9.8336391 -152.36792 29.851604 153.66635 -34.3391 6.2481833 -9.7602673 165.96068
170000000 -9.7011003 -152.45349 29.779772 152.67625 -34.408138 7.5547915 -9.8193665 164.54851
180000000 -9.5592756 -152.35741 29.701773 151.56609 -34.944572 7.0436473 -9.8557873 162.99101
190000000 -9.4021893 -152.18246 29.644913 150.44727 -34.35178 8.3224096 -9.9369965 161.88362
200000000 -9.2854595 -152.26225 29.561155 149.4763 -34.338871 6.9629049 -10.028345 160.39166
210000000 -9.1464767 -152.11613 29.488821 148.40178 -34.847359 7.3786254 -10.157001 159.13628
220000000 -8.9716063 -151.99052 29.414253 147.28618 -34.446026 7.2030816 -10.266832 157.8334
230000000 -8.8484011 -152.11667 29.334579 146.30855 -34.307972 7.5230622 -10.344092 156.71892
240000000 -8.7184801 -152.18695 29.255144 145.25728 -34.54285 7.7829485 -10.448181 155.58928
250000000 -8.60748 -152.21211 29.166407 144.25269 -34.681133 9.9615202 -10.560166 154.4552
260000000 -8.4772816 -152.15953 29.096029 143.26875 -34.195511 8.5923767 -10.683121 153.24194
270000000 -8.3657227 -152.38173 29.008503 142.22227 -34.581661 8.5429707 -10.821926 152.27716
280000000 -8.2016335 -152.46819 28.922707 141.22537 -34.507397 9.3292723 -10.913138 151.38698
290000000 -8.0806046 -152.61078 28.835167 140.23007 -34.203224 7.1469836 -10.998001 150.51688
300000000 -7.942533 -152.96036 28.749378 139.2506 -34.596848 7.6970468 -11.129821 149.38293
310000000 -7.8410969 -153.03398 28.653826 138.24997 -34.885849 10.447048 -11.269002 148.41946
320000000 -7.7316904 -153.19597 28.566824 137.33379 -34.534519 10.831159 -11.37405 147.32227
330000000 -7.6377163 -153.47105 28.478645 136.4554 -34.932465 10.403599 -11.522926 146.56454
340000000 -7.5304523 -153.61287 28.384079 135.55139 -34.419575 12.599909 -11.606101 145.7187
350000000 -7.4266949 -153.92593 28.290083 134.6313 -34.555058 13.519017 -11.754248 144.8835
360000000 -7.3267865 -154.07256 28.202906 133.70502 -34.087654 12.031587 -11.89656 144.03482
370000000 -7.2318311 -154.46819 28.100588 132.8577 -34.748611 14.111079 -11.98642 143.19006
380000000 -7.1507959 -154.32552 28.021023 131.97005 -34.722668 15.062439 -12.155794 142.30328
390000000 -7.0395789 -154.72552 27.926756 131.08847 -34.738678 16.836102 -12.295683 141.58678
400000000 -6.9520745 -155.03305 27.835035 130.28793 -34.535645 15.593019 -12.393793 140.87662
410000000 -6.8783302 -155.37363 27.735823 129.42738 -34.946224 15.508092 -12.568654 140.32043
420000000 -6.7983456 -155.68541 27.642181 128.68494 -34.473068 15.830791 -12.688941 139.6008
430000000 -6.7370977 -156.05528 27.541 127.92493 -34.453159 15.763708 -12.813435 138.97847
440000000 -6.6474662 -156.31557 27.450043 127.0744 -34.30587 19.237705 -12.945726 138.24529
450000000 -6.579813 -156.50777 27.36322 126.29312 -34.2756 16.409365 -13.108963 137.26888
460000000 -6.5095439 -156.78578 27.258713 125.5779 -34.347412 18.455086 -13.266906 136.93904
470000000 -6.4379492 -157.14339 27.173271 124.79824 -34.266399 16.37352 -13.379667 136.3744
480000000 -6.3701229 -157.40205 27.06777 124.08446 -33.995407 19.526644 -13.569623 135.68054
490000000 -6.2935514 -157.69423 26.983433 123.34125 -34.218979 18.490192 -13.694327 135.12999
500000000 -6.28128 -157.96115 26.892311 122.63293 -34.692581 19.079197 -13.816918 134.14673
510000000 -6.1922245 -158.23938 26.789524 121.94058 -34.682938 19.060095 -13.958713 133.888
520000000 -6.1457739 -158.60106 26.710047 121.30195 -34.240467 19.051874 -14.178391 133.43867
530000000 -6.085845 -158.7654 26.614491 120.55457 -34.287716 20.732176 -14.241262 132.76883
540000000 -6.0240307 -159.14162 26.517914 119.90067 -34.040405 22.818256 -14.409798 132.10268
550000000 -5.9785089 -159.44751 26.424866 119.2406 -34.077908 21.750402 -14.548896 131.39764
560000000 -5.9253612 -159.73807 26.326683 118.58823 -34.189034 21.821306 -14.672179 130.95688
570000000 -5.8969073 -159.9753 26.24572 117.9477 -34.059299 22.216171 -14.865419 130.54558
580000000 -5.8234081 -160.13425 26.151428 117.30213 -33.91687 21.339684 -14.991944 130.07358
590000000 -5.7889605 -160.5853 26.067125 116.69907 -33.794991 21.485052 -15.188742 129.7533
600000000 -5.7475634 -160.74699 25.982824 116.07045 -34.117695 23.433023 -15.311754 129.20584
610000000 -5.7041516 -161.17732 25.879547 115.50107 -33.740326 22.926271 -15.484707 128.80089
620000000 -5.6795831 -161.44884 25.798468 114.94773 -34.033207 24.721655 -15.654014 128.34561
630000000 -5.6382685 -161.79425 25.705891 114.27256 -34.153332 24.358456 -15.799156 128.05789
640000000 -5.6002827 -162.05933 25.600763 113.76394 -34.008911 26.342346 -16.008802 127.599
650000000 -5.5786653 -162.16907 25.528597 113.20436 -33.802814 26.927399 -16.152733 127.12718
660000000 -5.5318422 -162.54282 25.436682 112.65274 -33.944244 25.58255 -16.303341 127.11634
670000000 -5.4960899 -162.8237 25.354183 112.06933 -33.749737 25.304834 -16.462967 126.56659
680000000 -5.4756036 -163.05728 25.272211 111.51362 -33.641483 26.720787 -16.590151 126.37052
690000000 -5.4491019 -163.43924 25.186152 111.0084 -33.711426 27.882357 -16.805014 125.82625
700000000 -5.4275494 -163.70523 25.102604 110.45358 -33.588711 27.900171 -16.954062 125.67343
710000000 -5.3881493 -163.96889 25.006102 109.90308 -33.804195 28.522863 -17.107742 125.41518
720000000 -5.3549809 -164.15723 24.942457 109.36758 -33.469383 28.139711 -17.311541 124.87785
730000000 -5.3426661 -164.31641 24.853109 108.89498 -33.698143 29.243971 -17.455048 124.33962
740000000 -5.2971635 -164.70006 24.764578 108.31106 -33.281902 27.284515 -17.575346 124.38718
750000000 -5.2896333 -164.86981 24.680817 107.88244 -33.377205 28.602964 -17.760983 124.22028
760000000 -5.2515702 -165.11662 24.606012 107.36008 -33.41898 31.131893 -17.967041 123.7861
770000000 -5.2322097 -165.39011 24.526241 106.87828 -33.289829 30.047491 -18.132038 123.49762
780000000 -5.2212601 -165.65112 24.442499 106.41573 -33.252586 30.259167 -18.287781 123.37801
790000000 -5.2010012 -165.86572 24.359055 105.93347 -33.045937 30.876244 -18.479029 122.73778
800000000 -5.1795044 -166.12543 24.275175 105.46741 -32.998558 28.710024 -18.644007 123.05739
810000000 -5.1568584 -166.36278 24.202484 104.98499 -33.330975 31.254112 -18.784134 122.58299
820000000 -5.1375198 -166.63678 24.126629 104.53424 -33.135189 31.784794 -18.98839 122.43407
830000000 -5.1281805 -166.93661 24.045317 104.08529 -33.078194 31.062593 -19.122173 122.02696
840000000 -5.1050463 -167.14815 23.965725 103.63551 -32.874439 32.102856 -19.319168 121.81491
850000000 -5.1003723 -167.38208 23.890686 103.18698 -32.620697 33.08815 -19.58741 121.58594
860000000 -5.080914 -167.56105 23.810883 102.73182 -32.982338 32.546078 -19.648695 121.56286
870000000 -5.053545 -167.77594 23.737751 102.31047 -32.662319 32.728172 -19.909428 121.45832
880000000 -5.0352912 -167.96552 23.655684 101.88239 -32.803661 33.286388 -20.094986 121.49755
890000000 -5.0176969 -168.30142 23.587286 101.47157 -32.504585 32.468365 -20.251656 121.10738
900000000 -5.0150833 -168.51033 23.506943 101.09715 -32.762684 33.096325 -20.482147 120.98986
910000000 -4.9912763 -168.63889 23.433561 100.6675 -32.71043 33.224712 -20.687756 120.92175
920000000 -4.9788589 -168.86816 23.363407 100.27025 -32.33913 33.512234 -20.862148 120.77974
930000000 -4.9678006 -168.92888 23.293211 99.898232 -32.65955 34.67709 -21.058464 120.19727
940000000 -4.9524894 -169.26447 23.223766 99.452438 -32.503918 34.345612 -21.296223 120.40304
950000000 -4.9436631 -169.44855 23.14275 99.035316 -32.513588 34.291603 -21.531778 119.94521
960000000 -4.9303541 -169.76643 23.08185 98.57077 -32.334671 34.086006 -21.735722 120.34695
970000000 -4.9209623 -169.92764 23.004402 98.222893 -32.340912 33.956631 -21.957371 119.98365
980000000 -4.9069233 -170.2312 22.940443 97.850319 -32.15559 36.587822 -22.143713 120.12468
990000000 -4.9099584 -170.46295 22.859488 97.439728 -32.087151 34.915508 -22.301022 120.13805
1000000000 -4.8726506 -172.48796 22.805998 97.040726 -32.097515 35.046654 -22.60853 121.62413
1010000000 -4.8881979 -170.84294 22.735292 96.640335 -32.04084 35.51281 -22.78043 120.51202
1020000000 -4.8670797 -171.0654 22.651958 96.236755 -32.046387 35.729599 -22.982178 120.14375
1030000000 -4.8537302 -171.28468 22.590269 95.852516 -31.90979 36.886024 -23.25169 120.4429
1040000000 -4.8433566 -171.52376 22.525963 95.519463 -31.814257 37.036678 -23.579302 120.0935
1050000000 -4.8415575 -171.71764 22.451429 95.14637 -31.812351 36.497738 -23.782286 120.11505
1060000000 -4.8454638 -171.8459 22.382977 94.855438 -31.722496 37.908737 -24.039528 120.13746
1070000000 -4.8370967 -172.00998 22.320272 94.438133 -31.851135 37.040493 -24.372355 120.69921
1080000000 -4.8302288 -172.25461 22.250544 94.085625 -31.648029 36.51062 -24.460909 120.53086
1090000000 -4.8138342 -172.46663 22.181845 93.72094 -31.515856 37.327229 -24.81811 120.64658
1100000000 -4.8101168 -172.65764 22.124622 93.3433 -31.56094 37.911041 -25.029703 120.4664
1110000000 -4.8000059 -172.8577 22.061241 93.009506 -31.613491 37.516769 -25.495256 120.95455
1120000000 -4.794188 -173.05753 22.000256 92.712883 -31.424299 37.89677 -25.653717 120.50033
1130000000 -4.7829385 -173.17799 21.931206 92.361038 -31.365692 36.457268 -25.970943 121.61954
1140000000 -4.7937136 -173.47662 21.871536 92.033066 -31.448763 37.003773 -26.124382 120.87532
1150000000 -4.7791238 -173.65802 21.802444 91.643723 -31.36129 38.736469 -26.688015 121.37159
1160000000 -4.76966 -173.80214 21.749331 91.273712 -31.220747 38.499893 -26.975258 121.50424
1170000000 -4.7606664 -173.979 21.681787 90.976929 -31.205448 39.070927 -27.164824 121.95691
1180000000 -4.7636185 -174.13574 21.618092 90.627029 -31.228706 39.025524 -27.454859 122.02422
1190000000 -4.7621837 -174.36325 21.557665 90.317772 -31.006195 38.217339 -27.846981 122.90575
1200000000 -4.751123 -174.63437 21.493773 89.936943 -30.929218 38.830273 -28.202637 122.82563
1210000000 -4.7466159 -174.79346 21.438957 89.662361 -31.043972 39.518169 -28.640879 123.94443
1220000000 -4.7570591 -174.90189 21.375174 89.296661 -30.895222 39.09679 -28.588539 124.75465
1230000000 -4.733057 -175.12915 21.317915 88.957481 -31.005667 38.313087 -29.44404 123.88416
1240000000 -4.7408695 -175.21254 21.259529 88.691696 -30.875412 39.12056 -29.737659 125.53328
1250000000 -4.7334414 -175.44244 21.202785 88.378487 -30.803122 38.773251 -29.825737 126.22144
1260000000 -4.7237496 -175.64282 21.144859 88.025162 -30.790022 39.076801 -30.248201 126.31226
1270000000 -4.7231832 -175.81282 21.084728 87.70256 -30.574326 39.012741 -30.765764 128.69791
1280000000 -4.7194581 -176.02591 21.027451 87.382828 -30.59556 39.401508 -31.160574 129.32579
1290000000 -4.7107935 -176.30937 20.965769 87.065651 -30.458197 39.117107 -31.615116 131.17316
1300000000 -4.7025728 -176.37628 20.911692 86.764748 -30.501902 39.983097 -32.080925 131.59428
1310000000 -4.6943936 -176.57274 20.859276 86.449051 -30.58803 40.166565 -32.645153 133.63599
1320000000 -4.6998091 -176.78099 20.799215 86.13707 -30.409035 39.762989 -33.028858 134.71371
1330000000 -4.6933432 -176.99202 20.74996 85.830025 -30.282598 40.116661 -33.343567 135.89354
1340000000 -4.6997113 -177.1826 20.688261 85.535263 -30.363602 39.52787 -34.286469 138.62338
1350000000 -4.6990404 -177.29593 20.634954 85.241524 -30.255545 39.990574 -34.669209 140.46996
1360000000 -4.6984563 -177.50516 20.582407 84.934868 -30.362806 39.652512 -35.022766 138.88737
1370000000 -4.690804 -177.62416 20.521656 84.642799 -30.21092 40.39283 -35.340893 141.32375
1380000000 -4.6800489 -177.82774 20.471888 84.327515 -30.205856 40.246693 -35.634048 145.2796
1390000000 -4.6687746 -178.03609 20.427265 84.000816 -30.198195 39.785164 -36.160294 147.58846
1400000000 -4.6770177 -178.26443 20.367399 83.695396 -30.229368 40.191158 -36.388012 154.26723
1410000000 -4.6844625 -178.49637 20.309059 83.387321 -30.013353 40.372482 -37.162651 160.38675
1420000000 -4.677423 -178.66318 20.253714 83.182823 -30.057398 39.986248 -37.110069 161.76544
1430000000 -4.6745329 -178.85207 20.203518 82.819054 -29.858624 40.902393 -37.871376 167.10257
1440000000 -4.6720867 -178.96335 20.156052 82.543182 -29.934603 40.219776 -38.100925 169.10831
1450000000 -4.6735454 -179.18448 20.105457 82.261803 -29.645426 39.380878 -38.060471 177.05144
1460000000 -4.6591969 -179.3381 20.053165 81.895676 -29.644819 40.585892 -38.092148 -177.01514
1470000000 -4.6584888 -179.52615 20.002041 81.661369 -29.729895 40.424603 -38.500492 -169.42767
1480000000 -4.6673784 -179.76294 19.94516 81.378555 -29.794436 40.38102 -38.427586 -166.40341
1490000000 -4.666451 -179.93962 19.89353 81.111389 -29.842438 40.824867 -38.470303 -160.29947
1500000000 -4.6796093 179.89351 19.840311 80.794533 -29.527849 40.761135 -38.136669 -160.83119
1510000000 -4.6680183 179.73906 19.790102 80.52565 -29.573412 41.482033 -38.028114 -153.33221
1520000000 -4.6724505 179.65961 19.744234 80.272575 -29.57122 40.319542 -37.807758 -144.70259
1530000000 -4.6563168 179.44366 19.692396 79.969559 -29.500206 41.541153 -37.246716 -142.2991
1540000000 -4.6556091 179.19801 19.650589 79.683983 -29.464323 40.462368 -36.73835 -138.56636
1550000000 -4.6555018 178.95653 19.599504 79.349129 -29.357052 41.298576 -36.397457 -134.37431
1560000000 -4.6495051 178.86354 19.556517 79.098434 -29.296738 40.909874 -35.954372 -134.15964
1570000000 -4.6615644 178.65819 19.497009 78.839035 -29.314726 41.140823 -35.417591 -130.03558
1580000000 -4.666688 178.49721 19.453161 78.510201 -29.206749 41.148617 -35.232059 -126.8586
1590000000 -4.6648369 178.40518 19.405188 78.31665 -29.224113 40.88884 -34.944946 -126.73411
1600000000 -4.6595116 178.22989 19.353754 78.008591 -29.044556 41.420837 -34.595306 -122.77327
1610000000 -4.6445546 178.03539 19.309181 77.739227 -29.013617 39.872307 -33.975933 -121.36668
1620000000 -4.6438394 177.8376 19.269604 77.465195 -29.052563 40.438309 -33.682686 -120.03264
1630000000 -4.6512957 177.62849 19.220957 77.158516 -29.090782 40.920013 -32.994236 -121.24043
1640000000 -4.6481113 177.46236 19.176319 76.900589 -28.897198 41.505943 -32.715576 -119.99657
1650000000 -4.6578918 177.28027 19.125032 76.650513 -28.914494 41.136654 -32.357559 -119.59
1660000000 -4.655334 177.19868 19.077724 76.400261 -28.955036 41.207371 -31.948559 -117.22024
1670000000 -4.6467986 177.011 19.044147 76.143753 -28.932915 40.710239 -31.893486 -115.38139
1680000000 -4.6403255 176.78072 18.99859 75.814552 -28.967148 40.488281 -31.474058 -116.20081
1690000000 -4.6360984 176.63216 18.95216 75.620155 -28.77001 41.033306 -31.24684 -113.5062
1700000000 -4.6452489 176.41461 18.906782 75.267807 -28.70961 40.720665 -30.769115 -114.04684
1710000000 -4.657166 176.19154 18.856825 75.007935 -28.623768 41.394886 -30.781155 -114.76556
1720000000 -4.6459746 176.05118 18.810452 74.751366 -28.695042 40.537624 -30.574411 -112.9268
1730000000 -4.651207 175.89293 18.77136 74.502602 -28.662292 41.151348 -30.052864 -111.97028
1740000000 -4.6470327 175.72206 18.72904 74.24411 -28.529264 40.687035 -29.883963 -112.0614
1750000000 -4.6450381 175.50433 18.678368 73.911064 -28.57753 40.106388 -29.563133 -111.97047
1760000000 -4.633131 175.32921 18.64069 73.702896 -28.480162 40.803402 -29.590418 -111.00407
1770000000 -4.6462235 175.07397 18.588427 73.426277 -28.37237 40.05619 -29.250483 -111.34344
1780000000 -4.6563783 175.00145 18.546686 73.137657 -28.358856 40.807308 -29.007572 -111.04487
1790000000 -4.6539516 174.75641 18.498796 72.904007 -28.355955 40.342587 -28.79797 -110.5967
1800000000 -4.6522288 174.62222 18.463026 72.669884 -28.253716 41.092354 -28.513708 -110.36389
1810000000 -4.665782 174.40933 18.417532 72.426872 -28.218668 40.803448 -28.290159 -108.67966
1820000000 -4.6477375 174.25134 18.377932 72.101784 -28.155962 41.116806 -28.154028 -109.45841
1830000000 -4.6433797 174.06554 18.341572 71.884735 -28.246269 40.731419 -27.742872 -109.90074
1840000000 -4.6531177 173.88435 18.294456 71.567421 -28.171928 40.778065 -27.57777 -109.69606
1850000000 -4.640408 173.63936 18.254196 71.324097 -28.044094 40.847603 -27.472431 -110.46497
1860000000 -4.646812 173.49588 18.211756 71.015213 -28.198196 40.681862 -27.26586 -109.44633
1870000000 -4.6540923 173.34846 18.167433 70.785828 -27.935638 41.369987 -26.963587 -111.28146
1880000000 -4.6646805 173.14584 18.11927 70.540894 -27.854704 40.391109 -26.941309 -111.37531
1890000000 -4.6604614 173.02528 18.086275 70.282433 -27.98576 39.786243 -26.826344 -109.94746
1900000000 -4.6485715 172.80258 18.037876 70.053658 -27.963266 41.029526 -26.500439 -109.30863
1910000000 -4.6464853 172.65356 18.004259 69.757408 -27.87602 40.417286 -26.326189 -110.30322
1920000000 -4.6391387 172.4185 17.961187 69.506325 -27.837906 39.910934 -26.062607 -109.38943
1930000000 -4.6504054 172.23431 17.919498 69.219643 -27.782019 40.89547 -26.00869 -110.41024
1940000000 -4.6519871 171.98746 17.875996 68.969925 -27.858034 40.384533 -25.851578 -110.39326
1950000000 -4.6565022 171.86299 17.836424 68.768867 -27.714214 40.290096 -25.894381 -110.06813
1960000000 -4.6588626 171.74384 17.799509 68.531647 -27.665133 40.65073 -25.682886 -110.00094
1970000000 -4.6560144 171.63811 17.761156 68.237648 -27.581303 40.279686 -25.409819 -109.97762
1980000000 -4.6489615 171.39806 17.719975 67.996269 -27.626335 40.63459 -25.286785 -110.24904
1990000000 -4.6544566 171.20055 17.679184 67.772026 -27.603582 39.776699 -25.093138 -110.14028
2000000000 -4.6817675 171.05583 17.63472 67.459015 -27.568836 39.599575 -25.104343 -111.2775
2010000000 -4.6521821 170.8056 17.60252 67.235367 -27.454041 40.176529 -24.876188 -110.81023
2020000000 -4.6658483 170.71077 17.562988 66.966713 -27.586258 40.156334 -24.807446 -110.39387
2030000000 -4.6580162 170.54514 17.515718 66.761086 -27.374308 39.91629 -24.533342 -110.42712
2040000000 -4.6600094 170.38045 17.489864 66.494041 -27.250067 39.942562 -24.387585 -110.40643
2050000000 -4.65733 170.12276 17.451853 66.257965 -27.389196 38.866863 -24.286692 -110.87556
2060000000 -4.646265 170.01721 17.413374 65.978722 -27.360743 39.746914 -24.138206 -111.31632
2070000000 -4.6414595 169.59613 17.37645 65.667389 -27.238256 39.989964 -24.012659 -111.73307
2080000000 -4.6497874 169.49344 17.337133 65.466972 -27.178833 40.238216 -23.895525 -112.02644
2090000000 -4.6518383 169.33208 17.290819 65.247032 -27.164289 39.086231 -23.788607 -111.9192
2100000000 -4.6581283 169.16882 17.259483 64.970169 -27.203241 39.488373 -23.776665 -112.07942
2110000000 -4.6469092 168.9576 17.240751 64.729286 -27.058733 39.868916 -23.601345 -112.3914
2120000000 -4.6476774 168.8252 17.189938 64.515038 -27.121059 39.023132 -23.633795 -111.98547
2130000000 -4.6460319 168.57088 17.15769 64.197746 -27.087509 39.703259 -23.34469 -112.62613
