# Hz S  dB   R 50
10000000 -6.6693339 -80.140045 34.705212 146.88144 -36.566296 31.640121 -6.1692138 -106.64418
20000000 -9.335433 -108.44712 32.176571 152.18427 -34.239727 19.242077 -7.8872323 -138.07086
30000000 -10.519298 -124.66482 31.200499 156.49286 -34.723202 11.946809 -8.1214247 -153.05775
40000000 -11.029646 -133.77037 30.756279 158.81921 -35.03112 9.4688387 -8.367034 -161.39406
50000000 -11.265015 -138.65456 30.534138 160.09895 -34.978683 11.34549 -8.4545326 -166.51585
60000000 -11.283276 -142.09834 30.37912 160.51193 -34.396553 9.5061598 -8.4950037 -170.79118
70000000 -11.291768 -143.86725 30.283331 160.46881 -34.744816 5.7787404 -8.5729437 -173.96159
80000000 -11.169404 -145.02054 30.182655 160.09781 -34.837826 5.4847445 -8.6422243 -176.47896
90000000 -11.079884 -145.70551 30.110727 159.5233 -34.299236 6.0162292 -8.6848049 -178.63287
100000000 -10.990547 -146.3268 30.044394 158.8624 -34.461174 8.1195545 -8.7448997 179.257
110000000 -10.836052 -146.71359 29.975748 158.05219 -34.772461 7.9703321 -8.7891407 177.63972
120000000 -10.646568 -146.96959 29.909672 157.1572 -34.695774 8.2073002 -8.8502245 176.18765
130000000 -10.474334 -147.14603 29.838659 156.18454 -34.647358 7.7257004 -8.9163837 174.74379
140000000 -10.285197 -147.22437 29.772093 155.17555 -34.820156 8.7942896 -9.0035086 173.20284
150000000 -10.114076 -147.17122 29.700893 154.19115 -34.704865 7.9843631 -9.0688925 171.99295
160000000 -9.9524927 -147.02049 29.646013 153.13695 -34.615944 7.5540662 -9.1517801 170.89232
170000000 -9.7711191 -147.27531 29.569172 152.13029 -34.679276 8.4504719 -9.2044621 169.78264
180000000 -9.5438004 -147.31479 29.48947 151.00328 -34.582825 7.5840764 -9.2450829 168.61673
190000000 -9.3824606 -147.19659 29.429588 149.88773 -34.832249 8.9236021 -9.3072987 167.78027
200000000 -9.2303333 -147.58524 29.342012 148.91145 -34.977421 7.6388903 -9.4073668 166.64789
210000000 -9.0526905 -147.63438 29.266962 147.85411 -34.418255 8.868619 -9.5045633 165.68427
220000000 -8.8727121 -147.71194 29.190062 146.70847 -34.431305 10.761933 -9.6030035 164.91275
230000000 -8.702281 -147.95232 29.104799 145.72861 -34.59745 9.5689793 -9.6661005 164.02982
240000000 -8.5708704 -148.08484 29.021799 144.67647 -34.714508 11.723275 -9.7607508 163.30717
250000000 -8.4190168 -148.43471 28.929169 143.63486 -34.45845 11.639551 -9.8535194 162.45296
260000000 -8.2846375 -148.53233 28.855549 142.64795 -34.056618 13.505851 -9.9781742 161.53716
270000000 -8.1362324 -148.77672 28.764057 141.63194 -34.281952 14.214531 -10.060363 160.90421
280000000 -7.978261 -149.1288 28.674059 140.6163 -34.500893 13.079076 -10.163412 160.63438
290000000 -7.8585558 -149.43811 28.580889 139.60869 -34.73629 13.905283 -10.23493 159.85495
300000000 -7.7061458 -149.52554 28.490057 138.65308 -35.072147 16.134155 -10.330528 159.01097
310000000 -7.5683875 -149.92302 28.392996 137.66641 -35.113213 14.001576 -10.438501 158.55939
320000000 -7.4546542 -150.32545 28.302008 136.73872 -34.714611 14.255973 -10.526456 157.64346
330000000 -7.3506117 -150.7646 28.21315 135.84851 -34.595398 15.220824 -10.622401 157.41866
340000000 -7.2276797 -151.02104 28.116026 134.9386 -34.600853 16.530807 -10.720636 156.8674
350000000 -7.131937 -151.44168 28.015638 134.01125 -34.321285 16.784653 -10.842178 156.53909
360000000 -7.0048108 -151.69356 27.923969 133.11665 -34.510197 16.504889 -10.918718 155.81944
370000000 -6.9271374 -152.15326 27.816908 132.26311 -34.437649 16.153376 -11.041183 155.57495
380000000 -6.828476 -152.30478 27.735352 131.38083 -34.556816 18.627874 -11.16736 155.01823
390000000 -6.7343311 -152.69403 27.639275 130.52902 -34.413906 17.148039 -11.243535 154.68019
400000000 -6.6351004 -153.10518 27.543344 129.72278 -34.16309 19.560743 -11.354808 154.56531
410000000 -6.5659728 -153.56711 27.437031 128.88071 -34.346878 16.899715 -11.460034 153.82718
420000000 -6.4775515 -153.88052 27.341795 128.14247 -34.867695 18.8438 -11.566833 153.70157
430000000 -6.4156809 -154.31467 27.241581 127.39693 -34.113647 17.970156 -11.639493 153.20036
440000000 -6.3255591 -154.66599 27.141315 126.53693 -34.484394 19.033697 -11.740371 152.92046
450000000 -6.2526431 -154.93404 27.056351 125.79535 -34.095451 21.362757 -11.907816 152.53174
460000000 -6.1794209 -155.31956 26.951479 125.0667 -34.450253 20.956673 -11.96445 152.36414
470000000 -6.1187997 -155.69215 26.856043 124.3023 -34.252571 21.552868 -12.072571 152.19165
480000000 -6.053092 -156.01982 26.753428 123.6166 -34.158726 20.947065 -12.205768 151.91354
490000000 -5.9748373 -156.39551 26.667231 122.86388 -34.129692 22.672832 -12.311375 151.48775
500000000 -5.966855 -156.66316 26.573599 122.18664 -34.259365 23.283285 -12.407727 151.30348
510000000 -5.8775034 -156.98259 26.46814 121.49139 -34.17733 24.222616 -12.48578 151.00581
520000000 -5.8369565 -157.33269 26.38303 120.88345 -34.298416 25.789022 -12.638435 151.02383
530000000 -5.756269 -157.67807 26.288849 120.11353 -34.194965 24.687584 -12.701417 150.65425
540000000 -5.718286 -158.05644 26.189245 119.50101 -34.096828 24.677967 -12.800686 150.49442
550000000 -5.6789021 -158.42464 26.090483 118.86346 -34.196472 25.518766 -12.919137 150.3192
560000000 -5.6252685 -158.76772 25.995338 118.20277 -33.938259 27.269251 -12.997444 150.15039
570000000 -5.5777335 -159.00031 25.912273 117.59991 -33.699333 28.384609 -13.102603 150.17506
580000000 -5.5340385 -159.28848 25.816256 116.97415 -34.029922 25.585482 -13.231575 149.9245
590000000 -5.4740977 -159.69814 25.731583 116.37873 -33.982735 27.289309 -13.280028 149.649
600000000 -5.4389939 -159.92549 25.646646 115.744 -33.673012 26.549049 -13.378571 149.61794
610000000 -5.410253 -160.43991 25.536318 115.17841 -33.721191 27.09794 -13.520857 149.74152
620000000 -5.3841205 -160.66263 25.449896 114.66087 -33.668583 28.670052 -13.632827 149.68292
630000000 -5.3338389 -161.01146 25.361591 113.997 -33.685135 28.507532 -13.719364 149.47949
640000000 -5.3069777 -161.40625 25.252893 113.48462 -33.718941 30.654245 -13.85885 149.77533
650000000 -5.2639408 -161.62257 25.181973 112.94863 -33.69529 28.77166 -13.957963 149.71786
660000000 -5.2395973 -161.96097 25.090723 112.42945 -33.457912 30.437782 -14.020198 149.83124
670000000 -5.2120199 -162.23004 25.006567 111.85072 -33.419746 30.358765 -14.117727 149.74541
680000000 -5.1811819 -162.51038 24.925156 111.30338 -33.299911 31.304119 -14.189237 149.80925
690000000 -5.1507673 -162.85854 24.834679 110.83437 -33.394169 30.431936 -14.302939 149.84084
700000000 -5.132421 -163.14638 24.753675 110.30455 -33.323635 31.396225 -14.385574 149.89207
710000000 -5.0975747 -163.45428 24.652426 109.73361 -33.176197 30.908297 -14.492777 149.92883
720000000 -5.0731134 -163.60457 24.588339 109.22575 -33.125599 31.796837 -14.56601 149.53818
730000000 -5.0584702 -163.99669 24.498812 108.74517 -33.185055 32.137558 -14.660118 149.67433
740000000 -5.0130892 -164.20299 24.410719 108.22246 -32.856899 31.875345 -14.746361 149.71504
750000000 -5.0077682 -164.51822 24.325905 107.78235 -32.912212 32.157387 -14.834973 149.94371
760000000 -4.9725904 -164.75793 24.247168 107.29482 -32.799179 32.754868 -14.901261 149.82347
770000000 -4.9462399 -165.01378 24.169706 106.81335 -32.884899 34.094788 -15.03195 149.81084
780000000 -4.9402914 -165.34741 24.082104 106.32543 -32.76873 34.48143 -15.128451 150.04861
790000000 -4.9185424 -165.58467 24.002571 105.90103 -32.649628 34.358059 -15.182582 150.00632
800000000 -4.9005399 -165.84317 23.915024 105.43208 -32.704407 34.249107 -15.299944 150.32333
810000000 -4.8794837 -166.07642 23.842716 104.98725 -32.613091 34.688236 -15.366002 150.49525
820000000 -4.8547306 -166.3634 23.764944 104.53636 -32.640095 35.236862 -15.462804 150.54297
830000000 -4.8529892 -166.74409 23.680218 104.09349 -32.386963 34.322334 -15.525392 150.494
840000000 -4.8311825 -166.91322 23.602468 103.66116 -32.347111 34.808956 -15.575173 150.73659
850000000 -4.8196917 -167.20763 23.526983 103.2141 -32.131786 35.7612 -15.692251 150.88254
860000000 -4.8099241 -167.41449 23.447746 102.78576 -32.176197 35.891796 -15.793979 150.94212
870000000 -4.7770395 -167.56403 23.378437 102.38004 -32.349049 36.860008 -15.868591 151.14311
880000000 -4.7783523 -167.87981 23.292704 101.93979 -32.447678 35.750908 -15.959267 151.23512
890000000 -4.7530217 -168.16579 23.225342 101.53626 -32.290531 36.472614 -16.002388 151.52333
900000000 -4.7469778 -168.30157 23.144039 101.20271 -31.943712 37.238461 -16.099794 151.89684
910000000 -4.7269797 -168.51347 23.06913 100.7705 -32.032436 36.65847 -16.184454 151.81465
920000000 -4.7116208 -168.73772 22.998903 100.39668 -31.996355 36.585007 -16.264536 151.83493
930000000 -4.7092476 -168.89107 22.92897 100.01953 -31.846674 37.182587 -16.371485 151.98372
940000000 -4.6923213 -169.20494 22.856848 99.6119 -31.984404 37.262604 -16.423359 152.15961
950000000 -4.6743641 -169.43724 22.776073 99.170074 -31.741661 37.828751 -16.551207 152.35925
960000000 -4.6745911 -169.64977 22.717205 98.777924 -31.592505 37.584564 -16.600191 153.00119
970000000 -4.6579185 -169.92395 22.638332 98.41861 -31.624695 38.520203 -16.694946 153.21521
980000000 -4.6507149 -170.20673 22.573236 98.05484 -31.619036 38.808662 -16.746469 153.15242
990000000 -4.6453242 -170.4847 22.49247 97.633911 -31.428337 38.477299 -16.768524 153.36253
1000000000 -4.6233535 -172.45996 22.436127 97.243622 -31.560244 38.072575 -16.910574 155.35861
1010000000 -4.6322823 -170.86578 22.369486 96.871437 -31.560932 38.494015 -16.892458 153.67418
1020000000 -4.6098647 -171.07097 22.287327 96.472565 -31.249081 37.940884 -17.052513 154.31209
1030000000 -4.5970154 -171.26474 22.223106 96.114685 -31.288685 39.147564 -17.135426 154.58217
1040000000 -4.5909901 -171.55713 22.161747 95.765495 -31.401344 38.751945 -17.166 154.66107
1050000000 -4.5888586 -171.75362 22.089376 95.420815 -31.312241 39.728893 -17.240976 154.89366
1060000000 -4.5886865 -171.98592 22.02066 95.120483 -31.014929 38.433811 -17.337317 155.14873
1070000000 -4.5777688 -172.1002 21.953356 94.72464 -31.141729 40.067509 -17.426346 155.6817
1080000000 -4.5770745 -172.32082 21.88353 94.375961 -31.186863 40.260426 -17.488649 155.37656
1090000000 -4.5642295 -172.53166 21.815016 94.033119 -30.932775 39.922123 -17.574524 156.10213
1100000000 -4.5514569 -172.67125 21.757643 93.672714 -30.91453 39.864079 -17.637438 155.98709
1110000000 -4.5518298 -172.89101 21.6987 93.334328 -30.877716 40.859547 -17.695442 156.37425
1120000000 -4.5477109 -173.13406 21.631075 93.063087 -30.868931 40.565216 -17.761658 156.67903
1130000000 -4.5456557 -173.30893 21.564184 92.676491 -30.782068 41.191235 -17.866938 156.8923
1140000000 -4.5455008 -173.59332 21.506039 92.40741 -30.716707 40.214703 -17.868446 157.2487
1150000000 -4.5329099 -173.74539 21.438723 92.017616 -30.600269 40.755352 -17.995808 157.91028
1160000000 -4.5316606 -173.93349 21.385468 91.657089 -30.439537 40.680889 -18.062429 157.74359
1170000000 -4.5227251 -174.16731 21.318142 91.351387 -30.38353 40.954834 -18.14312 158.11827
1180000000 -4.5172806 -174.31393 21.257063 91.002647 -30.438103 40.407753 -18.167828 158.47885
1190000000 -4.5217366 -174.57274 21.193459 90.724899 -30.354734 41.164642 -18.259653 158.87483
1200000000 -4.5068455 -174.73531 21.130577 90.339691 -30.414824 41.144817 -18.314617 159.15596
1210000000 -4.5016389 -174.94208 21.074896 90.079536 -30.349518 41.184269 -18.392532 159.70976
1220000000 -4.5054045 -175.1162 21.011992 89.740913 -30.25349 41.343357 -18.386297 160.06789
1230000000 -4.5012612 -175.29259 20.955118 89.424553 -30.366976 40.88673 -18.565542 160.36298
1240000000 -4.4989805 -175.38324 20.896503 89.153809 -30.140495 41.449562 -18.544264 160.39491
1250000000 -4.4930987 -175.69843 20.841078 88.815559 -30.074251 41.756981 -18.562346 160.66328
1260000000 -4.4857073 -175.87558 20.783937 88.481743 -30.075052 41.577114 -18.670994 161.10936
1270000000 -4.4813232 -176.07309 20.721298 88.173088 -30.167553 42.460491 -18.616127 161.53014
1280000000 -4.4859371 -176.25244 20.66316 87.869705 -29.967987 41.254749 -18.780857 162.25134
1290000000 -4.4735694 -176.47307 20.605757 87.559608 -29.826515 41.486008 -18.749821 162.2314
1300000000 -4.4698462 -176.63405 20.548637 87.281876 -29.812126 41.865963 -18.794527 162.58052
1310000000 -4.4682722 -176.84886 20.494171 86.950104 -29.708822 41.792194 -18.895172 162.82713
1320000000 -4.4645104 -177.06154 20.439682 86.630203 -29.696543 41.717278 -18.993618 163.09116
1330000000 -4.45859 -177.25101 20.384975 86.367462 -29.749456 41.743061 -18.973841 163.36942
1340000000 -4.4600186 -177.43188 20.328222 86.082016 -29.750349 42.303165 -18.992775 164.00021
1350000000 -4.4649544 -177.634 20.274509 85.78125 -29.636988 42.291573 -19.071819 164.2135
1360000000 -4.4599915 -177.74303 20.226076 85.499268 -29.380508 43.072952 -19.197111 164.38196
1370000000 -4.4542732 -177.90294 20.162146 85.219757 -29.571611 41.611851 -19.201529 164.07086
1380000000 -4.4451098 -178.12206 20.115007 84.894951 -29.424776 41.927326 -19.268969 165.21263
1390000000 -4.4372716 -178.3454 20.067579 84.588692 -29.391619 42.644249 -19.269461 164.93182
1400000000 -4.4599366 -178.5239 20.002718 84.283852 -29.272755 42.332012 -19.296463 165.58577
1410000000 -4.4366174 -178.75876 19.955755 83.978493 -29.371859 43.336075 -19.343555 165.85402
1420000000 -4.4527521 -178.99797 19.895298 83.752151 -29.331133 41.992584 -19.395103 166.04648
1430000000 -4.4454207 -179.10658 19.842247 83.435165 -29.185047 42.307953 -19.440065 166.78835
1440000000 -4.4375725 -179.31602 19.80085 83.140404 -29.171083 43.054764 -19.45896 166.90685
1450000000 -4.4413919 -179.49031 19.747772 82.873657 -29.177118 41.611214 -19.438169 167.29575
1460000000 -4.434567 -179.63986 19.694223 82.535011 -29.007906 42.595562 -19.514349 167.51976
1470000000 -4.4328341 -179.89636 19.642282 82.300537 -29.018528 42.494438 -19.564997 167.97797
1480000000 -4.4374189 179.9312 19.587622 82.038513 -29.004503 43.007015 -19.633965 168.39217
1490000000 -4.4333282 179.77049 19.537931 81.756958 -28.97497 42.630604 -19.625744 168.38483
1500000000 -4.4411788 179.55681 19.482973 81.476196 -28.818949 42.441719 -19.572918 168.85031
1510000000 -4.4455996 179.41672 19.432281 81.176781 -28.741688 43.510494 -19.65801 168.97998
1520000000 -4.4329066 179.28619 19.389204 80.93792 -28.785982 42.734169 -19.708241 169.52316
1530000000 -4.4414501 179.07947 19.334101 80.634476 -28.683558 42.034721 -19.704418 169.59068
1540000000 -4.4344282 178.86794 19.290977 80.361389 -28.66621 41.860111 -19.779806 170.245
1550000000 -4.4251442 178.63251 19.241838 80.038765 -28.621235 42.838829 -19.76598 170.56204
1560000000 -4.4378805 178.49939 19.197159 79.80899 -28.64456 42.189674 -19.754801 170.49129
1570000000 -4.427702 178.37292 19.143372 79.540726 -28.52121 41.924816 -19.786549 171.4259
1580000000 -4.448236 178.13225 19.099428 79.258797 -28.567934 43.225224 -19.847954 171.6338
1590000000 -4.4419394 178.03871 19.047447 79.022469 -28.531956 42.764122 -19.816885 171.75392
1600000000 -4.4306798 177.77554 18.998827 78.75383 -28.420242 42.93808 -19.926193 172.28021
1610000000 -4.4215751 177.67532 18.95409 78.464211 -28.200457 42.308899 -19.903776 172.46431
1620000000 -4.4206467 177.47258 18.91544 78.227867 -28.257423 43.09193 -19.857286 172.90532
1630000000 -4.4306626 177.28894 18.867964 77.927872 -28.269915 43.051094 -19.88019 173.2683
1640000000 -4.4292836 177.01724 18.823648 77.684746 -28.226158 42.577942 -19.888138 173.65462
1650000000 -4.4358225 176.89041 18.77466 77.424522 -28.128538 42.884933 -19.937887 173.91426
1660000000 -4.4425225 176.76181 18.727177 77.149803 -28.120834 43.106796 -19.877422 174.10608
1670000000 -4.4307804 176.60507 18.688602 76.928055 -28.083261 41.959221 -19.915148 174.87244
1680000000 -4.4231648 176.43199 18.647633 76.599083 -27.948357 42.669174 -19.948565 175.20212
1690000000 -4.412148 176.18358 18.598791 76.402473 -27.961576 42.606838 -19.922041 175.30119
1700000000 -4.4199662 175.99435 18.555773 76.064812 -27.86977 43.064049 -19.916821 175.83684
1710000000 -4.4203286 175.74751 18.507843 75.804878 -27.938013 42.898632 -19.997387 175.42792
1720000000 -4.433321 175.64409 18.459835 75.560875 -27.831284 42.393234 -19.92617 175.78252
1730000000 -4.4346852 175.44835 18.421545 75.30587 -27.789385 42.944149 -19.985584 176.28111
1740000000 -4.4389644 175.25224 18.375229 75.060036 -27.744234 43.386513 -20.005867 176.6967
1750000000 -4.4320188 175.05878 18.330008 74.714119 -27.67635 42.670486 -20.027304 177.06113
1760000000 -4.4221606 174.84808 18.289658 74.542747 -27.815342 42.513538 -20.012678 176.978
1770000000 -4.4276414 174.64902 18.240244 74.261925 -27.71133 42.177212 -19.936413 177.52486
1780000000 -4.4326792 174.4902 18.198332 73.988831 -27.524508 42.590595 -19.964005 177.94556
1790000000 -4.4405055 174.23088 18.15386 73.750206 -27.600006 41.784389 -19.920792 178.04034
1800000000 -4.4360185 174.15881 18.115582 73.519516 -27.468359 42.356396 -20.05658 178.55589
1810000000 -4.4303541 173.94438 18.072437 73.268669 -27.608723 42.397579 -19.980223 179.08585
1820000000 -4.4376268 173.76556 18.028757 72.995964 -27.558857 43.013672 -19.973833 178.95796
1830000000 -4.4322672 173.57849 17.991724 72.753654 -27.432312 42.259552 -19.967028 179.78584
1840000000 -4.4200797 173.43562 17.949459 72.482056 -27.396544 42.492207 -19.983311 179.74167
1850000000 -4.4301596 173.19289 17.906139 72.257195 -27.357506 41.934357 -19.869516 -179.71251
1860000000 -4.4332938 172.95374 17.860582 71.886711 -27.256107 41.788647 -19.858496 -179.72649
1870000000 -4.4396348 172.86729 17.821238 71.698547 -27.259312 42.421608 -19.870481 -179.80577
1880000000 -4.4395986 172.72745 17.771164 71.44957 -27.213503 41.621452 -19.842035 -179.18784
1890000000 -4.4439163 172.53596 17.742697 71.196243 -27.159269 42.65107 -19.840511 -179.22949
1900000000 -4.4360495 172.29616 17.694338 70.982246 -27.131824 41.476112 -19.852652 -178.0242
1910000000 -4.4368577 172.11168 17.656 70.667412 -27.076017 42.295155 -19.787016 -178.50725
1920000000 -4.4207664 171.88469 17.614538 70.384544 -27.069462 41.651405 -19.779318 -177.76375
1930000000 -4.4425302 171.67755 17.575838 70.135681 -27.014822 41.50816 -19.741133 -177.75
1940000000 -4.4478559 171.5352 17.530558 69.913925 -27.045486 42.012825 -19.790447 -177.68819
1950000000 -4.4448614 171.42264 17.493206 69.701767 -26.984167 41.721104 -19.783539 -177.02481
1960000000 -4.4459977 171.21593 17.455978 69.468796 -26.901163 41.944035 -19.803797 -177.16827
1970000000 -4.4467831 171.07443 17.414043 69.184868 -26.919786 41.500694 -19.776373 -176.58937
1980000000 -4.4417882 170.95453 17.377569 68.932518 -26.72802 41.299229 -19.79784 -176.29358
1990000000 -4.4256592 170.65456 17.333641 68.706642 -26.796251 41.681377 -19.717274 -175.78014
2000000000 -4.4721785 170.52792 17.295851 68.427437 -26.84285 41.722969 -19.61499 -176.18936
2010000000 -4.4486179 170.24413 17.256172 68.206718 -26.773724 41.094582 -19.675991 -175.5587
2020000000 -4.4509497 170.13524 17.220119 67.970253 -26.653507 40.998779 -19.615187 -175.48239
2030000000 -4.4583335 169.97557 17.176128 67.69854 -26.658186 41.316418 -19.60832 -175.30493
2040000000 -4.45329 169.85461 17.143909 67.499344 -26.704197 41.08873 -19.590982 -175.02327
2050000000 -4.4470711 169.61855 17.11109 67.253143 -26.404398 41.198448 -19.577421 -174.45502
2060000000 -4.4442506 169.44287 17.069969 66.982346 -26.527861 40.917404 -19.563187 -174.05112
2070000000 -4.4367151 169.17023 17.034992 66.680435 -26.534517 41.330158 -19.48708 -174.10222
2080000000 -4.4296255 169.01018 16.999399 66.47422 -26.488619 41.019691 -19.395264 -173.8997
2090000000 -4.4486952 168.77045 16.951078 66.280716 -26.521082 40.566658 -19.377781 -173.69505
2100000000 -4.4487481 168.61485 16.920252 65.983467 -26.376513 40.401379 -19.465954 -173.59438
2110000000 -4.4314556 168.43765 16.898165 65.764175 -26.343376 40.60918 -19.432386 -173.64305
2120000000 -4.4396834 168.23811 16.847078 65.518364 -26.42206 39.960354 -19.400997 -173.08667
2130000000 -4.4322567 168.06721 16.818363 65.23349 -26.192854 39.890137 -19.293758 -173.08514
