# Hz S  dB   R 50
10000000 -6.3214636 -71.438622 34.341614 148.11232 -33.384033 27.495895 -6.5623255 -92.773956
20000000 -9.5727596 -102.64484 31.914999 152.98981 -33.983875 23.010632 -8.5158215 -131.6498
30000000 -10.944296 -118.84084 30.948984 157.05754 -34.275589 13.567122 -9.1129522 -147.3465
40000000 -11.493444 -128.18112 30.511938 159.27159 -34.026707 6.8086829 -9.3257847 -156.6506
50000000 -11.8905 -133.32146 30.288441 160.48863 -34.093452 11.260863 -9.5424051 -163.0538
60000000 -11.938197 -137.08253 30.133146 160.86818 -33.891182 8.4558506 -9.6443224 -168.16223
70000000 -12.005039 -139.15738 30.037886 160.80821 -33.581444 9.1378412 -9.7197819 -171.53703
80000000 -11.888007 -140.48808 29.939953 160.43474 -34.052448 9.0418816 -9.8193045 -174.47702
90000000 -11.734586 -141.10669 29.869493 159.85506 -33.764328 7.8934388 -9.8729277 -176.98994
100000000 -11.669996 -141.63403 29.802898 159.20119 -33.866692 8.2326078 -9.9377689 -179.18997
110000000 -11.484424 -142.27466 29.736362 158.38483 -34.102695 5.3998733 -9.961503 178.88649
120000000 -11.262152 -142.45186 29.671738 157.49228 -33.759132 6.53158 -10.046649 177.36668
130000000 -11.069483 -142.63474 29.603821 156.52527 -34.148125 5.6296301 -10.11913 175.50259
140000000 -10.876075 -142.73929 29.537342 155.53398 -33.931591 5.4492216 -10.213198 174.07709
150000000 -10.664172 -142.75296 29.469501 154.54413 -33.858494 7.594625 -10.303816 172.69661
160000000 -10.479757 -142.72244 29.415409 153.5041 -34.088921 7.3511868 -10.385407 171.36862
170000000 -10.285186 -143.05278 29.341394 152.50601 -33.9944 6.9208794 -10.437665 170.20151
180000000 -10.054552 -143.20634 29.263044 151.39413 -33.873047 5.892704 -10.462967 168.91093
190000000 -9.85991 -143.18645 29.204962 150.27684 -34.219307 7.4484606 -10.536155 167.9601
200000000 -9.6831503 -143.46431 29.119625 149.29588 -34.080017 8.4946432 -10.631543 166.71939
210000000 -9.47013 -143.6976 29.04859 148.25845 -33.985458 7.9198146 -10.751223 165.58997
220000000 -9.2749853 -143.69734 28.972322 147.13519 -34.135948 8.3084736 -10.842553 164.63559
230000000 -9.0913839 -144.11047 28.890251 146.16011 -34.156223 8.4186649 -10.942676 163.74049
240000000 -8.9423552 -144.32428 28.811157 145.0869 -33.995079 9.7005167 -11.046195 163.04579
250000000 -8.7961006 -144.55374 28.721977 144.06371 -34.180531 8.6867914 -11.129393 162.07933
260000000 -8.6156769 -144.82654 28.649252 143.07048 -33.735977 10.264715 -11.24187 161.13144
270000000 -8.475853 -145.15749 28.558022 142.04729 -33.92104 10.419652 -11.327149 160.40005
280000000 -8.2841778 -145.54594 28.471302 141.05638 -34.488495 11.170139 -11.436967 159.99146
290000000 -8.1589317 -145.80406 28.379187 140.07094 -34.028107 10.763116 -11.530252 159.24396
300000000 -7.9596381 -146.21968 28.292267 139.09351 -33.639671 13.85464 -11.614056 158.48541
310000000 -7.8634257 -146.57793 28.198273 138.09413 -33.8937 11.707349 -11.786158 157.77145
320000000 -7.710638 -146.97156 28.11248 137.15337 -33.788963 11.393705 -11.849155 156.61165
330000000 -7.6267362 -147.48009 28.01668 136.29329 -34.019299 12.705626 -11.965044 156.23981
340000000 -7.5106134 -147.8013 27.923771 135.37064 -34.031055 14.547972 -12.03011 155.82616
350000000 -7.3629036 -148.15665 27.829565 134.47485 -33.936977 12.548939 -12.181111 155.40665
360000000 -7.2572417 -148.34251 27.741558 133.56546 -33.851273 13.464074 -12.291228 154.72903
370000000 -7.1684885 -149.05176 27.637873 132.71732 -34.069374 16.899157 -12.397223 154.25816
380000000 -7.0800562 -149.274 27.556288 131.82211 -34.273548 14.982676 -12.515182 153.55031
390000000 -6.958715 -149.67006 27.45994 130.97192 -34.040028 15.595277 -12.651478 153.38148
400000000 -6.8760815 -150.01782 27.365908 130.1481 -34.200874 15.902869 -12.734551 152.85428
410000000 -6.7564144 -150.64473 27.266129 129.3087 -33.743645 16.862556 -12.854338 152.44112
420000000 -6.6766953 -150.99147 27.171377 128.56406 -33.901531 16.717276 -12.957472 152.13345
430000000 -6.6108356 -151.49867 27.068962 127.80286 -33.662067 16.614176 -13.076676 151.7399
440000000 -6.5096416 -151.83516 26.977333 126.99676 -34.130917 17.316767 -13.197625 151.42592
450000000 -6.4351654 -152.17322 26.887253 126.19657 -33.849529 19.120361 -13.356762 150.83913
460000000 -6.3626137 -152.61867 26.783764 125.48631 -33.49213 17.087324 -13.472754 150.7628
470000000 -6.2954731 -152.9763 26.696218 124.74657 -33.853493 18.580204 -13.593416 150.47931
480000000 -6.225184 -153.30403 26.595776 124.01642 -33.661087 17.489168 -13.709408 150.16461
490000000 -6.1671104 -153.73738 26.502483 123.28397 -33.656677 20.410809 -13.83974 149.71448
500000000 -6.124794 -153.98578 26.412237 122.58021 -33.699493 20.128969 -13.906174 149.47858
510000000 -6.0075092 -154.42851 26.313971 121.90851 -33.78664 17.678127 -14.023149 149.26218
520000000 -5.9813433 -154.82674 26.230999 121.27406 -33.786102 20.787048 -14.212514 149.10869
530000000 -5.9079862 -155.22487 26.134272 120.50096 -33.545029 20.589664 -14.281205 148.73683
540000000 -5.8696952 -155.59656 26.038017 119.89016 -33.681545 21.734329 -14.447108 148.40958
550000000 -5.8249822 -155.93422 25.94046 119.25419 -33.294659 21.363182 -14.491004 148.20181
560000000 -5.7737026 -156.36002 25.846146 118.55739 -33.651424 24.275085 -14.621236 148.05519
570000000 -5.716928 -156.69228 25.765053 117.96879 -33.52803 21.023289 -14.740387 147.99998
580000000 -5.6691294 -156.93817 25.668064 117.30904 -33.451462 21.721439 -14.853246 147.95644
590000000 -5.6156645 -157.31908 25.585056 116.72091 -33.53923 23.387817 -15.019773 147.68391
600000000 -5.578227 -157.6852 25.499369 116.08862 -33.506683 23.330778 -15.125873 147.55011
610000000 -5.5318561 -158.06776 25.393785 115.5222 -33.315453 25.216343 -15.208447 147.60378
620000000 -5.4961114 -158.48883 25.3092 114.97626 -33.396965 25.952751 -15.38716 147.64618
630000000 -5.4514899 -158.72644 25.220518 114.32623 -33.297848 25.747629 -15.473077 147.56657
640000000 -5.4153261 -159.1478 25.114618 113.81425 -33.015072 26.039959 -15.678567 147.44774
650000000 -5.3776388 -159.37999 25.040001 113.25761 -33.139973 25.901815 -15.737952 147.5358
660000000 -5.3559132 -159.77805 24.952562 112.74764 -33.20945 26.042809 -15.84016 147.63289
670000000 -5.3125896 -160.06424 24.867445 112.17651 -33.160995 25.97736 -15.961405 147.78757
680000000 -5.289804 -160.46365 24.786226 111.6125 -32.821964 26.730516 -16.02018 147.70615
690000000 -5.2636242 -160.76373 24.699911 111.12868 -33.044109 28.271189 -16.213888 147.78238
700000000 -5.231709 -160.99611 24.614225 110.58952 -33.030342 27.13545 -16.27421 147.84576
710000000 -5.1951389 -161.29866 24.524746 110.01131 -33.000416 28.163712 -16.437901 147.80478
720000000 -5.1727347 -161.61432 24.456882 109.50122 -32.638149 28.654369 -16.506725 147.22923
730000000 -5.1494074 -161.83424 24.368658 109.01357 -32.738396 29.042994 -16.661535 147.80521
740000000 -5.1244226 -162.16393 24.278749 108.48087 -32.69014 27.899197 -16.76894 147.67595
750000000 -5.0959311 -162.51176 24.195726 108.06557 -32.682159 29.177637 -16.824287 147.92325
760000000 -5.0617023 -162.82991 24.12022 107.53148 -32.686287 29.281332 -16.919481 147.93062
770000000 -5.0378499 -163.09575 24.038904 107.03691 -32.779644 29.50655 -17.108685 148.13541
780000000 -5.03474 -163.3636 23.954399 106.57742 -32.457497 30.689487 -17.198687 148.27919
790000000 -5.0043783 -163.66937 23.875435 106.12602 -32.43565 32.908203 -17.25355 148.23615
800000000 -4.9932642 -163.87842 23.786966 105.66463 -32.481705 30.831526 -17.395636 148.34912
810000000 -4.970274 -164.19203 23.717571 105.17738 -32.535919 30.968136 -17.521269 148.6545
820000000 -4.943459 -164.48367 23.63991 104.73743 -32.330246 31.536541 -17.616398 148.76274
830000000 -4.9227276 -164.7417 23.558174 104.30315 -32.22884 32.428886 -17.686811 148.97458
840000000 -4.9198513 -165.05103 23.477367 103.86388 -32.14682 31.361746 -17.814484 149.11826
850000000 -4.9110332 -165.26266 23.404114 103.42981 -32.166775 32.920925 -17.939629 149.54201
860000000 -4.8772235 -165.56448 23.327225 102.97029 -32.304962 32.434086 -18.002907 149.44315
870000000 -4.8563185 -165.80661 23.257555 102.54627 -32.176605 32.904099 -18.190046 149.84485
880000000 -4.846704 -166.02869 23.17131 102.14356 -32.077393 32.905449 -18.237738 149.97192
890000000 -4.8276296 -166.27534 23.10187 101.72884 -32.074547 32.363827 -18.358267 149.98158
900000000 -4.8220243 -166.57219 23.02125 101.35997 -31.904472 33.140259 -18.477743 150.61205
910000000 -4.7941132 -166.77489 22.947926 100.9324 -31.956827 33.24976 -18.589876 150.95627
920000000 -4.7770801 -166.92755 22.882856 100.56366 -31.892147 33.427074 -18.674826 151.20798
930000000 -4.7791362 -167.15654 22.811672 100.18149 -31.813118 34.444981 -18.780115 151.07668
940000000 -4.7598348 -167.44525 22.739889 99.75412 -31.695581 34.426098 -18.901205 151.65746
950000000 -4.7508612 -167.65857 22.657331 99.297684 -31.63995 34.864132 -19.024179 151.74109
960000000 -4.7397165 -167.98526 22.602091 98.896431 -31.576666 33.876255 -19.091528 152.20456
970000000 -4.723361 -168.2007 22.519127 98.565628 -31.586224 35.006138 -19.205231 152.91626
980000000 -4.7133274 -168.45949 22.455595 98.129036 -31.570217 34.493141 -19.31015 152.91957
990000000 -4.6997738 -168.75781 22.380486 97.74279 -31.578136 35.25312 -19.358576 153.02582
1000000000 -4.6840267 -170.77205 22.317719 97.380226 -31.548632 34.915131 -19.526772 155.44757
1010000000 -4.6834154 -169.12773 22.256128 96.964958 -31.41214 34.802662 -19.512671 153.97591
1020000000 -4.667675 -169.4469 22.171843 96.579857 -31.3554 34.510609 -19.66316 154.31824
1030000000 -4.6513419 -169.63879 22.107943 96.205833 -31.16485 35.047752 -19.826242 154.97867
1040000000 -4.6513214 -169.87938 22.046295 95.858185 -31.258192 36.22113 -19.854429 155.35901
1050000000 -4.6474586 -170.05107 21.976959 95.503296 -30.978567 37.110847 -19.925091 155.87004
1060000000 -4.6471114 -170.32048 21.90419 95.200668 -31.243641 35.823383 -20.100536 155.99663
1070000000 -4.6384025 -170.45415 21.841345 94.795937 -31.230196 36.154438 -20.216808 156.73019
1080000000 -4.6361732 -170.69545 21.770895 94.467873 -31.028118 35.331192 -20.275637 156.82819
1090000000 -4.6220932 -170.93468 21.702152 94.101746 -30.875847 37.271534 -20.386808 157.44791
1100000000 -4.6135058 -171.07693 21.645916 93.741501 -31.109287 36.754356 -20.464228 157.8391
1110000000 -4.603024 -171.30844 21.583612 93.414345 -30.805929 35.832661 -20.593838 158.43613
1120000000 -4.6022067 -171.52036 21.521856 93.129944 -30.82276 36.966927 -20.690203 158.86748
1130000000 -4.5915928 -171.78993 21.45484 92.727043 -30.724981 38.541256 -20.78393 159.50421
1140000000 -4.6004224 -172.0179 21.390759 92.46077 -30.667702 36.964115 -20.819204 159.89362
1150000000 -4.5860348 -172.25847 21.32267 92.030479 -30.550314 37.79229 -20.959948 160.58101
1160000000 -4.5826726 -172.39885 21.270452 91.690422 -30.653492 37.827282 -21.062748 160.71283
1170000000 -4.5692854 -172.54231 21.208727 91.38047 -30.71183 37.100941 -21.087183 161.36942
1180000000 -4.5625453 -172.80969 21.147051 91.039734 -30.495554 38.083218 -21.139923 161.9882
1190000000 -4.5607548 -173.02597 21.083256 90.764435 -30.404966 38.244537 -21.355352 162.36208
1200000000 -4.5573993 -173.29103 21.017797 90.356438 -30.417589 38.10553 -21.335821 163.04333
1210000000 -4.5588017 -173.43213 20.963114 90.083817 -30.471355 37.781227 -21.445171 163.86708
1220000000 -4.5504131 -173.6441 20.899178 89.750114 -30.431446 37.089207 -21.389757 164.24684
1230000000 -4.5339298 -173.75676 20.846039 89.417862 -30.194288 38.172321 -21.644573 165.1825
1240000000 -4.5395007 -173.90358 20.787668 89.132874 -30.292257 38.993599 -21.627876 165.12106
1250000000 -4.5315285 -174.16371 20.731314 88.832146 -30.150185 39.40588 -21.675123 166.0807
1260000000 -4.5313039 -174.36134 20.672785 88.455879 -30.09243 38.785007 -21.815639 166.02711
1270000000 -4.5283017 -174.59776 20.610758 88.151245 -30.159264 38.757214 -21.751715 167.311
1280000000 -4.5298162 -174.80244 20.552378 87.848145 -29.928091 38.57729 -21.885506 168.16496
1290000000 -4.5056901 -175.05412 20.493938 87.51207 -29.952055 39.313118 -21.930355 168.60091
1300000000 -4.5019183 -175.1843 20.442289 87.244232 -29.804371 37.943707 -21.943733 168.7034
1310000000 -4.5117793 -175.37346 20.383595 86.915306 -29.839212 38.596897 -22.038666 169.68848
1320000000 -4.501018 -175.59334 20.329109 86.620178 -29.771614 39.162117 -22.129995 170.41618
1330000000 -4.5011425 -175.83351 20.276882 86.302368 -29.829517 39.578491 -22.145117 170.77423
1340000000 -4.4986186 -176.01462 20.217859 86.024994 -29.553995 39.357048 -22.246521 171.42824
1350000000 -4.502224 -176.23804 20.16473 85.724144 -29.700871 39.784901 -22.293993 171.68349
1360000000 -4.4952927 -176.41051 20.117355 85.44281 -29.724792 39.197323 -22.339355 172.3504
1370000000 -4.4889097 -176.50134 20.053543 85.12944 -29.469261 39.460064 -22.399935 172.57004
1380000000 -4.492475 -176.78239 20.002527 84.84626 -29.441467 39.196598 -22.478504 173.2469
1390000000 -4.4736056 -176.90451 19.958866 84.516571 -29.540775 40.484795 -22.421003 173.8597
1400000000 -4.4890218 -177.15312 19.895531 84.209511 -29.337505 38.627731 -22.47472 174.47318
1410000000 -4.4802423 -177.33504 19.84495 83.929283 -29.376236 40.328156 -22.553276 175.15977
1420000000 -4.4912076 -177.57268 19.787275 83.668037 -29.33448 39.111248 -22.54019 176.02776
1430000000 -4.4784622 -177.7525 19.73645 83.338821 -29.268871 40.271149 -22.58778 176.65802
1440000000 -4.4735723 -177.952 19.692661 83.067902 -29.226662 39.676571 -22.573971 177.1573
1450000000 -4.4712563 -178.06856 19.640106 82.797173 -29.24995 39.390518 -22.576742 177.49876
1460000000 -4.4670558 -178.28734 19.588217 82.441689 -29.07333 40.399887 -22.617836 178.74287
1470000000 -4.4641008 -178.42587 19.534964 82.208954 -29.027777 39.916077 -22.735781 178.89363
1480000000 -4.4618831 -178.69812 19.480616 81.91935 -28.955273 40.098335 -22.77109 179.70964
1490000000 -4.4598784 -178.86957 19.430387 81.63765 -29.034079 40.410717 -22.697714 -179.93393
1500000000 -4.4815717 -179.06847 19.37892 81.332382 -29.06826 39.793842 -22.714016 -179.8858
1510000000 -4.4739814 -179.22403 19.32548 81.059036 -28.910379 40.629021 -22.760195 -179.33493
1520000000 -4.4677706 -179.39517 19.280411 80.81176 -28.816973 40.950817 -22.807837 -178.16266
1530000000 -4.4694324 -179.61429 19.230867 80.534485 -28.859299 39.834675 -22.784811 -177.5777
1540000000 -4.4598861 -179.83179 19.1884 80.209877 -28.692303 40.053341 -22.769339 -176.96371
1550000000 -4.4641948 179.94774 19.135202 79.92498 -28.73855 40.594353 -22.865948 -176.53993
1560000000 -4.4616203 179.76894 19.093943 79.659195 -28.694506 40.626709 -22.762905 -176.5421
1570000000 -4.4618311 179.58736 19.036295 79.397621 -28.671482 40.580261 -22.764353 -175.15681
1580000000 -4.4685254 179.41133 18.993988 79.113167 -28.696632 40.398781 -22.813509 -174.48308
1590000000 -4.4626245 179.28963 18.942043 78.88623 -28.55752 40.031822 -22.79233 -174.54021
1600000000 -4.4655414 179.16489 18.890083 78.589676 -28.567223 40.218277 -22.899921 -173.31435
1610000000 -4.4526172 178.96182 18.850128 78.317215 -28.487228 40.353439 -22.813334 -173.47955
1620000000 -4.4461956 178.75964 18.811396 78.060806 -28.538902 40.081783 -22.780293 -172.39804
1630000000 -4.4556642 178.50621 18.764212 77.759529 -28.399063 39.534874 -22.689161 -171.96823
1640000000 -4.4639735 178.29749 18.717094 77.488426 -28.248018 40.40456 -22.725582 -171.88647
1650000000 -4.4618411 178.19508 18.66959 77.258987 -28.271009 39.972012 -22.716091 -171.25908
1660000000 -4.4497657 178.10619 18.62133 76.99144 -28.353479 39.733173 -22.659676 -171.12695
1670000000 -4.4596534 177.77773 18.583988 76.721695 -28.25342 40.546734 -22.702326 -169.94112
1680000000 -4.4443874 177.63374 18.544491 76.409927 -28.193081 40.8573 -22.697195 -169.5764
1690000000 -4.4461365 177.40254 18.495218 76.207695 -28.168928 40.336342 -22.573685 -169.34555
1700000000 -4.4516034 177.15704 18.448301 75.872246 -28.215534 39.58128 -22.645481 -168.30893
1710000000 -4.4572663 176.97617 18.400932 75.593651 -28.036459 40.166439 -22.667269 -168.57495
1720000000 -4.4469309 176.8586 18.356552 75.350098 -28.012266 39.512562 -22.540339 -167.9653
1730000000 -4.4650869 176.67091 18.312464 75.09845 -27.972193 41.182415 -22.569654 -167.50174
1740000000 -4.453444 176.44972 18.274776 74.830498 -27.905693 39.933601 -22.563463 -166.10056
1750000000 -4.4532442 176.25908 18.224045 74.510803 -27.9855 40.073551 -22.493027 -166.10643
1760000000 -4.4467535 176.11588 18.183712 74.337852 -27.925657 40.239201 -22.500378 -166.01151
1770000000 -4.4643316 175.91679 18.134256 74.04528 -27.80003 39.521587 -22.385859 -165.92226
1780000000 -4.4546099 175.7142 18.093248 73.762108 -27.744965 40.333626 -22.407249 -165.14403
1790000000 -4.456758 175.48859 18.045004 73.531578 -27.750277 40.597729 -22.340183 -164.77422
1800000000 -4.4578261 175.36774 18.010723 73.302567 -27.777315 40.262772 -22.383629 -163.74956
1810000000 -4.4654799 175.13435 17.967087 73.050888 -27.607443 40.059319 -22.39122 -164.10217
1820000000 -4.4544868 174.98956 17.923046 72.747116 -27.725012 39.690563 -22.33029 -163.33104
1830000000 -4.4467301 174.7847 17.887634 72.504677 -27.590456 40.083599 -22.238937 -162.73169
1840000000 -4.4402518 174.55531 17.845461 72.213203 -27.505796 39.94762 -22.126589 -162.15819
1850000000 -4.4551101 174.37602 17.801208 71.98098 -27.568388 39.832764 -22.159868 -162.57988
1860000000 -4.4358053 174.15514 17.761284 71.66465 -27.564497 40.215572 -22.113998 -161.33379
1870000000 -4.4524593 174.04153 17.718193 71.442719 -27.497396 40.676071 -21.983297 -161.55923
1880000000 -4.4645076 173.88179 17.668858 71.191299 -27.383966 39.289242 -22.022512 -161.51659
1890000000 -4.4593396 173.69267 17.63702 70.942184 -27.404232 39.657551 -22.015162 -161.28979
1900000000 -4.4524388 173.51117 17.590218 70.706535 -27.291416 38.734886 -21.953428 -160.06648
1910000000 -4.4565568 173.3007 17.554977 70.393379 -27.331795 39.817566 -21.850378 -160.4565
1920000000 -4.4440784 173.12065 17.511 70.128052 -27.280489 40.010864 -21.774452 -159.44995
1930000000 -4.456986 172.94415 17.471165 69.889076 -27.359463 39.716816 -21.772287 -160.14099
1940000000 -4.4585929 172.65054 17.427525 69.637123 -27.157469 39.550961 -21.78441 -159.32268
1950000000 -4.4683895 172.53706 17.387123 69.443077 -27.025915 39.686172 -21.71036 -158.91296
1960000000 -4.4682646 172.4231 17.351076 69.180611 -27.196791 39.966091 -21.653008 -158.78023
1970000000 -4.4624496 172.18538 17.310146 68.910309 -26.986431 39.663597 -21.674875 -158.10825
1980000000 -4.4545369 172.01743 17.273731 68.65551 -27.061865 39.693329 -21.579966 -158.16725
1990000000 -4.4663081 171.90652 17.23135 68.456078 -27.002203 39.515999 -21.499607 -157.62894
2000000000 -4.4782424 171.65773 17.193201 68.119888 -27.010395 39.156929 -21.429844 -157.98239
2010000000 -4.4572535 171.39685 17.152925 67.928307 -26.926739 39.099201 -21.419031 -157.45482
2020000000 -4.4727936 171.2529 17.113558 67.684059 -26.88065 39.293907 -21.392551 -156.99486
2030000000 -4.4614625 171.13995 17.073309 67.402908 -26.917355 39.727825 -21.329794 -156.67197
2040000000 -4.456254 171.01373 17.045359 67.185715 -26.985643 38.85891 -21.241783 -156.9633
2050000000 -4.4633245 170.7162 17.007452 66.910912 -26.883699 39.867619 -21.197506 -156.33289
2060000000 -4.4576745 170.62111 16.969095 66.665718 -26.775923 38.195705 -21.12291 -155.78003
2070000000 -4.4523358 170.25197 16.9328 66.372398 -26.783693 38.943897 -21.154829 -156.1004
2080000000 -4.4438863 170.1243 16.893124 66.170639 -26.736481 38.267872 -20.967497 -155.99852
2090000000 -4.4644756 169.90437 16.848835 65.95063 -26.677681 38.47253 -20.917984 -156.06042
2100000000 -4.4666715 169.75922 16.814278 65.658302 -26.592796 38.609833 -20.972181 -155.65302
2110000000 -4.4590554 169.57312 16.792946 65.438911 -26.637819 38.902554 -20.902348 -155.31119
2120000000 -4.4568338 169.34843 16.744162 65.188438 -26.586002 38.321545 -20.815531 -155.31824
2130000000 -4.4549599 169.12996 16.714558 64.896698 -26.45215 37.995384 -20.750027 -155.26831
