# Hz S  dB   R 50
10000000 -6.1200352 -78.012756 34.676132 150.4939 -34.439316 36.923981 -8.4635305 -104.20943
20000000 -8.4009295 -110.77502 32.35434 154.26942 -34.6889 21.140499 -8.5839968 -139.56726
30000000 -9.4128447 -127.19814 31.41334 157.8983 -33.995617 12.210329 -8.6927109 -154.04269
40000000 -9.9050503 -136.80522 30.990038 159.86963 -34.800232 12.339491 -8.842124 -163.08217
50000000 -10.103751 -143.10036 30.765612 160.94289 -34.968021 8.9931602 -8.8616419 -168.66492
60000000 -10.191154 -147.13673 30.61067 161.24841 -34.433887 5.444212 -8.8793573 -173.32744
70000000 -10.313622 -149.38489 30.517614 161.14995 -34.388515 5.466702 -8.9465065 -176.42534
80000000 -10.266324 -151.27374 30.417965 160.7444 -34.419643 8.21418 -9.0293818 -179.21629
90000000 -10.261077 -152.12497 30.352631 160.13019 -34.546043 7.9676762 -9.0487938 178.34894
100000000 -10.242174 -152.83949 30.288563 159.44739 -34.52005 6.7380996 -9.0833645 175.91914
110000000 -10.172421 -153.16451 30.219925 158.59904 -34.397442 6.7406864 -9.1449966 174.00262
120000000 -10.056614 -153.42007 30.15226 157.67728 -34.457787 7.3050904 -9.2002363 172.0912
130000000 -9.9566317 -153.61946 30.083437 156.69923 -34.512333 6.9268646 -9.2818775 170.35805
140000000 -9.8565435 -153.65414 30.014956 155.70227 -34.380531 8.1233826 -9.3813 168.66777
150000000 -9.7290144 -153.60339 29.947067 154.71707 -34.61562 7.5033274 -9.4585724 167.05652
160000000 -9.642828 -153.492 29.893244 153.68938 -34.534157 6.4736795 -9.5480232 165.61128
170000000 -9.5295382 -153.65974 29.81987 152.6907 -34.560947 7.5943408 -9.6113634 164.17947
180000000 -9.3779383 -153.4735 29.742426 151.57828 -34.790474 6.4836726 -9.6377821 162.57135
190000000 -9.257803 -153.33144 29.685181 150.47029 -34.645405 7.9026151 -9.7159977 161.61652
200000000 -9.1490803 -153.40512 29.602436 149.48692 -34.511684 7.9675508 -9.8157244 160.07657
210000000 -9.0056944 -153.1972 29.529749 148.41808 -34.565109 7.7023873 -9.9402084 158.76253
220000000 -8.8494749 -153.1144 29.454691 147.29977 -34.790886 7.1060805 -10.030145 157.54945
230000000 -8.7210741 -153.27167 29.374846 146.31551 -34.357422 7.949811 -10.138382 156.38847
240000000 -8.6153269 -153.26735 29.293951 145.26598 -34.556465 9.32162 -10.242255 155.33344
250000000 -8.5085058 -153.32254 29.203835 144.25063 -34.726028 8.6325312 -10.340889 154.06342
260000000 -8.3846493 -153.1971 29.136604 143.25089 -34.52803 12.018311 -10.439377 153.05249
270000000 -8.2694921 -153.45389 29.046211 142.22858 -34.673874 10.31107 -10.598963 151.93112
280000000 -8.1057358 -153.53131 28.96357 141.22227 -34.639038 10.699782 -10.709933 151.19467
290000000 -7.9993095 -153.59262 28.871962 140.22737 -34.370743 11.297533 -10.804171 150.26395
300000000 -7.8996959 -153.63725 28.785419 139.23875 -34.570431 11.647733 -10.901987 148.94887
310000000 -7.7615185 -153.9223 28.693087 138.25604 -34.655552 10.973176 -11.058335 148.0578
320000000 -7.6365519 -154.12691 28.607618 137.31494 -34.69281 13.293101 -11.114151 147.07805
330000000 -7.576633 -154.42938 28.515083 136.46413 -34.57822 10.144833 -11.283161 146.21629
340000000 -7.4635296 -154.50743 28.423204 135.53372 -34.949337 10.96554 -11.381529 145.10481
350000000 -7.3546615 -154.81311 28.32972 134.61118 -34.587029 13.405026 -11.54386 144.44606
360000000 -7.2499824 -155.02275 28.244982 133.6929 -34.835804 10.94769 -11.665559 143.67653
370000000 -7.1840196 -155.24545 28.1367 132.85132 -34.560627 15.735354 -11.773566 142.75798
380000000 -7.0996928 -155.28473 28.060518 131.95825 -34.964314 16.144602 -11.928966 141.68544
390000000 -6.9956546 -155.58173 27.967607 131.06242 -34.46653 14.863753 -12.069744 141.57185
400000000 -6.9188929 -155.89862 27.873592 130.25986 -34.517826 14.909555 -12.182642 140.65092
410000000 -6.820188 -156.32065 27.771042 129.40042 -34.51366 16.91522 -12.327715 139.81329
420000000 -6.764719 -156.5979 27.677404 128.65152 -34.502682 15.43165 -12.450827 139.0768
430000000 -6.6899686 -156.82591 27.579987 127.92007 -34.817661 16.049871 -12.585049 138.38202
440000000 -6.6243334 -157.13155 27.489576 127.05898 -34.571312 18.308437 -12.726547 137.81306
450000000 -6.5367579 -157.3649 27.400492 126.27637 -34.715179 18.057058 -12.869375 136.96503
460000000 -6.4757323 -157.61014 27.298771 125.53844 -34.53904 17.439287 -13.025289 136.44199
470000000 -6.4055877 -157.77896 27.209002 124.79537 -34.691242 19.275517 -13.124932 135.72719
480000000 -6.3377247 -158.10709 27.112204 124.03241 -34.488991 18.982422 -13.333175 135.06966
490000000 -6.2785177 -158.39574 27.019884 123.31415 -34.639626 18.910147 -13.461155 134.50447
500000000 -6.2571602 -158.57307 26.931185 122.61235 -34.306232 19.294264 -13.576695 133.823
510000000 -6.163559 -158.82074 26.82629 121.90925 -34.481194 18.887552 -13.720861 133.29874
520000000 -6.1180182 -159.25839 26.749443 121.28012 -34.319061 21.986628 -13.931474 132.73286
530000000 -6.0508862 -159.5455 26.653646 120.49962 -34.243469 19.441504 -14.05269 132.25945
540000000 -6.0128951 -159.85397 26.554558 119.85333 -34.27882 20.971397 -14.178308 131.9126
550000000 -5.9622459 -160.13318 26.462797 119.22601 -34.775082 23.141773 -14.340742 131.10457
560000000 -5.9111867 -160.38023 26.366039 118.53494 -33.990067 22.54027 -14.471378 130.35097
570000000 -5.878613 -160.65985 26.285492 117.90974 -34.24778 22.333099 -14.618388 130.22734
580000000 -5.8254704 -160.76187 26.188736 117.26653 -34.157497 22.59358 -14.748264 129.60057
590000000 -5.780478 -161.12543 26.100342 116.67422 -33.893066 24.051168 -14.948588 129.05997
600000000 -5.7356925 -161.43312 26.018887 116.03354 -33.996361 23.880707 -15.042002 128.89525
610000000 -5.7047257 -161.81657 25.912851 115.44031 -34.022285 24.997627 -15.259426 128.25371
620000000 -5.6643548 -162.03944 25.833776 114.92027 -34.532444 24.375061 -15.386936 127.9264
630000000 -5.6150279 -162.3367 25.742157 114.22073 -34.252666 23.864334 -15.500912 127.3918
640000000 -5.5925388 -162.68727 25.635914 113.69494 -34.052341 26.692892 -15.780681 126.90026
650000000 -5.565279 -162.8755 25.56427 113.12254 -33.995167 26.516077 -15.903586 126.77499
660000000 -5.5371876 -163.10876 25.470957 112.59522 -34.198807 27.795429 -16.062836 126.21233
670000000 -5.4932747 -163.42491 25.390123 112.01415 -33.908134 25.797312 -16.245502 126.19555
680000000 -5.4583464 -163.65616 25.308691 111.45974 -33.936718 27.921192 -16.402784 125.69721
690000000 -5.4390402 -163.89355 25.2243 110.97994 -33.516579 27.580509 -16.566772 125.25839
700000000 -5.414433 -164.19832 25.139847 110.41077 -33.617695 28.218662 -16.643818 124.91396
710000000 -5.3815837 -164.43832 25.044081 109.85326 -33.626801 30.059401 -16.887833 124.55491
720000000 -5.351202 -164.6489 24.975183 109.30407 -33.728825 28.446878 -16.982122 123.99098
730000000 -5.3321657 -164.868 24.889759 108.80131 -33.323711 31.358488 -17.232815 124.15851
740000000 -5.3023314 -165.11795 24.801569 108.27151 -33.316048 29.089661 -17.382792 123.64735
750000000 -5.2790308 -165.45949 24.716557 107.82833 -33.187412 30.77866 -17.518251 123.88992
760000000 -5.255805 -165.60645 24.639236 107.30207 -33.648026 30.22197 -17.694206 122.89249
770000000 -5.241797 -165.83749 24.559162 106.82734 -33.387489 30.786972 -17.862499 122.6919
780000000 -5.2191863 -166.07385 24.47646 106.37355 -33.358128 30.990267 -18.047722 122.35883
790000000 -5.2015247 -166.3795 24.393288 105.88905 -33.278419 31.733379 -18.17602 122.20117
800000000 -5.1794119 -166.60649 24.309774 105.42818 -33.175777 32.243801 -18.39554 121.75742
810000000 -5.1579051 -166.87529 24.235226 104.92462 -33.404861 32.349617 -18.540255 121.94053
820000000 -5.1287117 -167.09738 24.1635 104.46923 -33.136467 31.158306 -18.723581 121.46316
830000000 -5.1175385 -167.34943 24.078615 104.04288 -32.950809 32.436417 -18.880411 121.43968
840000000 -5.107132 -167.58142 23.999199 103.58559 -33.005962 32.648109 -19.034014 120.99297
850000000 -5.0913377 -167.83405 23.92417 103.13619 -33.154442 32.862488 -19.323101 121.03817
860000000 -5.0639529 -168.00822 23.845547 102.68353 -32.884239 32.696171 -19.431963 120.66666
870000000 -5.051774 -168.24205 23.77632 102.26072 -32.821095 31.631668 -19.621563 120.74178
880000000 -5.0281281 -168.42043 23.692133 101.83327 -32.693676 32.557358 -19.815092 120.50105
890000000 -5.0167928 -168.69376 23.624023 101.39632 -32.790474 33.210434 -19.936165 120.01636
900000000 -5.0006514 -168.89046 23.543741 101.0532 -32.690472 33.441578 -20.19515 120.01152
910000000 -4.9940548 -169.06728 23.465727 100.61794 -32.651707 32.538395 -20.407257 119.77278
920000000 -4.9689164 -169.28439 23.399784 100.22823 -32.569397 33.181339 -20.544716 119.654
930000000 -4.9671435 -169.4158 23.32823 99.845451 -32.576508 34.343723 -20.776587 119.48789
940000000 -4.9517708 -169.70313 23.256659 99.375603 -32.465607 35.511345 -20.987293 119.13559
950000000 -4.933497 -169.88309 23.177799 98.96534 -32.435139 35.635525 -21.276596 118.83328
960000000 -4.9248319 -170.15332 23.116886 98.537361 -32.297657 35.827023 -21.387266 119.07988
970000000 -4.9078116 -170.36919 23.037231 98.187248 -32.412758 36.399052 -21.671743 119.23584
980000000 -4.9183822 -170.61412 22.97216 97.783012 -32.341755 34.347363 -21.830166 118.38258
990000000 -4.9031391 -170.87979 22.894541 97.363609 -32.182331 35.338581 -22.031818 119.25039
1000000000 -4.8779087 -172.81432 22.835899 96.973793 -32.156895 34.716667 -22.26774 120.23812
1010000000 -4.8857632 -171.18436 22.767799 96.588654 -31.948534 36.178318 -22.441113 119.27587
1020000000 -4.875001 -171.4847 22.681828 96.18824 -32.082634 36.340836 -22.662226 118.59842
1030000000 -4.8560967 -171.65666 22.622587 95.816704 -31.987066 37.580708 -22.912682 118.31669
1040000000 -4.8503532 -171.86392 22.557674 95.447189 -32.049767 36.275784 -23.101433 118.7181
1050000000 -4.8430634 -172.11035 22.487932 95.058479 -31.873323 37.710278 -23.385878 118.54756
1060000000 -4.8414536 -172.25844 22.419052 94.771454 -31.735365 36.72435 -23.644222 118.77765
1070000000 -4.8302746 -172.44543 22.353813 94.352486 -31.911646 37.297771 -24.016024 118.71501
1080000000 -4.8307552 -172.6051 22.280142 94.034134 -31.74296 37.589569 -24.13261 118.12518
1090000000 -4.8134208 -172.81599 22.211918 93.654839 -31.84454 37.593964 -24.46451 119.01797
1100000000 -4.8021998 -172.99858 22.158087 93.284386 -31.792095 38.194584 -24.647194 118.94754
1110000000 -4.8097858 -173.17548 22.091021 92.955376 -31.581915 38.723259 -25.032082 118.33858
1120000000 -4.7928572 -173.38683 22.032867 92.646873 -31.47893 38.919994 -25.315775 118.57784
1130000000 -4.793489 -173.55592 21.96381 92.277267 -31.529486 38.370926 -25.661963 118.99416
1140000000 -4.7909031 -173.82895 21.901958 91.974686 -31.426765 38.570431 -25.82111 119.08017
1150000000 -4.782074 -173.99649 21.832706 91.577156 -31.471949 38.584415 -26.183487 119.08129
1160000000 -4.776144 -174.14398 21.780233 91.220985 -31.1896 38.213409 -26.487261 119.24484
1170000000 -4.7627254 -174.35281 21.714657 90.887505 -31.18541 38.586655 -26.710165 119.00848
1180000000 -4.765172 -174.49403 21.653503 90.530815 -31.187094 38.30357 -27.055473 120.15121
1190000000 -4.7648077 -174.75552 21.590088 90.252747 -31.098391 39.046215 -27.424072 119.3323
1200000000 -4.7531934 -174.93744 21.525162 89.860817 -31.105339 39.356655 -27.81749 120.6703
1210000000 -4.7474966 -175.14128 21.472776 89.582764 -31.144886 39.341858 -28.158012 121.53629
1220000000 -4.7544475 -175.26813 21.403011 89.238853 -31.08655 38.774109 -28.299379 121.3922
1230000000 -4.7392855 -175.4445 21.347885 88.888016 -30.951546 38.561424 -28.786306 120.32919
1240000000 -4.7401543 -175.57819 21.290245 88.623001 -30.866142 39.566444 -29.243713 121.96743
1250000000 -4.730206 -175.78999 21.236708 88.286293 -30.797649 39.323349 -29.339466 122.49185
1260000000 -4.7295399 -176.00722 21.173632 87.954636 -30.814905 39.839424 -29.848333 123.758
1270000000 -4.7212491 -176.17882 21.116394 87.643745 -30.785679 39.974869 -30.12565 125.04705
1280000000 -4.7231364 -176.37631 21.055128 87.316521 -30.706781 39.650028 -30.659801 125.78036
1290000000 -4.7155695 -176.53189 20.994728 86.993179 -30.637899 39.990768 -31.00705 126.20224
1300000000 -4.7046041 -176.66632 20.943514 86.714088 -30.573431 40.099022 -31.512892 127.29662
1310000000 -4.7023706 -176.9427 20.887661 86.346596 -30.489056 40.057995 -31.938589 128.94357
1320000000 -4.7019749 -177.04463 20.832449 86.080772 -30.532005 40.303822 -32.44754 129.51633
1330000000 -4.69909 -177.28561 20.77943 85.764122 -30.415607 39.848846 -32.990894 129.29161
1340000000 -4.6998706 -177.51166 20.717516 85.45842 -30.348293 40.301197 -33.516663 132.52336
1350000000 -4.6985459 -177.67656 20.664 85.169342 -30.422075 40.576077 -33.94968 133.74927
1360000000 -4.6985769 -177.76155 20.615484 84.879906 -30.336071 40.039612 -34.405018 134.53677
1370000000 -4.6893764 -177.91518 20.548929 84.575943 -30.307772 40.579655 -35.018028 135.42638
1380000000 -4.6798038 -178.09651 20.506275 84.281006 -30.274157 40.01717 -35.839336 137.39656
1390000000 -4.6724181 -178.30023 20.454489 83.932266 -30.158773 41.444981 -35.7672 140.41281
1400000000 -4.6781344 -178.52777 20.395887 83.642525 -30.092604 39.98444 -36.141273 146.17247
1410000000 -4.6876974 -178.79118 20.343021 83.30986 -29.98716 40.739243 -36.67548 147.85646
1420000000 -4.6804867 -178.91437 20.287485 83.091667 -30.160242 40.215034 -37.097092 152.5946
1430000000 -4.6792455 -179.11572 20.232687 82.760719 -30.050356 40.63427 -38.372757 157.69774
1440000000 -4.675231 -179.29399 20.187204 82.464859 -30.015934 41.288475 -38.302624 161.18553
1450000000 -4.6705666 -179.46184 20.13238 82.175095 -29.916964 40.23122 -38.354515 166.90868
1460000000 -4.6740828 -179.63461 20.081186 81.849686 -29.865913 41.051685 -38.953613 173.47887
1470000000 -4.6640682 -179.80945 20.029852 81.594757 -29.812727 40.77729 -39.603046 179.85828
1480000000 -4.6728172 179.98232 19.974184 81.303436 -29.855734 40.804592 -39.539486 -177.41725
1490000000 -4.6708651 179.8071 19.923534 81.004814 -29.754677 40.966682 -39.391911 -167.01631
1500000000 -4.675838 179.65179 19.869036 80.719711 -29.638628 41.551701 -39.117813 -167.78944
1510000000 -4.6741939 179.48869 19.819777 80.453568 -29.554138 39.810459 -39.320332 -160.81627
1520000000 -4.6737523 179.39444 19.775331 80.205399 -29.472124 41.612461 -39.022449 -151.76639
1530000000 -4.6644163 179.13498 19.722305 79.879967 -29.442486 42.064941 -38.279518 -147.31462
1540000000 -4.6550384 178.9715 19.681208 79.611801 -29.519718 41.70013 -38.103199 -140.90651
1550000000 -4.6603575 178.72449 19.625723 79.287422 -29.332188 41.220425 -37.643398 -134.63045
1560000000 -4.6608133 178.65671 19.584459 79.045914 -29.32752 41.557507 -37.501289 -136.64474
1570000000 -4.6616187 178.43236 19.528605 78.778252 -29.238129 40.632339 -36.612404 -132.18861
1580000000 -4.6690516 178.27013 19.483927 78.480431 -29.253262 40.921753 -36.390629 -129.40582
1590000000 -4.6620374 178.10974 19.43058 78.235275 -29.089895 41.811108 -35.532364 -126.6063
1600000000 -4.6598954 177.97046 19.379292 77.974098 -29.17658 41.616112 -35.678761 -124.94199
1610000000 -4.6519613 177.81673 19.338881 77.646118 -29.181704 41.958282 -34.663258 -121.62955
1620000000 -4.6575046 177.60539 19.299482 77.388527 -29.178488 40.928368 -34.547287 -119.5048
1630000000 -4.6497111 177.40872 19.251085 77.111237 -28.994913 40.810398 -33.91914 -119.12074
1640000000 -4.656096 177.25041 19.205772 76.833008 -28.942961 41.340511 -33.715542 -118.38012
1650000000 -4.6606569 177.05112 19.155094 76.557816 -28.954018 41.074478 -33.269379 -119.00455
1660000000 -4.6629686 176.97357 19.100473 76.324463 -28.991306 41.809681 -33.089046 -116.52273
1670000000 -4.6554255 176.81879 19.067894 76.057564 -28.909853 41.202774 -32.484966 -114.59374
1680000000 -4.6496015 176.5834 19.02898 75.757919 -28.847958 41.83643 -32.027355 -115.19466
1690000000 -4.6467314 176.35362 18.98097 75.556587 -28.787197 41.431332 -31.662991 -114.71851
1700000000 -4.6527023 176.10745 18.93424 75.202545 -28.737844 40.057468 -31.479116 -113.65318
1710000000 -4.6517229 175.9482 18.886805 74.935501 -28.743141 41.349297 -31.376377 -112.10545
1720000000 -4.6529822 175.80284 18.839235 74.667679 -28.684151 40.997208 -30.942955 -113.07388
1730000000 -4.664711 175.67006 18.79767 74.419273 -28.522274 41.455379 -30.662926 -111.45422
1740000000 -4.6449246 175.43329 18.753424 74.157936 -28.519405 41.928955 -30.362835 -110.80495
1750000000 -4.6462169 175.25998 18.70883 73.825462 -28.562748 41.07494 -30.168692 -111.66325
1760000000 -4.6404386 175.00598 18.669441 73.623016 -28.464186 40.987373 -29.79698 -110.34328
1770000000 -4.6523433 174.8577 18.616304 73.332901 -28.372326 40.600494 -29.670664 -111.30904
1780000000 -4.6594143 174.77061 18.574453 73.074615 -28.378258 41.273464 -29.353832 -110.51205
1790000000 -4.6578274 174.48468 18.528587 72.832413 -28.472658 41.430767 -29.042999 -110.31506
1800000000 -4.6492181 174.41826 18.491947 72.619415 -28.332281 40.786217 -28.934294 -108.62739
1810000000 -4.6607099 174.186 18.449074 72.332878 -28.228413 41.817032 -28.853899 -109.6946
1820000000 -4.6525888 174.06055 18.405092 72.051964 -28.276201 40.719963 -28.368269 -108.54215
1830000000 -4.641757 173.81757 18.366577 71.79493 -28.224936 40.772743 -28.097786 -109.29044
1840000000 -4.6462255 173.61882 18.323076 71.499985 -28.018906 40.900757 -27.979834 -109.77099
1850000000 -4.6487961 173.48618 18.279003 71.277626 -28.136257 40.096554 -27.757051 -111.20699
1860000000 -4.6422186 173.25484 18.235357 70.934486 -28.105606 41.113701 -27.642614 -110.1693
1870000000 -4.6744771 173.12097 18.192381 70.743401 -27.980757 39.486576 -27.551472 -109.82118
1880000000 -4.663466 172.93089 18.144083 70.466072 -28.022341 40.809559 -27.139875 -109.69249
1890000000 -4.6574302 172.76375 18.113323 70.199051 -28.014 40.573391 -27.108212 -109.70172
1900000000 -4.6503549 172.60037 18.069218 69.987976 -27.930063 41.142818 -26.934301 -108.59001
1910000000 -4.6488214 172.37808 18.033661 69.670494 -27.940203 40.737408 -26.630449 -110.85857
1920000000 -4.640049 172.18379 17.990147 69.412567 -27.852802 39.853607 -26.22892 -109.68723
1930000000 -4.6654963 172.02484 17.944094 69.158951 -27.773399 41.516907 -26.414362 -110.41637
1940000000 -4.6579704 171.81299 17.900564 68.902863 -27.795794 40.653507 -26.217579 -109.81292
1950000000 -4.6660829 171.62347 17.861681 68.687904 -27.716949 40.277596 -25.933542 -109.72134
1960000000 -4.6563978 171.52289 17.826975 68.452118 -27.760902 41.140236 -25.932695 -110.00551
1970000000 -4.6610165 171.37775 17.784113 68.173363 -27.600042 40.626144 -25.802971 -108.75064
1980000000 -4.6598926 171.32545 17.746794 67.915588 -27.628078 40.451954 -25.606821 -109.87101
1990000000 -4.6531825 171.03572 17.702156 67.692757 -27.609051 39.734482 -25.404858 -110.26978
2000000000 -4.6831217 170.86234 17.664785 67.382057 -27.548962 40.576435 -25.265079 -110.35365
2010000000 -4.6516228 170.61751 17.627777 67.179405 -27.427813 40.952278 -25.139032 -110.61054
2020000000 -4.6564655 170.444 17.588579 66.917259 -27.480877 40.569508 -25.044336 -109.9917
2030000000 -4.6711311 170.33176 17.544495 66.661758 -27.603172 40.172485 -24.938614 -111.04057
2040000000 -4.6566653 170.12491 17.514851 66.41893 -27.263577 40.564911 -24.703608 -111.23614
2050000000 -4.6637816 169.99887 17.475765 66.203529 -27.485617 39.746506 -24.412127 -110.39427
2060000000 -4.6586914 169.84593 17.440243 65.924652 -27.308315 40.453819 -24.252365 -111.14779
2070000000 -4.6597552 169.50951 17.39929 65.612595 -27.345963 39.704334 -24.272879 -111.16576
2080000000 -4.65273 169.31592 17.362625 65.402092 -27.247412 40.327187 -24.127403 -112.12609
2090000000 -4.6627431 169.0533 17.319874 65.171814 -27.387646 39.043579 -23.995003 -111.84259
2100000000 -4.6682744 168.94139 17.284599 64.916626 -27.207649 38.927803 -23.907316 -111.51534
2110000000 -4.6515713 168.74486 17.262564 64.647667 -27.194971 40.061844 -23.835934 -111.26702
2120000000 -4.6616764 168.65146 17.214197 64.441338 -27.159651 39.926022 -23.748354 -112.07145
2130000000 -4.6494989 168.39494 17.182106 64.125626 -27.175852 39.934795 -23.554386 -111.99272
