# Hz S  dB   R 50
10000000 -6.1259642 -64.987991 33.444065 150.46225 -35.293633 38.620422 -6.4401178 -88.723557
20000000 -9.4787664 -88.799255 31.145248 154.68433 -33.782669 19.005209 -9.2798014 -120.88591
30000000 -11.491401 -102.15163 30.236364 158.30254 -33.068092 16.413254 -10.45024 -137.8777
40000000 -12.440413 -111.13332 29.826391 160.2713 -33.048779 12.435667 -10.971806 -148.76421
50000000 -13.000707 -116.48664 29.615072 161.29657 -33.627384 13.660711 -11.234397 -156.10596
60000000 -13.191772 -120.51289 29.470402 161.54617 -33.445644 10.766257 -11.379856 -162.07919
70000000 -13.171709 -122.48002 29.378113 161.38002 -33.057777 8.2215719 -11.471776 -165.8596
80000000 -13.051781 -124.6691 29.28289 160.92336 -33.103085 6.8352132 -11.640892 -168.73445
90000000 -12.876921 -125.48414 29.216743 160.27972 -33.110909 6.540503 -11.659797 -171.8251
100000000 -12.748097 -126.64403 29.151022 159.5743 -32.946926 7.2208567 -11.75853 -174.23602
110000000 -12.51643 -127.37568 29.083788 158.71092 -32.951893 7.5575166 -11.818738 -176.22995
120000000 -12.217139 -128.116 29.021631 157.78313 -33.082836 7.1975417 -11.87654 -177.81395
130000000 -11.943131 -128.68839 28.954865 156.77982 -33.068554 7.9214101 -11.962338 -179.65178
140000000 -11.685417 -129.14104 28.888985 155.75529 -32.9725 7.6901631 -12.069041 178.82947
150000000 -11.400144 -129.52779 28.821285 154.73558 -33.083229 6.9015651 -12.159783 177.51987
160000000 -11.154904 -129.75018 28.767269 153.6752 -33.1796 7.9827504 -12.243653 176.24115
170000000 -10.888092 -130.42819 28.69245 152.64212 -33.021168 6.6617846 -12.281549 175.18788
180000000 -10.592695 -130.96205 28.612495 151.51437 -33.2813 6.2368097 -12.318989 173.81122
190000000 -10.333782 -131.39905 28.556421 150.3924 -33.005455 8.5535774 -12.357535 173.00514
200000000 -10.141795 -132.09425 28.468931 149.39516 -33.153015 6.4693804 -12.466908 172.01048
210000000 -9.8807611 -132.53703 28.396233 148.32388 -32.996868 7.1103721 -12.609019 170.97748
220000000 -9.6123734 -132.97812 28.321569 147.20018 -33.105247 8.5620098 -12.674152 170.08717
230000000 -9.4416409 -133.65541 28.239731 146.20088 -33.086639 8.6632843 -12.781629 169.33168
240000000 -9.2310543 -134.13126 28.158512 145.12411 -33.197189 8.5161886 -12.844074 168.76936
250000000 -9.0407743 -134.7021 28.06888 144.08461 -32.955658 9.1464376 -12.954616 167.88466
260000000 -8.871439 -135.21245 27.995308 143.08812 -32.855114 9.1970186 -13.055003 167.06622
270000000 -8.6479836 -135.95862 27.904251 142.03839 -33.284748 8.9251957 -13.141582 166.52486
280000000 -8.4566154 -136.397 27.815586 141.04213 -33.265457 11.277352 -13.219326 166.22745
290000000 -8.3029823 -136.87476 27.725981 140.03719 -33.251316 10.630952 -13.295425 165.93317
300000000 -8.1397648 -137.54221 27.635365 139.06847 -33.240849 9.8849525 -13.362811 164.93144
310000000 -7.9810381 -138.19255 27.545193 138.06662 -32.966892 10.416418 -13.515748 164.67638
320000000 -7.8097181 -138.77269 27.456661 137.12729 -32.801487 12.342825 -13.605624 163.55511
330000000 -7.7089605 -139.47379 27.35701 136.25734 -32.925148 12.066618 -13.699564 163.46906
340000000 -7.5477843 -139.88902 27.26325 135.32275 -33.319908 12.0629 -13.808517 163.23193
350000000 -7.4316702 -140.42459 27.168951 134.4061 -33.018223 12.355815 -13.933361 162.76198
360000000 -7.2973266 -141.05835 27.0795 133.48203 -32.865433 12.478394 -14.056509 162.32458
370000000 -7.1894174 -141.88664 26.976042 132.61069 -33.193233 12.438941 -14.112725 161.94254
380000000 -7.0724626 -142.19307 26.892014 131.73761 -33.080715 15.266113 -14.26271 161.69945
390000000 -6.951952 -142.64249 26.799595 130.87691 -33.014256 15.009018 -14.33119 161.45958
400000000 -6.8557363 -143.29695 26.703337 130.07597 -32.668961 14.343725 -14.426073 161.39445
410000000 -6.7446661 -143.92122 26.603144 129.22443 -33.008568 15.035226 -14.517758 160.88353
420000000 -6.673564 -144.45847 26.50412 128.47214 -32.771408 13.326506 -14.61002 160.56181
430000000 -6.5730863 -145.11932 26.403034 127.71497 -32.887402 15.140579 -14.739038 160.31996
440000000 -6.475543 -145.59718 26.310934 126.86411 -33.009365 16.718603 -14.826591 160.51097
450000000 -6.3967209 -146.13768 26.22546 126.08064 -33.197861 17.468693 -14.965432 160.13321
460000000 -6.3199983 -146.69507 26.115747 125.36051 -33.086353 16.465279 -15.043477 160.14357
470000000 -6.2322359 -147.14966 26.029724 124.60646 -32.700184 16.585615 -15.140064 159.90654
480000000 -6.1577806 -147.58514 25.926601 123.8969 -32.910175 17.585878 -15.259929 159.89839
490000000 -6.0813761 -148.05406 25.840412 123.16316 -32.743824 17.69709 -15.408906 159.79895
500000000 -6.0638885 -148.48697 25.746685 122.45019 -32.81815 20.225178 -15.467389 159.66017
510000000 -5.9440875 -148.99739 25.642359 121.77482 -33.002968 18.286621 -15.557552 159.5054
520000000 -5.8976159 -149.50926 25.561157 121.14174 -32.681648 18.248116 -15.737609 159.43379
530000000 -5.8213878 -149.88364 25.466015 120.3673 -33.082222 18.28331 -15.794783 159.49593
540000000 -5.7810664 -150.45425 25.367258 119.73215 -32.612282 20.187483 -15.879766 159.03796
550000000 -5.7149563 -150.87747 25.270561 119.09747 -32.892574 21.873537 -15.999168 159.196
560000000 -5.6563072 -151.2962 25.174343 118.45399 -32.633366 21.473125 -16.066896 159.12259
570000000 -5.6075773 -151.76808 25.092764 117.83768 -32.442551 18.417675 -16.161631 159.42534
580000000 -5.5599985 -152.07402 24.997927 117.17981 -32.604721 20.875866 -16.241438 159.07155
590000000 -5.4979258 -152.61964 24.912714 116.57334 -32.559338 20.244308 -16.351583 159.60318
600000000 -5.4553924 -153.00511 24.826992 115.96893 -32.447132 20.508631 -16.459999 159.28011
610000000 -5.4140091 -153.47481 24.718746 115.38862 -32.552425 22.203291 -16.606539 159.49474
620000000 -5.3850832 -153.88507 24.635605 114.85905 -32.242393 21.124418 -16.663795 159.86668
630000000 -5.3293819 -154.31738 24.545794 114.17363 -32.446877 23.788343 -16.765491 159.60753
640000000 -5.2805829 -154.82492 24.441652 113.68378 -32.256275 22.458889 -16.872602 159.91705
650000000 -5.2501893 -155.03172 24.368195 113.12383 -32.356476 24.387796 -16.989574 160.39325
660000000 -5.2217479 -155.51189 24.27673 112.56052 -32.357117 23.929062 -17.061483 160.34483
670000000 -5.1722813 -155.91898 24.196585 112.00794 -32.006218 23.58428 -17.131224 160.80301
680000000 -5.1463251 -156.25883 24.113508 111.45009 -32.015205 25.412029 -17.207937 160.80441
690000000 -5.1257992 -156.67395 24.026365 110.95277 -32.062847 24.55455 -17.307003 160.87169
700000000 -5.095242 -156.97728 23.941225 110.43721 -32.198906 24.068684 -17.3881 161.31374
710000000 -5.071816 -157.39532 23.848259 109.88064 -32.337906 24.69413 -17.479582 161.37735
720000000 -5.030982 -157.5629 23.778652 109.3568 -32.041096 25.562326 -17.580002 161.4384
730000000 -5.0141835 -157.95851 23.690079 108.8616 -32.024872 26.064833 -17.665836 161.62869
740000000 -4.9643493 -158.32713 23.604084 108.311 -31.753471 26.686167 -17.724768 162.02403
750000000 -4.9542708 -158.74782 23.517366 107.872 -31.86301 27.063198 -17.790051 162.42438
760000000 -4.9222126 -159.04929 23.447329 107.4076 -31.835354 27.250027 -17.889605 162.23961
770000000 -4.8931508 -159.34007 23.361752 106.90299 -31.690712 28.283579 -17.948513 162.70351
780000000 -4.8765826 -159.68224 23.275377 106.44308 -31.628876 27.171844 -18.048923 163.0313
790000000 -4.8456955 -160.01038 23.190725 105.96556 -31.717684 26.457724 -18.13117 163.61113
800000000 -4.8365355 -160.33276 23.111313 105.51029 -31.700609 26.587547 -18.188528 163.39725
810000000 -4.8032269 -160.68919 23.039394 105.04797 -31.660013 26.805239 -18.280975 163.92432
820000000 -4.7858825 -160.96255 22.96187 104.59156 -31.595282 28.906174 -18.395752 164.23346
830000000 -4.774838 -161.3168 22.88051 104.15191 -31.558256 27.664276 -18.383598 164.38544
840000000 -4.7625341 -161.61 22.797968 103.69905 -31.546816 27.991093 -18.475996 164.59416
850000000 -4.7459831 -161.96327 22.721205 103.26084 -31.565426 29.669981 -18.623766 165.09717
860000000 -4.7107482 -162.22206 22.650877 102.83127 -31.56949 29.240376 -18.56798 165.07599
870000000 -4.6877213 -162.46773 22.578289 102.40748 -31.381941 30.124119 -18.697861 165.57689
880000000 -4.6723304 -162.7849 22.495529 101.96062 -31.438234 28.497314 -18.719801 165.84125
890000000 -4.6641135 -163.06175 22.423065 101.56463 -31.398008 30.116825 -18.814341 166.24762
900000000 -4.6586609 -163.36037 22.340841 101.19865 -31.252245 28.938061 -18.88205 166.89435
910000000 -4.6326022 -163.64484 22.268448 100.77271 -31.297457 28.900328 -18.927019 167.24113
920000000 -4.6165175 -163.84525 22.200026 100.40854 -31.217588 30.956245 -19.027184 167.40118
930000000 -4.6062436 -164.04155 22.130154 100.0209 -31.214626 30.46859 -19.078207 167.55922
940000000 -4.5884128 -164.35623 22.058659 99.59127 -31.224628 30.210838 -19.183565 168.24423
950000000 -4.57722 -164.65642 21.981308 99.152306 -31.107628 31.07395 -19.219944 168.92456
960000000 -4.5654211 -164.96075 21.919022 98.741066 -30.909374 30.872356 -19.264067 169.32774
970000000 -4.5506015 -165.31555 21.840233 98.366982 -30.965769 31.00725 -19.318901 169.3802
980000000 -4.5335708 -165.50748 21.778065 97.989731 -30.9559 32.311283 -19.410299 169.86859
990000000 -4.5308371 -165.79317 21.698776 97.599205 -30.967831 31.056604 -19.453751 170.20619
1000000000 -4.5143242 -167.89771 21.64007 97.204094 -30.942076 32.136795 -19.518314 172.4584
1010000000 -4.5117574 -166.28085 21.573452 96.823524 -30.761206 31.800346 -19.43078 170.89275
1020000000 -4.4934597 -166.60165 21.491081 96.410706 -30.730469 32.439255 -19.563614 171.31241
1030000000 -4.4909678 -166.80412 21.425905 96.070648 -30.696421 32.826496 -19.656847 171.91971
1040000000 -4.4730535 -167.14958 21.364094 95.680077 -30.450439 32.789654 -19.727854 172.68779
1050000000 -4.4741697 -167.29027 21.29273 95.353951 -30.577284 32.830387 -19.73534 172.80476
1060000000 -4.4678917 -167.52048 21.225758 95.058243 -30.583197 33.008751 -19.751888 173.19487
1070000000 -4.455286 -167.74577 21.160936 94.628098 -30.600502 32.8064 -19.845079 174.00206
1080000000 -4.4492598 -167.9857 21.085596 94.297333 -30.510782 33.376209 -19.888027 174.02046
1090000000 -4.4357014 -168.24442 21.020315 93.948471 -30.290678 33.131355 -19.986013 174.60954
1100000000 -4.4304748 -168.42519 20.967211 93.57843 -30.398325 33.024242 -20.005789 175.03162
1110000000 -4.4238687 -168.64302 20.902962 93.250732 -30.248819 34.029758 -20.047735 175.75192
1120000000 -4.4182911 -168.95721 20.840994 92.950615 -30.345203 33.453545 -20.058161 176.0891
1130000000 -4.4172144 -169.10257 20.773895 92.588028 -30.255983 33.644085 -20.130749 176.77267
1140000000 -4.4137931 -169.43745 20.714079 92.283661 -30.209753 34.774963 -20.181612 177.3134
1150000000 -4.4035368 -169.64937 20.642628 91.888397 -30.179922 33.805325 -20.161383 177.83572
1160000000 -4.3923326 -169.80791 20.58905 91.54911 -30.094116 34.356739 -20.2314 178.14395
1170000000 -4.3832083 -170.01591 20.523504 91.232651 -30.010721 35.027737 -20.258051 178.61462
1180000000 -4.3757434 -170.29817 20.467527 90.875412 -29.916313 34.6833 -20.291983 178.86911
1190000000 -4.3849044 -170.62206 20.401405 90.586899 -29.830261 34.689041 -20.360456 179.69081
1200000000 -4.3720903 -170.78445 20.339483 90.191109 -29.916481 34.612244 -20.349146 -179.54601
1210000000 -4.36479 -171.04349 20.282696 89.911301 -29.936588 35.047562 -20.354254 -179.54202
1220000000 -4.3586698 -171.13736 20.223682 89.591331 -29.979982 35.196323 -20.358948 -178.93877
1230000000 -4.3513713 -171.3709 20.164675 89.249748 -29.749844 35.72208 -20.45175 -178.34848
1240000000 -4.3481421 -171.5251 20.107521 88.986572 -29.736071 35.08812 -20.495659 -177.94133
1250000000 -4.336689 -171.78616 20.051561 88.661591 -29.652126 36.937675 -20.431168 -177.61871
1260000000 -4.3406572 -172.02139 19.991602 88.304871 -29.566929 36.107178 -20.512705 -177.21143
1270000000 -4.3399096 -172.23244 19.936085 87.995483 -29.450853 34.966885 -20.447298 -176.79367
1280000000 -4.3346844 -172.51341 19.874811 87.673767 -29.560024 35.953381 -20.506483 -176.0173
1290000000 -4.3200102 -172.73775 19.816771 87.349106 -29.481615 35.624367 -20.51597 -176.00388
1300000000 -4.3188219 -172.82716 19.762806 87.079666 -29.435562 36.188873 -20.514084 -175.66295
1310000000 -4.3204336 -173.11095 19.707462 86.748085 -29.390657 34.823101 -20.57015 -175.09586
1320000000 -4.3177752 -173.35016 19.652771 86.453339 -29.31547 36.649975 -20.6091 -174.54044
1330000000 -4.3055782 -173.56348 19.600359 86.156036 -29.447762 36.342403 -20.616947 -174.42267
1340000000 -4.3028245 -173.75546 19.542881 85.867203 -29.202959 36.565723 -20.62171 -173.70122
1350000000 -4.3045583 -173.97719 19.486929 85.571709 -29.227446 36.102299 -20.680141 -173.34421
1360000000 -4.3036575 -174.14142 19.440235 85.275154 -29.117422 36.508083 -20.773804 -173.18538
1370000000 -4.2939291 -174.26604 19.376024 84.979958 -29.173695 36.563885 -20.728756 -172.84567
1380000000 -4.2889137 -174.48784 19.327003 84.674118 -29.141644 36.440765 -20.768583 -172.43073
1390000000 -4.2803369 -174.73509 19.280529 84.358833 -29.103849 36.167183 -20.725414 -172.20711
1400000000 -4.2937698 -175.05656 19.217852 84.064354 -29.091721 36.446648 -20.67791 -171.65881
1410000000 -4.2814641 -175.22693 19.168667 83.729263 -28.915607 36.11071 -20.70829 -170.86725
1420000000 -4.2880468 -175.47453 19.110804 83.505219 -28.979485 36.95385 -20.687595 -171.20695
1430000000 -4.2903948 -175.68176 19.055113 83.163071 -28.9286 36.565357 -20.738945 -170.31264
1440000000 -4.2709808 -175.8123 19.013943 82.894257 -28.858057 36.00161 -20.691427 -170.12315
1450000000 -4.2770338 -176.04103 18.960653 82.61776 -28.80036 36.82254 -20.705738 -169.68263
1460000000 -4.2678466 -176.22145 18.911137 82.263069 -28.706535 36.640526 -20.634138 -169.37274
1470000000 -4.2594571 -176.4743 18.863268 82.024155 -28.771915 36.503597 -20.708719 -169.29468
1480000000 -4.2702508 -176.61281 18.804653 81.752602 -28.600527 37.155907 -20.718283 -168.67822
1490000000 -4.2719455 -176.82019 18.752678 81.458801 -28.664265 37.45853 -20.710672 -168.54457
1500000000 -4.2748046 -177.03159 18.702103 81.136803 -28.608295 37.62923 -20.664598 -168.19739
1510000000 -4.2616057 -177.29472 18.651407 80.873703 -28.476603 37.280617 -20.707319 -168.11046
1520000000 -4.2611375 -177.34561 18.604658 80.647385 -28.623732 36.766022 -20.725281 -167.26152
1530000000 -4.2552981 -177.60094 18.55414 80.347725 -28.591818 36.70575 -20.664635 -167.22778
1540000000 -4.2679491 -177.88577 18.514616 80.034363 -28.36331 36.749653 -20.654831 -166.73103
1550000000 -4.2586322 -178.09622 18.459881 79.737053 -28.474815 37.252106 -20.657015 -166.14413
1560000000 -4.2563629 -178.23094 18.416576 79.479439 -28.346498 37.052818 -20.687111 -166.40988
1570000000 -4.2665167 -178.44888 18.357546 79.228096 -28.305027 37.229515 -20.548426 -165.74551
1580000000 -4.2732048 -178.59474 18.316952 78.928307 -28.274729 37.314327 -20.622545 -165.21033
1590000000 -4.2494507 -178.7662 18.270334 78.70742 -28.224218 38.495754 -20.627724 -165.30251
1600000000 -4.2475805 -178.96704 18.218113 78.409897 -28.131077 37.234737 -20.621323 -164.54869
1610000000 -4.2488742 -179.12782 18.175274 78.130836 -28.090076 37.304157 -20.602818 -164.89691
1620000000 -4.2473807 -179.36673 18.138313 77.845406 -28.125082 37.864082 -20.60063 -164.34961
1630000000 -4.2506919 -179.67714 18.088047 77.551804 -27.989754 38.020508 -20.505848 -163.96553
1640000000 -4.2548265 -179.77867 18.040781 77.291069 -28.02956 36.904346 -20.493353 -163.95499
1650000000 -4.2635312 -179.99142 17.993626 77.052284 -27.923792 38.080811 -20.434986 -163.40356
1660000000 -4.2488856 179.88615 17.948492 76.79155 -27.993656 37.641487 -20.488333 -163.28255
1670000000 -4.2468472 179.68723 17.907909 76.52697 -27.883999 37.129478 -20.442005 -163.16557
1680000000 -4.2386279 179.47849 17.871613 76.227783 -27.793076 36.940056 -20.366962 -162.67003
1690000000 -4.2411132 179.26894 17.822565 76.017761 -27.863897 36.98476 -20.341604 -162.41415
1700000000 -4.2472553 179.00836 17.773815 75.669991 -27.730671 37.370979 -20.360086 -162.2724
1710000000 -4.2472324 178.73807 17.730032 75.412201 -27.663435 37.420441 -20.360081 -162.34488
1720000000 -4.2329698 178.66956 17.681976 75.155937 -27.757959 37.355831 -20.290747 -162.02496
1730000000 -4.2423182 178.45532 17.640474 74.898499 -27.643879 37.221844 -20.35873 -161.27087
1740000000 -4.2369051 178.29601 17.60033 74.661819 -27.725502 37.408352 -20.292538 -161.18872
1750000000 -4.2473946 177.97673 17.551268 74.32193 -27.581949 37.747295 -20.294888 -161.03947
1760000000 -4.2332258 177.77802 17.516048 74.130096 -27.680111 36.872669 -20.265821 -161.0168
1770000000 -4.250052 177.63643 17.465065 73.833229 -27.54579 36.938881 -20.204792 -160.63661
1780000000 -4.244895 177.44667 17.419537 73.555809 -27.455496 37.138969 -20.175533 -160.18039
1790000000 -4.2529373 177.30315 17.37319 73.33226 -27.466179 37.121365 -20.105013 -160.44456
1800000000 -4.239923 177.09509 17.33497 73.115547 -27.444695 37.752556 -20.110676 -160.32439
1810000000 -4.246994 176.81975 17.297523 72.842461 -27.382284 37.814293 -20.084721 -159.66057
1820000000 -4.2377863 176.70877 17.25252 72.553802 -27.436296 36.882919 -20.010357 -159.19724
1830000000 -4.2415104 176.5154 17.21636 72.299011 -27.334202 37.824043 -20.012238 -159.17601
1840000000 -4.2295241 176.23975 17.17421 72.022675 -27.286757 36.612083 -19.961016 -159.19304
1850000000 -4.2343087 176.09331 17.13484 71.774574 -27.32057 36.913582 -19.950054 -159.37634
1860000000 -4.2347689 175.88405 17.089813 71.438637 -27.191284 37.043179 -19.88026 -158.83809
1870000000 -4.2458353 175.66571 17.045565 71.241531 -27.121681 37.54718 -19.858469 -158.82779
1880000000 -4.2533379 175.57555 16.998554 70.99099 -27.132864 36.260983 -19.825321 -158.40231
1890000000 -4.2505455 175.41223 16.966764 70.732384 -27.104834 36.926533 -19.842783 -158.52715
1900000000 -4.2286367 175.14758 16.923271 70.490341 -27.043905 36.52264 -19.760878 -157.84778
1910000000 -4.2366781 174.92931 16.887796 70.167152 -27.064819 37.070862 -19.712103 -157.98982
1920000000 -4.2418032 174.71004 16.844913 69.933205 -27.026728 37.048363 -19.632029 -157.85062
1930000000 -4.2503572 174.53793 16.802187 69.673447 -26.893671 37.563557 -19.63438 -157.85707
1940000000 -4.2469563 174.35565 16.759251 69.426071 -26.938223 37.091129 -19.649746 -157.6279
1950000000 -4.2571607 174.15323 16.720303 69.21312 -26.923977 36.662689 -19.666933 -157.88271
1960000000 -4.2506757 173.98227 16.684246 68.975945 -26.706829 36.837498 -19.583078 -157.33041
1970000000 -4.2433581 173.82233 16.643913 68.681877 -26.814766 36.964043 -19.63125 -156.99086
1980000000 -4.23245 173.68546 16.608532 68.418602 -26.781649 36.218304 -19.514975 -156.97404
1990000000 -4.2345066 173.43863 16.56399 68.214096 -26.678867 36.1082 -19.453993 -156.65457
2000000000 -4.2757745 173.26706 16.522825 67.88131 -26.738865 36.17049 -19.362837 -157.05432
2010000000 -4.2451105 172.98761 16.486633 67.681961 -26.680464 36.615639 -19.428282 -156.59175
2020000000 -4.2434692 172.82895 16.451557 67.436646 -26.71862 37.023579 -19.380144 -156.45575
2030000000 -4.2413921 172.69009 16.406691 67.176888 -26.668049 36.916061 -19.318462 -156.69989
2040000000 -4.2383542 172.47464 16.376925 66.955338 -26.543095 36.466644 -19.321341 -156.26962
2050000000 -4.2450676 172.28568 16.338661 66.723862 -26.473312 37.115307 -19.204187 -156.33434
2060000000 -4.2318273 172.12276 16.306231 66.419266 -26.528967 37.42971 -19.161795 -155.70856
2070000000 -4.2352629 171.79756 16.266865 66.133629 -26.411839 36.293587 -19.117855 -156.25366
2080000000 -4.2422185 171.58946 16.22785 65.90509 -26.458649 36.683231 -19.07649 -155.73906
2090000000 -4.2328749 171.41989 16.185343 65.697647 -26.309607 36.149082 -19.049839 -155.98601
2100000000 -4.2484565 171.19548 16.15225 65.391388 -26.351652 36.462811 -19.015675 -155.90872
2110000000 -4.2323527 171.03992 16.131472 65.172302 -26.369677 36.703995 -19.01927 -155.94286
2120000000 -4.2367096 170.80141 16.081335 64.931816 -26.215801 36.77961 -19.034313 -155.46434
