# Hz S  dB   R 50
10000000 -6.4869876 -78.803482 34.789703 148.44061 -34.25552 38.321125 -7.3095455 -102.7767
20000000 -8.760622 -111.39272 32.396339 153.07539 -34.245785 15.808366 -8.1331215 -136.07895
30000000 -9.8961763 -128.47162 31.427942 156.90219 -35.061241 12.724914 -8.5123129 -152.34203
40000000 -10.36285 -137.10834 30.979612 159.02419 -34.103779 12.880248 -8.6861067 -160.8638
50000000 -10.633888 -143.29442 30.738985 160.18741 -34.617676 6.6111541 -8.7742491 -166.76746
60000000 -10.718186 -146.54559 30.573881 160.57027 -34.29335 8.4730415 -8.8278351 -171.3242
70000000 -10.786176 -148.4584 30.469717 160.5318 -34.855431 9.3692312 -8.90522 -174.58531
80000000 -10.764124 -149.78409 30.365948 160.17825 -34.512875 7.9426436 -8.9935732 -177.42445
90000000 -10.713277 -150.39282 30.292215 159.60777 -34.435638 5.745645 -9.0333681 -179.95786
100000000 -10.667517 -150.89832 30.222837 158.97316 -34.437191 5.8083677 -9.0988464 177.74683
110000000 -10.578209 -151.25282 30.154118 158.17508 -34.209862 6.8196964 -9.1218424 175.97702
120000000 -10.430271 -151.38112 30.085852 157.28029 -34.973339 6.7004342 -9.1816645 174.09915
130000000 -10.300685 -151.34981 30.015276 156.33115 -34.54208 7.587461 -9.2619591 172.43796
140000000 -10.157224 -151.33075 29.946829 155.34804 -34.678116 6.4198451 -9.3522186 170.774
150000000 -10.005928 -151.22234 29.879354 154.37738 -34.696346 6.3732839 -9.4363556 169.28351
160000000 -9.8800526 -151.04417 29.823172 153.34726 -34.637474 6.9094372 -9.5305023 167.92566
170000000 -9.7429047 -151.16736 29.748091 152.36703 -34.552517 7.4090624 -9.5915956 166.61102
180000000 -9.5669413 -150.96205 29.671696 151.26994 -34.270248 6.9308472 -9.6347494 165.21806
190000000 -9.4069185 -150.73914 29.610428 150.16176 -34.407104 8.1831369 -9.6919613 164.15442
200000000 -9.2586737 -151.00243 29.528791 149.18372 -34.883251 8.8007689 -9.8107805 162.80983
210000000 -9.1106539 -151.00436 29.455029 148.12933 -34.69659 8.1124992 -9.9202309 161.69647
220000000 -8.9392042 -150.86366 29.379496 147.01755 -34.484802 8.0036402 -10.021878 160.53392
230000000 -8.8052835 -151.00658 29.29583 146.05165 -34.524681 6.8226295 -10.104881 159.43864
240000000 -8.6703243 -151.20439 29.215351 144.99908 -34.794224 9.0830021 -10.204943 158.51143
250000000 -8.5424995 -151.21304 29.124237 143.98032 -34.801197 9.4645758 -10.313416 157.4949
260000000 -8.4193735 -151.3096 29.055122 143.0031 -34.618229 11.565524 -10.395283 156.1608
270000000 -8.2865334 -151.53192 28.964775 141.96829 -35.154289 10.981181 -10.515377 155.52818
280000000 -8.1286125 -151.59755 28.880529 140.96407 -34.515137 14.443509 -10.651841 154.70383
290000000 -8.0109987 -151.74872 28.78791 139.97716 -34.513401 11.690524 -10.716064 153.90094
300000000 -7.8564544 -151.92078 28.699013 139.02588 -35.076515 11.42658 -10.806278 152.77756
310000000 -7.7534738 -152.09662 28.608927 138.01472 -34.501873 12.555946 -11.000283 152.30101
320000000 -7.6349416 -152.43196 28.518929 137.09743 -34.887047 12.044256 -11.074018 151.17365
330000000 -7.5435081 -152.8918 28.424568 136.23816 -34.454708 13.061573 -11.156677 150.51256
340000000 -7.4173298 -153.05197 28.33382 135.31731 -34.709873 13.724874 -11.285143 149.57191
350000000 -7.3154845 -153.26831 28.238771 134.40599 -34.802563 14.304172 -11.444078 149.21159
360000000 -7.2109122 -153.51976 28.151352 133.47356 -34.422291 13.291579 -11.546638 148.38982
370000000 -7.1258183 -153.97388 28.043228 132.64583 -34.658478 16.541986 -11.661422 147.51871
380000000 -7.0314598 -154.09018 27.962532 131.78535 -34.798405 14.029292 -11.811565 147.10417
390000000 -6.9465156 -154.27634 27.868458 130.88295 -34.600677 16.767506 -11.926813 146.38631
400000000 -6.8593359 -154.68283 27.774065 130.09979 -34.655972 15.843559 -12.048786 146.01135
410000000 -6.763134 -155.07793 27.676464 129.24651 -34.622894 18.057301 -12.18266 145.47571
420000000 -6.6802592 -155.43108 27.580505 128.49229 -34.526047 18.069038 -12.292478 144.71368
430000000 -6.605804 -155.73604 27.481382 127.7776 -34.791088 16.686483 -12.435389 144.22375
440000000 -6.5351501 -156.07454 27.389559 126.91694 -34.751534 16.34199 -12.560821 143.72784
450000000 -6.4683204 -156.35674 27.303812 126.12823 -34.576077 19.60729 -12.710954 143.01909
460000000 -6.3889122 -156.5533 27.198751 125.4111 -34.360027 19.149523 -12.831942 142.64703
470000000 -6.3386831 -156.93106 27.104658 124.65276 -34.177574 20.061619 -12.946721 142.26099
480000000 -6.2671938 -157.19853 27.003534 123.94521 -34.369999 19.071321 -13.122689 141.6759
490000000 -6.1973634 -157.51108 26.917238 123.19904 -34.324787 20.696564 -13.216979 141.16895
500000000 -6.1815734 -157.70914 26.826384 122.49718 -34.386711 21.563225 -13.358146 140.77539
510000000 -6.0934563 -158.04181 26.721973 121.80397 -34.22076 20.107496 -13.476587 140.37416
520000000 -6.042212 -158.42 26.640406 121.18883 -34.442745 21.562061 -13.669004 139.79285
530000000 -5.9815059 -158.71423 26.543667 120.44193 -34.143948 21.580639 -13.74545 139.54729
540000000 -5.9242053 -159.01627 26.450146 119.79971 -34.033157 23.818689 -13.887584 138.88554
550000000 -5.8894377 -159.32378 26.35347 119.15232 -34.167412 22.809364 -14.027986 138.39661
560000000 -5.8249173 -159.74281 26.255928 118.47246 -34.083439 22.47599 -14.181057 138.19873
570000000 -5.8099675 -159.97093 26.176432 117.87846 -34.148357 25.086254 -14.25771 138.04309
580000000 -5.7507648 -160.16789 26.079443 117.21655 -33.954201 23.470753 -14.423064 137.47791
590000000 -5.6919904 -160.4109 25.994406 116.63727 -34.100582 25.943762 -14.552568 137.34354
600000000 -5.6444373 -160.69746 25.914932 116.01192 -33.978672 27.518457 -14.684779 137.01662
610000000 -5.6253414 -161.09398 25.803226 115.44276 -34.137081 24.862753 -14.829321 137.01154
620000000 -5.5942268 -161.40332 25.720774 114.88824 -34.079498 26.171318 -14.996175 136.50496
630000000 -5.533731 -161.7005 25.634583 114.24184 -33.868587 25.455675 -15.123056 136.16356
640000000 -5.497808 -162.03175 25.526285 113.70746 -33.81723 27.877796 -15.324918 136.07579
650000000 -5.47188 -162.24698 25.453531 113.1617 -33.653919 26.797409 -15.453331 135.76913
660000000 -5.4509225 -162.64401 25.364618 112.60286 -33.932529 27.678726 -15.579376 135.99013
670000000 -5.4062414 -162.8707 25.281891 112.04711 -33.714584 27.183573 -15.707944 135.79012
680000000 -5.3797688 -163.17697 25.200619 111.49817 -33.516319 29.51457 -15.838189 135.63
690000000 -5.3668404 -163.4819 25.111435 111.00933 -33.372215 29.307232 -15.966791 135.45871
700000000 -5.332232 -163.65446 25.029135 110.45607 -33.236652 28.727537 -16.112995 134.96677
710000000 -5.3035164 -163.96626 24.931805 109.89694 -33.246593 29.068438 -16.301521 134.99992
720000000 -5.2786922 -164.11238 24.867537 109.38809 -33.519699 30.467937 -16.388693 134.27438
730000000 -5.2546563 -164.44382 24.780523 108.90182 -33.249146 30.039438 -16.550911 134.75143
740000000 -5.2222672 -164.73831 24.691319 108.3397 -33.316128 29.915854 -16.670141 134.30959
750000000 -5.2069573 -164.97917 24.603928 107.9212 -33.253368 30.670204 -16.77046 134.6886
760000000 -5.1699066 -165.15703 24.530518 107.41238 -33.310215 31.485874 -16.922792 134.49979
770000000 -5.1523485 -165.47546 24.449203 106.92893 -33.206367 31.910524 -17.093822 134.17628
780000000 -5.1363835 -165.72333 24.362606 106.45671 -33.131496 31.695049 -17.22184 134.27846
790000000 -5.1182065 -165.99292 24.285414 105.98703 -32.806973 32.028797 -17.388489 134.24446
800000000 -5.0954013 -166.26204 24.200562 105.52375 -32.98032 32.689934 -17.547186 134.03441
810000000 -5.0845709 -166.45679 24.125799 105.05358 -33.07885 32.629559 -17.658659 134.17551
820000000 -5.0607629 -166.7888 24.05204 104.60896 -33.061058 32.436977 -17.770256 134.01785
830000000 -5.0574837 -167.05644 23.968248 104.1749 -32.867165 31.225624 -17.919212 134.06339
840000000 -5.0228696 -167.28506 23.890053 103.70598 -32.776371 34.151501 -18.069328 134.10033
850000000 -5.0183449 -167.54936 23.813557 103.26698 -32.708023 32.626816 -18.255039 133.97279
860000000 -5.0046444 -167.68933 23.735884 102.82993 -32.715439 34.038158 -18.365278 133.99275
870000000 -4.9705825 -167.87138 23.668251 102.41453 -32.660599 34.519222 -18.571117 134.19287
880000000 -4.9635148 -168.1866 23.583193 101.95583 -32.402512 35.274128 -18.685547 134.67046
890000000 -4.9390893 -168.37573 23.510086 101.56676 -32.501324 35.18689 -18.800941 134.18109
900000000 -4.9389677 -168.63779 23.432446 101.18816 -32.392235 34.145241 -18.964746 134.54436
910000000 -4.9266505 -168.79791 23.355162 100.77863 -32.452854 34.411938 -19.131336 134.65331
920000000 -4.9026847 -168.9976 23.288908 100.40073 -32.378258 34.583805 -19.278624 134.31213
930000000 -4.8952909 -169.15672 23.219645 100.01036 -32.377563 36.040565 -19.414747 134.37584
940000000 -4.8833623 -169.41768 23.151083 99.58744 -32.254105 35.063725 -19.603569 134.90215
950000000 -4.8568358 -169.65662 23.06719 99.147438 -32.187283 37.015465 -19.824112 135.0527
960000000 -4.8538051 -169.93544 23.009281 98.721199 -32.250896 35.335205 -19.912783 135.04056
970000000 -4.8466353 -170.18423 22.929159 98.359077 -32.228104 35.897343 -20.074038 135.21597
980000000 -4.8432465 -170.35448 22.865734 97.986794 -32.106598 36.877266 -20.223463 135.03615
990000000 -4.833591 -170.64415 22.786924 97.585503 -32.047649 36.309319 -20.37767 136.32112
1000000000 -4.8103437 -172.66341 22.730904 97.185417 -31.785118 36.452919 -20.559717 137.57011
1010000000 -4.8221788 -171.03984 22.660381 96.795876 -31.822197 37.351921 -20.643084 136.26472
1020000000 -4.8045034 -171.27026 22.57885 96.391121 -31.86718 37.221703 -20.800406 136.18839
1030000000 -4.7885604 -171.48331 22.517326 96.025009 -31.875351 38.225296 -21.058487 136.93457
1040000000 -4.7716641 -171.71391 22.454016 95.665947 -31.5317 37.206451 -21.108952 137.338
1050000000 -4.7778039 -171.89384 22.38385 95.312485 -31.693062 37.428284 -21.292519 137.29108
1060000000 -4.7758441 -172.00854 22.311674 95.039009 -31.650145 38.351204 -21.454283 137.49234
1070000000 -4.7715826 -172.24985 22.246973 94.602531 -31.474489 37.501007 -21.689926 138.09213
1080000000 -4.7563825 -172.43204 22.178312 94.27668 -31.58119 38.034733 -21.815687 137.83588
1090000000 -4.7507806 -172.7542 22.105301 93.909012 -31.477024 37.35725 -22.029812 138.52687
1100000000 -4.745223 -172.7896 22.052238 93.551964 -31.338459 38.233315 -22.166809 138.53624
1110000000 -4.7379923 -172.93456 21.992788 93.203598 -31.346523 38.577682 -22.330784 139.58636
1120000000 -4.7301154 -173.23351 21.92638 92.897415 -31.2988 37.806557 -22.509268 139.53596
1130000000 -4.7348957 -173.41975 21.856098 92.542854 -31.207817 39.449841 -22.746777 140.1225
1140000000 -4.7343407 -173.67336 21.797243 92.263901 -31.170568 39.052322 -22.850763 140.86711
1150000000 -4.7189846 -173.87701 21.732304 91.855026 -31.27935 38.726177 -23.077774 141.1891
1160000000 -4.7152462 -173.97998 21.673559 91.474098 -31.095108 39.714104 -23.238638 141.51018
1170000000 -4.710577 -174.16829 21.609316 91.168716 -31.04162 39.137722 -23.352732 142.16266
1180000000 -4.7037902 -174.39168 21.550901 90.828781 -31.001238 38.866726 -23.461439 142.68253
1190000000 -4.7049785 -174.63455 21.48752 90.530907 -31.044725 39.927895 -23.76018 143.54813
1200000000 -4.6882524 -174.7972 21.423271 90.152695 -30.909374 39.444538 -23.841808 144.21284
1210000000 -4.6840882 -175.02989 21.368422 89.879868 -30.765131 39.974594 -24.046516 144.21625
1220000000 -4.6856937 -175.13487 21.303699 89.53064 -30.731373 39.424187 -24.098589 145.66043
1230000000 -4.6823063 -175.3517 21.247709 89.215538 -30.691332 39.947788 -24.406874 145.52596
1240000000 -4.6853828 -175.4467 21.189793 88.923706 -30.546928 39.53083 -24.604641 146.54671
1250000000 -4.6726308 -175.66435 21.134714 88.59993 -30.508884 39.734215 -24.626541 147.43623
1260000000 -4.6691542 -175.87851 21.074545 88.250427 -30.494547 39.385029 -24.877876 147.79646
1270000000 -4.6596828 -176.11192 21.017509 87.949615 -30.528238 40.372845 -24.930193 149.7252
1280000000 -4.6625228 -176.3186 20.955006 87.617722 -30.398569 40.913651 -25.201107 150.21062
1290000000 -4.6546841 -176.49033 20.89954 87.305496 -30.373425 40.530334 -25.322626 151.34291
1300000000 -4.6487551 -176.57843 20.845133 87.021248 -30.247299 40.648621 -25.415388 151.72446
1310000000 -4.6438117 -176.8257 20.789415 86.690948 -30.169823 40.639732 -25.581259 152.94261
1320000000 -4.6495667 -177.02278 20.72884 86.385117 -30.168114 41.583122 -25.807306 153.4353
1330000000 -4.6404243 -177.23438 20.681446 86.081146 -30.214371 39.804974 -25.9604 154.16046
1340000000 -4.6390095 -177.40813 20.622143 85.814392 -30.020081 41.631142 -25.9622 155.5898
1350000000 -4.6449356 -177.6205 20.564188 85.507721 -30.135105 40.066219 -26.253084 156.67552
1360000000 -4.6423903 -177.77034 20.518703 85.220589 -29.994473 41.314102 -26.412678 156.46953
1370000000 -4.6252804 -177.83124 20.456463 84.903809 -29.872478 42.042599 -26.385168 157.66675
1380000000 -4.619318 -178.04451 20.404577 84.613892 -29.80958 42.325623 -26.62886 159.23805
1390000000 -4.6136322 -178.22955 20.360077 84.278076 -29.847549 41.562592 -26.63323 159.32123
1400000000 -4.631794 -178.54578 20.296736 83.976089 -29.76244 40.935894 -26.743654 161.01363
1410000000 -4.6220665 -178.63483 20.245512 83.674469 -29.77973 41.108891 -26.903557 162.17435
1420000000 -4.6251369 -178.90083 20.186325 83.460335 -29.653404 41.819576 -27.001225 163.44931
1430000000 -4.6244302 -179.06393 20.136459 83.106117 -29.675665 41.897675 -27.195774 164.14293
1440000000 -4.6203127 -179.21642 20.089119 82.827858 -29.728968 40.984333 -27.267231 166.02988
1450000000 -4.6222734 -179.36183 20.039625 82.556229 -29.686262 42.052914 -27.320829 166.05811
1460000000 -4.6115704 -179.59447 19.98772 82.225838 -29.632229 41.712868 -27.35479 168.01805
1470000000 -4.600893 -179.80573 19.937319 81.958954 -29.588961 40.745483 -27.649023 170.09853
1480000000 -4.6112208 179.95665 19.88006 81.673317 -29.493656 41.767078 -27.711451 171.08876
1490000000 -4.6155767 179.81544 19.82864 81.392662 -29.485916 41.781948 -27.633051 171.74571
1500000000 -4.6107097 179.65303 19.777174 81.080215 -29.307951 41.315758 -27.527851 172.93463
1510000000 -4.6228051 179.52176 19.724398 80.848572 -29.404455 41.137817 -27.877516 174.13994
1520000000 -4.6145544 179.42291 19.680155 80.595055 -29.325689 41.281406 -27.872475 175.37675
1530000000 -4.6174879 179.20215 19.627184 80.295189 -29.294601 41.931519 -27.741079 177.70752
1540000000 -4.6016703 178.93088 19.584091 79.997536 -29.257008 41.776474 -27.923044 178.17192
1550000000 -4.6049542 178.83324 19.533972 79.668396 -29.059387 41.277802 -28.140265 179.74367
1560000000 -4.6016703 178.59189 19.491917 79.427422 -29.174395 41.620785 -28.000185 -179.22299
1570000000 -4.6127701 178.39972 19.433395 79.169586 -29.001623 42.110672 -27.953596 -176.87927
1580000000 -4.6139722 178.22748 19.391024 78.858315 -28.990633 41.575825 -27.899961 -175.52896
1590000000 -4.6064858 178.12823 19.339964 78.644722 -28.870377 42.32246 -28.051544 -174.41638
1600000000 -4.6137977 177.98265 19.28791 78.335022 -28.940657 41.795544 -28.018358 -173.35463
1610000000 -4.5881224 177.79982 19.247885 78.071045 -28.836103 41.715881 -28.054497 -171.58768
1620000000 -4.5946431 177.54149 19.205069 77.795807 -28.801004 40.727188 -27.919983 -171.10303
1630000000 -4.5929713 177.39346 19.158554 77.524849 -28.860817 41.849571 -27.764988 -168.49445
1640000000 -4.5984411 177.19429 19.112179 77.245201 -28.600235 41.671982 -27.829819 -168.47064
1650000000 -4.6059065 177.03954 19.062851 76.998116 -28.620621 41.909161 -27.64657 -167.40399
1660000000 -4.6099243 177.01151 19.013634 76.741417 -28.674374 41.584656 -27.642542 -166.69209
1670000000 -4.5944762 176.72609 18.981052 76.490837 -28.540539 41.571888 -27.663403 -164.4651
1680000000 -4.5971932 176.51596 18.936632 76.170349 -28.462582 41.640797 -27.474634 -163.35947
1690000000 -4.5910282 176.33751 18.886854 75.957191 -28.580437 41.485096 -27.520693 -162.46675
1700000000 -4.5946455 176.05713 18.84321 75.605766 -28.49016 42.218216 -27.54273 -160.6911
1710000000 -4.6116595 175.88388 18.795654 75.346588 -28.428228 41.691086 -27.511475 -161.36098
1720000000 -4.6003752 175.78525 18.751537 75.105118 -28.401833 41.844864 -27.2384 -160.33557
1730000000 -4.6057601 175.57399 18.703882 74.843224 -28.341635 41.864594 -27.231392 -157.4563
1740000000 -4.6042285 175.42839 18.667847 74.575844 -28.516615 42.31916 -27.187092 -157.88904
1750000000 -4.6063418 175.15222 18.618305 74.241768 -28.204807 42.247051 -27.200405 -156.78477
1760000000 -4.6062083 175.09146 18.574518 74.087685 -28.180576 41.740959 -27.083572 -155.72319
1770000000 -4.5968781 174.85146 18.528818 73.792496 -28.146704 41.316666 -26.94733 -155.18344
1780000000 -4.6017179 174.60883 18.486584 73.496048 -28.220518 41.946358 -26.911098 -153.91505
1790000000 -4.609313 174.4127 18.440172 73.254677 -28.084801 41.30323 -26.71752 -153.75505
1800000000 -4.6077085 174.32582 18.401333 73.046844 -28.020874 41.711784 -26.745684 -152.52664
1810000000 -4.6183906 174.11668 18.358513 72.788307 -27.948408 41.265156 -26.677017 -151.29968
1820000000 -4.6105995 174.00139 18.318146 72.498665 -27.90209 40.474277 -26.649591 -150.46387
1830000000 -4.592514 173.75586 18.280142 72.263214 -27.915394 40.82365 -26.28393 -149.65549
1840000000 -4.5990496 173.61511 18.233255 71.958694 -27.955601 42.345329 -26.384123 -150.21849
1850000000 -4.6049352 173.36464 18.193081 71.71067 -27.848734 41.037537 -26.125868 -149.51572
1860000000 -4.5937104 173.24107 18.151857 71.387016 -27.918869 40.888542 -25.922508 -148.80356
1870000000 -4.6055884 173.09032 18.105366 71.178596 -27.777328 41.590336 -25.878166 -148.07433
1880000000 -4.6105924 172.90395 18.059832 70.913162 -27.715836 41.408524 -25.884182 -146.94244
1890000000 -4.6094661 172.72485 18.026121 70.66304 -27.737354 40.847198 -25.750212 -146.44669
1900000000 -4.6174946 172.51454 17.980516 70.420181 -27.63693 41.123188 -25.624311 -145.72353
1910000000 -4.5987639 172.32896 17.949642 70.132011 -27.612274 40.935673 -25.494358 -146.28685
1920000000 -4.5887756 172.15468 17.902109 69.866615 -27.567629 40.408058 -25.295519 -145.07283
1930000000 -4.6043787 171.94374 17.858727 69.613243 -27.503897 41.125214 -25.309277 -145.2415
1940000000 -4.6139593 171.7187 17.813593 69.37793 -27.54763 41.512959 -25.220974 -144.53375
1950000000 -4.624434 171.61938 17.775055 69.164749 -27.532423 40.888187 -25.021187 -143.54506
1960000000 -4.6152353 171.45972 17.743162 68.920448 -27.482491 41.083286 -25.030823 -142.80038
1970000000 -4.6092591 171.32562 17.697186 68.648392 -27.309227 40.903522 -25.019588 -142.46126
1980000000 -4.6062307 171.13522 17.663952 68.388351 -27.312086 39.787033 -24.832745 -142.28395
1990000000 -4.6051292 170.95999 17.621531 68.163948 -27.38765 40.696392 -24.651321 -142.30969
2000000000 -4.6387014 170.72763 17.580681 67.853439 -27.37903 40.56395 -24.54274 -142.37657
2010000000 -4.6219678 170.50305 17.539204 67.644028 -27.211208 40.128395 -24.494022 -141.46521
2020000000 -4.6157827 170.39696 17.502729 67.385185 -27.22444 40.222698 -24.433245 -140.43022
2030000000 -4.6266503 170.25394 17.461908 67.14045 -27.150633 40.223396 -24.317621 -141.21645
2040000000 -4.6091242 170.0739 17.428167 66.931076 -27.232609 40.321426 -24.067608 -140.98824
2050000000 -4.6174703 169.93614 17.393467 66.687561 -27.184933 40.632019 -24.002119 -140.3215
2060000000 -4.6055436 169.71027 17.356203 66.389732 -27.103043 39.287025 -23.951021 -139.86693
2070000000 -4.6089497 169.35844 17.319063 66.106781 -27.098171 40.053066 -23.786079 -139.34413
2080000000 -4.6044917 169.23259 17.279224 65.873161 -26.963663 39.710415 -23.706842 -139.85402
2090000000 -4.6182241 169.09456 17.236879 65.683067 -27.080229 40.374256 -23.591459 -139.6445
2100000000 -4.6229839 168.93648 17.20154 65.39933 -26.941841 40.228443 -23.520941 -139.61012
2110000000 -4.6190362 168.65132 17.176723 65.161942 -26.838057 39.932652 -23.526608 -139.43614
2120000000 -4.6218553 168.53075 17.130365 64.952019 -27.04929 39.544968 -23.401407 -139.02995
2130000000 -4.5965991 168.27747 17.101076 64.629074 -26.80065 39.593037 -23.30439 -139.04147
