# Hz S  dB   R 50
10000000 -6.4283738 -82.334908 34.944839 147.21741 -35.530102 30.585098 -6.4993277 -106.1585
20000000 -8.9127808 -114.30505 32.471886 152.11516 -35.44735 17.156582 -7.6504107 -140.14978
30000000 -10.037193 -130.15591 31.468681 156.256 -35.062023 15.244438 -8.0072584 -154.27176
40000000 -10.457388 -138.50844 31.006964 158.54533 -34.926537 14.087735 -8.1355295 -162.22125
50000000 -10.645242 -143.79958 30.769768 159.84613 -35.049892 7.3897848 -8.2133322 -167.81387
60000000 -10.712548 -147.18936 30.604542 160.29825 -34.284695 5.7761574 -8.243825 -172.23608
70000000 -10.759232 -148.67619 30.503834 160.28586 -34.877975 8.3508692 -8.3094435 -175.07549
80000000 -10.689337 -149.99304 30.39938 159.95206 -34.621227 7.4871407 -8.4060383 -177.68549
90000000 -10.609071 -150.82976 30.326881 159.39404 -35.000584 8.0174913 -8.4232979 179.93977
100000000 -10.514007 -151.16301 30.258467 158.78104 -34.991547 5.5692129 -8.4873896 177.8918
110000000 -10.410801 -151.23624 30.189342 157.98167 -34.868568 8.3493719 -8.5447044 176.12288
120000000 -10.257203 -151.43816 30.12252 157.09813 -34.903221 9.1432629 -8.6136723 174.66084
130000000 -10.106427 -151.41019 30.05098 156.13681 -34.966969 8.1433601 -8.6639633 173.02998
140000000 -9.9848204 -151.47929 29.983532 155.14806 -34.933784 7.0411677 -8.7557802 171.50122
150000000 -9.8079567 -151.38095 29.913073 154.16499 -34.793541 7.1835237 -8.8400803 170.24884
160000000 -9.6908598 -151.19853 29.858694 153.14537 -34.994156 8.4919415 -8.9219685 169.01784
170000000 -9.5266695 -151.40021 29.782612 152.14859 -35.006668 8.7077389 -8.9743595 167.81351
180000000 -9.3493071 -151.37387 29.702984 151.04477 -35.07058 8.4811621 -9.0357542 166.44891
190000000 -9.2046175 -151.17644 29.642874 149.92314 -34.914505 8.4173546 -9.0950012 165.55171
200000000 -9.060173 -151.37054 29.557121 148.95734 -34.91338 8.4172783 -9.1723719 164.42407
210000000 -8.8895216 -151.32153 29.481962 147.89514 -35.200432 8.096447 -9.3011131 163.28221
220000000 -8.7204132 -151.29884 29.405848 146.77579 -34.958488 8.8755999 -9.3894386 162.28302
230000000 -8.6079998 -151.48444 29.32163 145.81355 -35.048191 9.8809023 -9.4545021 161.43852
240000000 -8.4592581 -151.67813 29.239447 144.75438 -34.961006 10.512112 -9.5639238 160.71469
250000000 -8.3348417 -151.7157 29.148321 143.72345 -35.088634 10.724761 -9.6583576 159.6277
260000000 -8.2173843 -151.84264 29.075539 142.73157 -34.953121 16.615215 -9.7388229 158.54111
270000000 -8.0608568 -152.15953 28.986902 141.70349 -35.114288 12.619675 -9.8743963 157.89653
280000000 -7.902698 -152.22685 28.896935 140.70341 -34.518486 11.968043 -9.9905634 157.24315
290000000 -7.7982154 -152.22923 28.802753 139.72188 -34.743927 13.176781 -10.068641 156.75386
300000000 -7.6608496 -152.55417 28.709879 138.76193 -34.635078 13.638198 -10.137217 155.89189
310000000 -7.5293956 -152.73199 28.620287 137.76001 -34.526783 15.141322 -10.321215 154.98988
320000000 -7.4135561 -153.10458 28.531572 136.8159 -35.024113 14.907069 -10.365199 154.11351
330000000 -7.3423696 -153.37691 28.436172 135.98476 -35.151875 16.040787 -10.515618 153.61971
340000000 -7.243423 -153.8459 28.343798 135.04927 -34.797554 17.329048 -10.585759 153.11354
350000000 -7.1357207 -153.98479 28.246716 134.15889 -34.398399 18.679707 -10.684313 152.37616
360000000 -7.0260434 -154.2973 28.159224 133.21664 -34.835152 15.818942 -10.812436 151.81526
370000000 -6.9428682 -154.6544 28.048145 132.35841 -34.665211 17.137741 -10.968262 151.12614
380000000 -6.8466606 -154.81384 27.9669 131.51823 -35.083736 16.113295 -11.058011 150.69211
390000000 -6.7631993 -154.95067 27.873024 130.63947 -34.605961 18.999277 -11.186659 150.37939
400000000 -6.6788545 -155.32985 27.77767 129.83638 -34.64798 18.536882 -11.28712 149.84375
410000000 -6.5940604 -155.7493 27.675123 129.00652 -34.657917 18.670258 -11.3965 149.35251
420000000 -6.5158582 -156.09795 27.578108 128.26257 -34.957031 19.989189 -11.49384 149.08907
430000000 -6.4624023 -156.43114 27.476019 127.53547 -34.588573 20.867769 -11.630786 148.54469
440000000 -6.3677993 -156.67776 27.382061 126.67375 -34.468224 17.693382 -11.742131 148.08919
450000000 -6.3049202 -157.01555 27.293348 125.89599 -34.649265 20.097906 -11.863946 147.45457
460000000 -6.248693 -157.33594 27.188066 125.1806 -34.757954 21.099855 -11.992139 147.26425
470000000 -6.173842 -157.6236 27.099619 124.42318 -34.607719 21.427233 -12.075621 147.01686
480000000 -6.1260238 -157.94273 26.99519 123.72964 -34.850479 21.629232 -12.216704 146.46935
490000000 -6.0529137 -158.20549 26.907873 122.9864 -34.644405 23.468266 -12.341471 146.08667
500000000 -6.0261197 -158.53612 26.816147 122.29633 -34.406666 23.096165 -12.43308 145.79121
510000000 -5.945581 -158.78806 26.711655 121.60955 -34.584248 24.548475 -12.569634 145.49692
520000000 -5.8944049 -159.20799 26.630413 120.99973 -34.469627 24.710121 -12.719765 145.32127
530000000 -5.8326859 -159.47911 26.529184 120.25465 -34.494904 22.695467 -12.813328 144.95757
540000000 -5.7923527 -159.82736 26.435455 119.60619 -34.286938 24.795353 -12.924062 144.60989
550000000 -5.7552013 -160.15965 26.336149 118.97666 -33.977467 25.870667 -13.03164 144.3275
560000000 -5.7051792 -160.3183 26.238808 118.31464 -34.478344 25.709476 -13.145651 144.00713
570000000 -5.6630054 -160.85069 26.158665 117.68643 -34.118519 25.258474 -13.260636 144.02229
580000000 -5.6171637 -160.80919 26.063848 117.05427 -34.136559 27.463364 -13.345315 143.60455
590000000 -5.5585098 -161.34741 25.978918 116.46653 -34.365101 27.129004 -13.465406 143.39417
600000000 -5.5301876 -161.533 25.891787 115.82745 -34.236156 28.108929 -13.600574 143.17773
610000000 -5.4905629 -161.8219 25.787504 115.28111 -33.999386 26.082657 -13.730765 143.24377
620000000 -5.4684868 -162.17683 25.7001 114.74021 -34.108097 29.976057 -13.839465 143.05017
630000000 -5.4130201 -162.4594 25.609324 114.08734 -34.15221 28.249409 -13.961113 142.57742
640000000 -5.3814549 -162.86363 25.504639 113.56746 -33.983608 29.668207 -14.154518 142.99622
650000000 -5.365201 -162.98021 25.431017 113.03135 -33.830746 28.448492 -14.223771 142.93056
660000000 -5.3339624 -163.42566 25.339067 112.49405 -33.71439 30.634136 -14.343464 142.67949
670000000 -5.2861052 -163.53835 25.258677 111.94218 -33.855156 30.968195 -14.445804 142.66846
680000000 -5.2673125 -163.92531 25.174831 111.38787 -33.52718 30.009386 -14.557762 142.49321
690000000 -5.2468352 -164.15727 25.085194 110.9078 -33.67421 30.463112 -14.670841 142.62517
700000000 -5.2335577 -164.41205 25.00374 110.39022 -33.410778 32.449661 -14.780942 142.46577
710000000 -5.1907415 -164.70879 24.909132 109.79545 -33.428898 29.544886 -14.903592 142.50131
720000000 -5.165709 -164.92416 24.84083 109.2864 -33.43697 32.21571 -14.975954 142.09326
730000000 -5.1468058 -165.16252 24.751629 108.81879 -33.372501 32.192249 -15.111495 142.51471
740000000 -5.1138697 -165.44217 24.665579 108.26685 -33.312874 31.820421 -15.209174 141.95212
750000000 -5.091867 -165.65407 24.580866 107.84222 -33.110825 32.406147 -15.343873 142.22466
760000000 -5.0592718 -165.9584 24.503826 107.34016 -33.332901 32.849167 -15.466184 141.98567
770000000 -5.0405822 -166.216 24.424366 106.84682 -32.964142 35.291904 -15.582762 142.16245
780000000 -5.0358124 -166.489 24.336851 106.4062 -33.175587 32.849651 -15.684054 142.226
790000000 -5.0068097 -166.69798 24.256138 105.94595 -33.026115 33.941711 -15.749259 142.25586
800000000 -5.010654 -166.98486 24.17038 105.48579 -32.977783 34.7743 -15.877257 142.12358
810000000 -4.9754186 -167.17264 24.099682 105.00473 -32.948444 34.561092 -15.971891 142.27835
820000000 -4.9511485 -167.47499 24.023251 104.56017 -33.038128 34.811897 -16.128405 142.34384
830000000 -4.9457335 -167.78522 23.937542 104.12831 -32.63295 34.520508 -16.176508 142.3707
840000000 -4.9416199 -167.95828 23.858727 103.69806 -32.750896 35.205635 -16.336683 142.32092
850000000 -4.9214492 -168.24345 23.780655 103.23909 -32.745552 35.339069 -16.467276 142.62807
860000000 -4.8996816 -168.35916 23.705776 102.81252 -32.457695 35.616215 -16.526657 142.56636
870000000 -4.8835397 -168.62425 23.635 102.41064 -32.61866 35.987057 -16.65638 142.74275
880000000 -4.8655534 -168.77722 23.554241 101.9817 -32.363651 37.786278 -16.782564 143.0968
890000000 -4.8551817 -169.09799 23.482519 101.54605 -32.445461 36.851727 -16.844145 143.24916
900000000 -4.8457575 -169.31056 23.400639 101.23168 -32.237823 36.954533 -16.955471 143.40012
910000000 -4.8289075 -169.49002 23.327354 100.78442 -32.348507 36.486843 -17.074892 143.10925
920000000 -4.8040977 -169.75398 23.25683 100.39423 -32.392578 37.285759 -17.209673 143.38957
930000000 -4.8182073 -169.82419 23.188229 100.05071 -32.246704 37.409134 -17.280655 143.46007
940000000 -4.7892199 -170.11148 23.118666 99.610802 -32.214279 37.413712 -17.388783 143.72743
950000000 -4.7834697 -170.40099 23.035461 99.16835 -32.097393 37.33696 -17.561337 143.52701
960000000 -4.7777624 -170.59293 22.976645 98.760902 -32.116272 37.836361 -17.620747 144.07245
970000000 -4.7535009 -170.83054 22.89595 98.414268 -32.044441 38.263542 -17.758286 144.30656
980000000 -4.7594008 -171.01582 22.831215 98.022263 -31.959797 38.370331 -17.809925 144.44937
990000000 -4.7380219 -171.29515 22.755032 97.653152 -32.099758 39.743607 -17.936291 144.88957
1000000000 -4.7299223 -173.37367 22.696012 97.229889 -31.882378 38.871143 -18.051933 146.74858
1010000000 -4.7339678 -171.63808 22.625771 96.858582 -31.645468 38.071388 -18.104822 145.27635
1020000000 -4.7128367 -171.94193 22.543753 96.449387 -31.686527 39.136448 -18.27478 145.45038
1030000000 -4.7029409 -172.11778 22.482592 96.097168 -31.565977 38.964664 -18.375322 145.73779
1040000000 -4.6992612 -172.36087 22.417841 95.736778 -31.690704 39.822174 -18.475134 146.04456
1050000000 -4.6937237 -172.59091 22.345636 95.391136 -31.383242 40.203918 -18.556986 146.28438
1060000000 -4.6946616 -172.78748 22.280853 95.079857 -31.452971 40.374153 -18.645296 146.71902
1070000000 -4.6974134 -172.87766 22.211 94.694466 -31.369581 39.18998 -18.77413 146.90692
1080000000 -4.6829371 -173.08971 22.138546 94.358681 -31.462177 40.123646 -18.856035 147.03362
1090000000 -4.6648479 -173.33417 22.074425 94.009163 -31.401802 39.282757 -18.997831 147.63892
1100000000 -4.6684732 -173.44072 22.020351 93.651772 -31.229868 41.687527 -19.091988 147.59245
1110000000 -4.6608257 -173.64317 21.95841 93.298485 -31.173729 40.636772 -19.214163 147.95308
1120000000 -4.6631684 -173.94168 21.892694 92.999191 -31.057653 41.014454 -19.33824 148.32098
1130000000 -4.6511245 -174.12083 21.82267 92.642105 -30.837421 42.438202 -19.454773 148.70953
1140000000 -4.6520233 -174.34277 21.762169 92.364525 -30.971291 40.895618 -19.494598 148.95888
1150000000 -4.6410151 -174.56248 21.696476 91.943199 -30.773876 39.878204 -19.60673 149.33403
1160000000 -4.6282887 -174.65364 21.640074 91.595543 -30.894211 40.853668 -19.755669 149.98355
1170000000 -4.6293244 -174.8049 21.575907 91.28566 -30.870382 40.895515 -19.830027 149.90718
1180000000 -4.6288576 -175.06052 21.516083 90.939117 -30.681293 41.450989 -19.920401 150.43144
1190000000 -4.6248636 -175.24985 21.451916 90.694237 -30.610956 41.61647 -20.013914 150.87418
1200000000 -4.6174693 -175.42975 21.387718 90.290588 -30.609274 41.903313 -20.171768 151.29004
1210000000 -4.6118121 -175.62393 21.332563 90.024178 -30.612305 41.443272 -20.249378 151.6947
1220000000 -4.6203141 -175.80376 21.267969 89.675186 -30.620663 41.784893 -20.273043 152.0658
1230000000 -4.6068215 -175.98369 21.21265 89.343597 -30.528921 41.499706 -20.432455 152.71091
1240000000 -4.598042 -176.03456 21.159527 89.062637 -30.356798 43.008446 -20.518944 152.97577
1250000000 -4.5959401 -176.34782 21.101526 88.748711 -30.325747 41.823978 -20.592205 153.19994
1260000000 -4.6006193 -176.53116 21.039637 88.410011 -30.247778 41.681618 -20.670105 153.56833
1270000000 -4.5863395 -176.69531 20.983099 88.111923 -30.159893 41.554245 -20.674601 154.32352
1280000000 -4.5869427 -176.90585 20.918747 87.786758 -30.164761 42.194271 -20.789045 155.01277
1290000000 -4.5918999 -177.14093 20.861111 87.467049 -30.184307 41.773373 -20.867352 155.5898
1300000000 -4.5887728 -177.27216 20.806572 87.193314 -30.013044 41.816135 -20.953253 155.46283
1310000000 -4.5755849 -177.45792 20.754509 86.842285 -29.96384 41.911373 -21.078676 156.14566
1320000000 -4.571991 -177.61592 20.695543 86.574974 -30.128204 42.0327 -21.100466 156.44766
1330000000 -4.5761366 -177.80443 20.645302 86.284393 -29.965584 42.042877 -21.201914 156.81523
1340000000 -4.5733428 -178.05505 20.586079 85.980888 -29.880711 42.605534 -21.299347 157.88129
1350000000 -4.5688787 -178.1899 20.530506 85.698044 -29.688379 42.024475 -21.398781 157.72382
1360000000 -4.5717082 -178.35165 20.482161 85.412476 -29.742189 42.357178 -21.502012 158.36806
1370000000 -4.5592265 -178.44817 20.41674 85.124748 -29.72806 42.04007 -21.501255 158.46101
1380000000 -4.5633512 -178.76227 20.369932 84.798668 -29.63345 41.832973 -21.63805 159.26836
1390000000 -4.5479794 -178.86353 20.324652 84.499168 -29.661018 42.00346 -21.671911 159.43942
1400000000 -4.5644083 -179.13455 20.260975 84.188637 -29.699188 42.547497 -21.713886 160.67943
1410000000 -4.5554504 -179.2726 20.213243 83.893158 -29.652262 42.229511 -21.836439 160.6337
1420000000 -4.5606117 -179.5089 20.154568 83.650635 -29.485983 42.746609 -21.805115 161.39508
1430000000 -4.5605702 -179.69054 20.101627 83.31929 -29.459486 42.174526 -21.927982 162.35287
1440000000 -4.5568981 -179.87389 20.05707 83.048515 -29.451168 42.894642 -21.966028 162.3632
1450000000 -4.5569167 179.97797 20.003326 82.779205 -29.307535 42.376839 -22.031439 163.07214
1460000000 -4.5473733 179.79514 19.948061 82.444427 -29.358267 43.606133 -22.086849 163.5598
1470000000 -4.5418205 179.55595 19.90159 82.188492 -29.270613 42.915516 -22.171446 164.30406
1480000000 -4.5449214 179.35536 19.844313 81.912865 -29.330925 43.11824 -22.243393 164.60266
1490000000 -4.5458474 179.3029 19.791922 81.637947 -29.147707 42.483704 -22.207899 164.96198
1500000000 -4.5629554 179.01942 19.737833 81.334244 -29.099737 42.181499 -22.225554 165.07443
1510000000 -4.55198 178.92107 19.686754 81.064438 -29.055429 43.255314 -22.327944 165.88748
1520000000 -4.5529995 178.78906 19.644903 80.83065 -28.861217 43.441399 -22.420984 166.77522
1530000000 -4.5444326 178.58516 19.59317 80.528564 -28.950111 42.439671 -22.364 167.10385
1540000000 -4.5340877 178.39536 19.551336 80.240189 -29.010479 43.300064 -22.464914 168.02806
1550000000 -4.5399337 178.10779 19.497061 79.941208 -28.990469 43.167439 -22.543653 168.56952
1560000000 -4.5399451 177.99384 19.454975 79.655556 -28.833801 43.408005 -22.511419 168.91045
1570000000 -4.5463824 177.87042 19.396782 79.425056 -28.700109 42.467434 -22.542616 169.45337
1580000000 -4.5622883 177.59952 19.353783 79.120857 -28.873814 42.37352 -22.651794 170.36569
1590000000 -4.54704 177.51944 19.303385 78.905693 -28.612698 43.209126 -22.570992 170.76407
1600000000 -4.554194 177.32315 19.253599 78.607025 -28.616543 43.941891 -22.726315 171.68213
1610000000 -4.5336528 177.18617 19.212793 78.326637 -28.562883 42.642639 -22.699202 171.78839
1620000000 -4.5294104 176.99178 19.173792 78.069313 -28.4785 42.991814 -22.619633 172.40475
1630000000 -4.5482907 176.81879 19.121243 77.799286 -28.557955 42.198055 -22.688234 173.3654
1640000000 -4.5483088 176.60287 19.079926 77.499817 -28.446341 42.394554 -22.635296 173.45581
1650000000 -4.5525002 176.43655 19.030033 77.285965 -28.472492 43.499825 -22.693453 174.1582
1660000000 -4.5470457 176.37688 18.981409 77.022263 -28.346067 42.823936 -22.6497 174.32858
1670000000 -4.5387764 176.16161 18.948027 76.768448 -28.268515 42.654667 -22.737347 175.64812
1680000000 -4.5305696 175.8924 18.90497 76.453133 -28.18428 41.934536 -22.667376 176.0528
1690000000 -4.5287933 175.73421 18.855383 76.246506 -28.269295 42.992805 -22.725685 176.80351
1700000000 -4.5445256 175.47269 18.810226 75.924187 -28.178049 42.613911 -22.767321 176.96581
1710000000 -4.5386667 175.31372 18.761232 75.659714 -28.203352 42.958065 -22.786186 177.0858
1720000000 -4.5391903 175.20697 18.714884 75.409286 -28.049425 42.870167 -22.820374 177.23698
1730000000 -4.5431933 174.99983 18.676336 75.149872 -28.175848 43.450817 -22.873005 178.9704
1740000000 -4.5411582 174.86243 18.635998 74.895309 -27.925146 43.055153 -22.83428 179.83469
1750000000 -4.5480576 174.65675 18.581696 74.582146 -27.876383 42.692028 -22.774651 179.62816
1760000000 -4.5274353 174.46892 18.54476 74.376114 -27.93836 42.667004 -22.745932 -179.68095
1770000000 -4.544661 174.22485 18.493443 74.113159 -27.915369 42.350643 -22.786808 -179.42984
1780000000 -4.5507088 174.11804 18.451273 73.833359 -27.845467 41.716022 -22.726173 -179.38681
1790000000 -4.5466022 173.8958 18.403955 73.597404 -27.814898 42.510506 -22.694647 -178.10489
1800000000 -4.5508099 173.72145 18.365299 73.367592 -27.758844 42.61248 -22.769094 -177.40366
1810000000 -4.5601974 173.52051 18.323235 73.145668 -27.825102 42.711723 -22.742203 -176.75435
1820000000 -4.5517035 173.3864 18.283646 72.821236 -27.676975 43.045197 -22.757423 -176.03654
1830000000 -4.545011 173.21204 18.247892 72.573822 -27.567787 42.159981 -22.661493 -175.18034
1840000000 -4.5443993 173.01019 18.204365 72.308548 -27.745489 42.705132 -22.631222 -175.67136
1850000000 -4.5435867 172.79562 18.158792 72.061676 -27.66844 42.577427 -22.586103 -175.19066
1860000000 -4.5353403 172.57382 18.119473 71.722206 -27.532871 42.316242 -22.561684 -174.11118
1870000000 -4.5574975 172.48207 18.074173 71.523911 -27.412207 42.325695 -22.49353 -174.71407
1880000000 -4.5614262 172.39705 18.027252 71.285461 -27.515722 42.357323 -22.47854 -173.237
1890000000 -4.556324 172.1375 17.997366 71.025932 -27.369219 42.526981 -22.554508 -173.37077
1900000000 -4.5540266 171.98692 17.944162 70.783951 -27.35828 41.942902 -22.477625 -172.22141
1910000000 -4.5351815 171.81816 17.913033 70.477753 -27.346653 42.130001 -22.394199 -172.1127
1920000000 -4.5492325 171.53828 17.870947 70.217896 -27.315865 42.384987 -22.314787 -170.99942
1930000000 -4.5607018 171.38922 17.824787 69.974724 -27.342291 42.070026 -22.355474 -171.30542
1940000000 -4.5602646 171.20204 17.780306 69.763252 -27.241068 42.318314 -22.325146 -170.94279
1950000000 -4.5572991 171.07275 17.743467 69.548447 -27.101423 42.210232 -22.316914 -170.36302
1960000000 -4.5608087 170.90594 17.707144 69.287956 -27.163231 41.685806 -22.349691 -169.97795
1970000000 -4.5592489 170.72481 17.669678 69.022224 -27.091932 42.188534 -22.334925 -169.40576
1980000000 -4.5553398 170.5424 17.6266 68.744308 -27.167904 41.93029 -22.171846 -168.62689
1990000000 -4.5488472 170.34163 17.587418 68.544907 -27.051546 41.659885 -22.181618 -168.97479
2000000000 -4.5916829 170.11621 17.545092 68.249413 -26.977209 41.701752 -22.015362 -168.62364
2010000000 -4.5482454 169.94394 17.510122 68.024338 -26.966406 41.681126 -22.021011 -168.26973
2020000000 -4.5595851 169.86525 17.46983 67.809189 -26.975386 41.204811 -22.017265 -167.78188
2030000000 -4.5655341 169.70212 17.429358 67.551132 -26.922483 41.021915 -21.990049 -167.45131
2040000000 -4.5594769 169.48019 17.396751 67.307281 -26.844061 41.087746 -21.971718 -166.74179
2050000000 -4.5619559 169.34648 17.36216 67.069427 -26.755529 40.925423 -21.909094 -166.28784
2060000000 -4.5566087 169.15704 17.323204 66.797081 -26.746317 41.057636 -21.804451 -166.22078
2070000000 -4.5599952 168.77962 17.283983 66.51136 -26.774406 41.567711 -21.814571 -165.50743
2080000000 -4.561748 168.69469 17.247402 66.286926 -26.806215 40.33453 -21.702492 -166.1936
2090000000 -4.5652084 168.50063 17.205126 66.067719 -26.648783 41.079479 -21.674477 -165.15451
2100000000 -4.5543876 168.31433 17.167158 65.792755 -26.683407 40.246799 -21.661091 -164.4998
2110000000 -4.5704441 168.09605 17.148855 65.558769 -26.677135 41.279667 -21.612177 -164.7807
2120000000 -4.5648108 167.94353 17.097322 65.350288 -26.602282 40.436119 -21.625364 -164.42931
2130000000 -4.5479059 167.72472 17.068813 65.015205 -26.684572 40.867218 -21.449184 -164.30908
