# Hz S  dB   R 50
10000000 -6.6445189 -70.116592 33.995651 148.6069 -35.022839 38.97546 -6.6410327 -97.283241
20000000 -9.5928164 -97.493629 31.595631 153.52791 -34.957523 21.755232 -8.5985956 -131.04044
30000000 -11.249415 -112.26497 30.660213 157.47543 -34.388813 16.410213 -9.2878323 -146.87848
40000000 -11.935289 -121.60298 30.234631 159.59311 -33.914185 10.04004 -9.5730906 -156.01286
50000000 -12.347461 -127.09125 30.021044 160.72766 -33.786961 7.1273971 -9.7440901 -162.06958
60000000 -12.422094 -130.70821 29.871565 161.04581 -34.00856 8.7341213 -9.8889332 -166.89952
70000000 -12.449486 -132.55969 29.777264 160.92349 -33.79221 8.8161983 -9.9287443 -170.21193
80000000 -12.282063 -134.29276 29.68018 160.49174 -34.092361 5.5311961 -10.04806 -172.81343
90000000 -12.124984 -135.21043 29.61142 159.86507 -33.779335 8.2701912 -10.068379 -175.43808
100000000 -11.988528 -135.70743 29.544268 159.1794 -33.519196 6.829515 -10.150203 -177.54672
110000000 -11.805455 -136.44762 29.476604 158.32564 -33.661144 6.4887705 -10.184791 -179.14661
120000000 -11.559522 -136.9209 29.411161 157.40227 -33.855453 7.44241 -10.244391 179.16396
130000000 -11.318279 -137.36043 29.342821 156.41399 -33.7812 7.133028 -10.333958 177.63672
140000000 -11.099267 -137.50464 29.27454 155.38383 -33.66571 7.6092391 -10.413829 176.30673
150000000 -10.839979 -137.72023 29.206732 154.37556 -33.980263 7.3899932 -10.484529 174.98914
160000000 -10.629436 -137.72366 29.150398 153.30182 -33.698521 7.1945748 -10.56669 173.98715
170000000 -10.400028 -138.14722 29.074654 152.28342 -33.68536 7.2698417 -10.609426 172.86525
180000000 -10.161683 -138.49139 28.993708 151.14799 -33.816231 9.3834934 -10.640852 171.79987
190000000 -9.9197245 -138.59917 28.934849 150.02005 -33.703213 8.5360403 -10.707532 170.7995
200000000 -9.7272692 -139.13562 28.844601 149.01489 -33.876999 9.2873621 -10.796162 169.81776
210000000 -9.4981232 -139.4008 28.771173 147.95435 -33.707588 9.6384401 -10.904891 168.94006
220000000 -9.2874489 -139.58812 28.692316 146.8058 -33.788445 9.379324 -10.985274 168.12572
230000000 -9.1031933 -140.10039 28.611105 145.82161 -33.964718 10.065329 -11.073312 167.30695
240000000 -8.9172983 -140.42505 28.52704 144.75583 -33.621304 8.4452524 -11.156375 166.68837
250000000 -8.7567081 -140.85539 28.435345 143.70169 -33.858475 11.974946 -11.23473 165.90916
260000000 -8.5914764 -141.17909 28.360649 142.74214 -34.095047 11.208827 -11.353222 165.19147
270000000 -8.3937387 -141.72507 28.271828 141.65891 -33.491554 8.999052 -11.449279 164.47646
280000000 -8.227109 -142.17108 28.18231 140.63206 -33.804558 8.6820984 -11.536189 164.2592
290000000 -8.0733442 -142.4333 28.084656 139.67126 -33.407364 13.026118 -11.62933 163.54149
300000000 -7.9184227 -143.02126 27.994656 138.68198 -33.683746 14.617954 -11.722778 162.81363
310000000 -7.7543688 -143.36229 27.895672 137.70804 -33.569942 13.467885 -11.816461 162.55161
320000000 -7.6305747 -143.89532 27.807943 136.77089 -33.960358 13.273685 -11.883606 161.75171
330000000 -7.5278087 -144.58212 27.71002 135.88579 -33.801502 13.467489 -11.978981 161.54074
340000000 -7.4060016 -144.83446 27.618639 134.95941 -33.718731 12.663201 -12.035325 160.92908
350000000 -7.2615132 -145.49712 27.521452 134.02721 -33.63324 14.831168 -12.175163 160.3735
360000000 -7.1153202 -145.87497 27.431152 133.1503 -33.673748 12.522354 -12.245598 160.41928
370000000 -7.0266795 -146.34993 27.323545 132.2731 -33.674442 13.322639 -12.358065 159.88202
380000000 -6.9322686 -146.78169 27.237906 131.39708 -33.72604 15.35146 -12.480429 159.4924
390000000 -6.8176274 -147.23595 27.143723 130.5092 -33.688412 16.390013 -12.579169 159.13274
400000000 -6.7230349 -147.7023 27.043371 129.72168 -33.547665 16.525627 -12.663423 159.05583
410000000 -6.619081 -148.31113 26.942358 128.85286 -33.56913 16.211597 -12.780375 158.59636
420000000 -6.5528917 -148.74541 26.846329 128.14154 -33.674458 16.38089 -12.859958 158.53554
430000000 -6.4540224 -149.29329 26.741394 127.38676 -33.867214 16.948242 -12.976034 158.24805
440000000 -6.3773918 -149.71333 26.650005 126.53752 -33.632301 19.411308 -13.050976 158.05594
450000000 -6.2805576 -150.16843 26.56216 125.75857 -33.814438 17.549698 -13.194956 157.81261
460000000 -6.2221398 -150.51233 26.453041 125.04755 -33.475609 19.078751 -13.281486 157.74524
470000000 -6.138134 -150.97852 26.36022 124.28561 -33.681446 19.569019 -13.349048 157.31932
480000000 -6.0693307 -151.4276 26.259531 123.57759 -33.367397 18.362221 -13.478201 157.34276
490000000 -5.993814 -151.79086 26.172125 122.85268 -33.380119 19.823538 -13.566718 157.06841
500000000 -5.9694757 -152.27571 26.07465 122.13466 -33.501862 22.425482 -13.632865 156.89203
510000000 -5.8647442 -152.5332 25.969149 121.45618 -33.390114 21.375795 -13.746389 156.70119
520000000 -5.828505 -153.10625 25.887182 120.85783 -33.473686 22.084383 -13.871548 156.84428
530000000 -5.7545357 -153.53123 25.787243 120.08695 -33.106384 22.223372 -13.927922 156.57608
540000000 -5.7102313 -153.9082 25.69076 119.46389 -33.713947 22.471355 -14.04131 156.53152
550000000 -5.6459103 -154.3884 25.59383 118.8205 -33.272297 22.547468 -14.134094 156.21388
560000000 -5.5905743 -154.70175 25.497738 118.17039 -33.3992 23.200436 -14.222534 156.30905
570000000 -5.553771 -155.14758 25.415201 117.54272 -33.415859 21.581881 -14.336542 156.27502
580000000 -5.4954247 -155.32774 25.320005 116.91032 -33.094772 22.875568 -14.382577 156.28317
590000000 -5.4532995 -155.81586 25.229677 116.31361 -33.033653 23.351984 -14.505575 156.17836
600000000 -5.4025283 -156.23521 25.148195 115.69558 -33.434723 22.259611 -14.557268 156.24548
610000000 -5.3647909 -156.65753 25.037695 115.11031 -33.049728 23.932625 -14.701191 156.24817
620000000 -5.3357053 -157.01886 24.952978 114.57739 -32.983612 24.594475 -14.79867 156.2415
630000000 -5.2808142 -157.41933 24.862783 113.92761 -33.004852 27.727537 -14.865302 156.25948
640000000 -5.2415376 -157.88069 24.752516 113.41394 -32.879704 25.565008 -14.972905 156.61185
650000000 -5.219584 -158.04625 24.682381 112.87205 -32.930519 27.212139 -15.072909 156.81438
660000000 -5.1909547 -158.55002 24.590063 112.33659 -32.873451 25.695038 -15.13684 157.00533
670000000 -5.151124 -158.75958 24.506695 111.78964 -32.788353 27.42778 -15.183752 156.85275
680000000 -5.1242113 -159.17598 24.422459 111.22427 -32.666367 26.80406 -15.305474 156.79089
690000000 -5.0915689 -159.53333 24.337797 110.7672 -32.762398 26.948198 -15.369028 157.00919
700000000 -5.0722222 -159.86807 24.250719 110.20938 -32.585411 27.369896 -15.439428 156.96439
710000000 -5.0291834 -160.18483 24.158777 109.65552 -32.459366 28.764545 -15.576798 157.25313
720000000 -5.0034451 -160.48636 24.087969 109.15287 -32.597454 28.308094 -15.619534 157.01181
730000000 -4.9832387 -160.88083 23.999262 108.64722 -32.549873 27.496437 -15.654885 157.43439
740000000 -4.9400959 -161.05089 23.913719 108.139 -32.325459 30.356524 -15.766356 157.50604
750000000 -4.9396482 -161.44019 23.822323 107.68108 -32.460995 28.5793 -15.825095 157.7047
760000000 -4.9062018 -161.70352 23.750584 107.21624 -32.417698 29.09861 -15.935476 157.7187
770000000 -4.8690438 -161.97163 23.667608 106.73274 -32.167385 31.259386 -15.965135 158.15044
780000000 -4.8556094 -162.36198 23.582371 106.25836 -32.372177 31.486931 -16.063494 158.06412
790000000 -4.8398666 -162.60892 23.498322 105.80216 -32.120678 31.393658 -16.127869 158.22493
800000000 -4.8221693 -162.91641 23.416239 105.33936 -32.044399 30.989029 -16.209223 158.45654
810000000 -4.792263 -163.19318 23.345778 104.8802 -32.202103 30.852467 -16.265821 158.38615
820000000 -4.7743039 -163.49184 23.266788 104.44181 -31.930731 31.733171 -16.336205 158.74658
830000000 -4.7642035 -163.85051 23.178125 103.99273 -31.967659 32.735516 -16.423447 158.83051
840000000 -4.7489204 -164.09692 23.102077 103.57227 -31.971722 33.136925 -16.457869 158.96834
850000000 -4.7350316 -164.37311 23.025543 103.12581 -31.863503 33.0606 -16.590084 159.2339
860000000 -4.7137437 -164.63899 22.949177 102.6872 -31.851814 32.016254 -16.609369 159.42448
870000000 -4.6809902 -164.91161 22.880987 102.27881 -31.713783 31.927519 -16.696743 159.75661
880000000 -4.6684165 -165.12914 22.79631 101.84031 -31.890533 33.149551 -16.748341 160.08727
890000000 -4.6498909 -165.41989 22.724533 101.43764 -31.571114 33.251801 -16.787941 159.9612
900000000 -4.6553679 -165.73259 22.642527 101.09212 -31.392689 33.774261 -16.886995 160.65417
910000000 -4.6238751 -165.89821 22.568914 100.67963 -31.420975 33.523834 -16.94669 160.62729
920000000 -4.6080303 -166.07205 22.499714 100.30872 -31.327518 32.888638 -17.030918 160.83257
930000000 -4.6000762 -166.34135 22.430899 99.936935 -31.53826 33.450497 -17.097515 161.18159
940000000 -4.5936341 -166.56282 22.35717 99.488853 -31.383595 34.219555 -17.171053 161.38579
950000000 -4.5660706 -166.84082 22.278105 99.067329 -31.278049 35.552704 -17.287424 161.61002
960000000 -4.5648589 -167.17284 22.218096 98.645767 -31.335697 35.211052 -17.302826 161.99501
970000000 -4.5548954 -167.50433 22.138613 98.295708 -31.216942 34.489841 -17.326401 162.41801
980000000 -4.5463448 -167.67468 22.073267 97.923058 -31.194836 35.399624 -17.406384 162.73676
990000000 -4.53723 -167.9897 21.998003 97.53894 -31.144926 35.479034 -17.418449 162.74086
1000000000 -4.5113063 -170.02786 21.940502 97.141884 -31.187237 35.809296 -17.503771 164.72807
1010000000 -4.5288858 -168.43983 21.869589 96.765373 -31.101454 36.86478 -17.54273 163.30141
1020000000 -4.5126653 -168.72841 21.784756 96.363869 -30.934006 35.770805 -17.609663 163.47168
1030000000 -4.4907737 -168.89378 21.725302 96.001732 -30.991852 36.338806 -17.682037 163.8654
1040000000 -4.4819875 -169.14345 21.663073 95.647217 -30.94939 34.873199 -17.71056 164.2636
1050000000 -4.4847755 -169.42044 21.590698 95.302223 -30.832775 35.815914 -17.771194 164.37692
1060000000 -4.4751344 -169.59857 21.522049 94.996864 -30.854187 35.576069 -17.845114 164.93684
1070000000 -4.47159 -169.77385 21.455622 94.614227 -30.731741 36.488667 -17.905594 165.50812
1080000000 -4.4596629 -170.03021 21.385021 94.274788 -30.756184 35.980419 -17.966211 165.23111
1090000000 -4.4464345 -170.28416 21.316769 93.90004 -30.721434 36.797672 -18.048887 165.91925
1100000000 -4.4422655 -170.4016 21.26025 93.558411 -30.540476 36.750618 -18.048622 166.14772
1110000000 -4.4469652 -170.67465 21.19875 93.22065 -30.451477 37.604488 -18.182852 166.55836
1120000000 -4.4357381 -170.9781 21.133301 92.951996 -30.338404 36.74239 -18.167231 166.82379
1130000000 -4.426209 -171.10989 21.067116 92.569092 -30.422529 36.650196 -18.231842 167.12843
1140000000 -4.4295464 -171.39555 21.007584 92.277168 -30.569202 36.884827 -18.244032 167.45306
1150000000 -4.4160881 -171.61153 20.938158 91.880493 -30.35833 37.350468 -18.344355 167.91287
1160000000 -4.4111824 -171.81175 20.884155 91.527565 -30.273691 37.616051 -18.417568 168.056
1170000000 -4.403059 -171.96014 20.818197 91.242332 -30.227219 37.859795 -18.392859 168.50792
1180000000 -4.4011436 -172.22351 20.76083 90.883331 -30.152246 38.009048 -18.479557 168.8105
1190000000 -4.3992286 -172.53612 20.694162 90.585709 -30.073948 38.144676 -18.50832 169.34016
1200000000 -4.3899708 -172.69319 20.632282 90.21595 -29.981337 38.669621 -18.55192 169.60806
1210000000 -4.3878641 -172.87332 20.576378 89.930267 -29.98801 38.850368 -18.584934 170.02141
1220000000 -4.3869085 -173.0322 20.512796 89.605766 -29.96697 38.797447 -18.606344 170.15196
1230000000 -4.3759098 -173.24277 20.457355 89.294624 -29.960587 38.577606 -18.714182 170.73869
1240000000 -4.3694091 -173.40244 20.399881 88.998947 -29.89028 38.088734 -18.716803 170.63731
1250000000 -4.3640151 -173.66675 20.345985 88.677879 -29.789066 38.692703 -18.724798 171.30051
1260000000 -4.367806 -173.80238 20.284565 88.354538 -29.787367 38.354328 -18.807604 171.14737
1270000000 -4.3599105 -174.08804 20.227528 88.027718 -29.823536 38.972725 -18.720432 172.03047
1280000000 -4.3550658 -174.32039 20.165894 87.720909 -29.676079 38.52853 -18.82077 172.12016
1290000000 -4.3544545 -174.57135 20.104311 87.395264 -29.552174 38.30743 -18.788002 172.50105
1300000000 -4.3391542 -174.69144 20.054861 87.124062 -29.523638 38.486893 -18.874891 172.58121
1310000000 -4.3296442 -174.84917 19.999208 86.806137 -29.625183 39.584274 -18.871067 173.50642
1320000000 -4.34092 -175.13359 19.943668 86.49733 -29.520233 38.601871 -18.97427 173.61446
1330000000 -4.3287592 -175.31706 19.890835 86.219986 -29.455328 39.178623 -18.972202 173.57338
1340000000 -4.3283401 -175.54582 19.834496 85.930412 -29.277615 38.655094 -18.985813 174.28981
1350000000 -4.3324642 -175.68762 19.775967 85.627693 -29.318735 38.466682 -19.047531 174.41702
1360000000 -4.3352571 -175.90166 19.725634 85.364532 -29.404253 39.896015 -19.145437 174.32573
1370000000 -4.3210769 -176.02271 19.668457 85.071053 -29.263817 39.40818 -19.096474 174.52943
1380000000 -4.3202953 -176.31235 19.615894 84.746185 -29.158228 38.947556 -19.181749 175.34181
1390000000 -4.3126678 -176.46266 19.570297 84.428123 -29.20631 38.607605 -19.157856 175.08357
1400000000 -4.3209338 -176.67406 19.508343 84.133804 -29.175083 39.241955 -19.187366 175.93756
1410000000 -4.31001 -176.90845 19.458359 83.833809 -29.042465 39.347439 -19.16103 176.34177
1420000000 -4.3189325 -177.1795 19.403913 83.597015 -29.043264 39.795204 -19.244473 176.01768
1430000000 -4.3153911 -177.28442 19.347569 83.26297 -29.000368 39.728424 -19.255774 176.99696
1440000000 -4.3127704 -177.49448 19.301468 82.992378 -28.873896 39.893764 -19.311459 176.90443
1450000000 -4.3084636 -177.69083 19.25128 82.731133 -28.932415 39.739422 -19.261784 177.10667
1460000000 -4.3059726 -177.88062 19.198912 82.368759 -28.790115 40.279751 -19.257053 177.34573
1470000000 -4.2963386 -178.1263 19.148727 82.131058 -28.627451 39.936142 -19.338495 178.03845
1480000000 -4.2991905 -178.30797 19.089783 81.850349 -28.76219 39.6675 -19.381617 178.19785
1490000000 -4.3013005 -178.48187 19.038763 81.594788 -28.752911 39.386299 -19.363611 178.35165
1500000000 -4.3091803 -178.65573 18.98785 81.267662 -28.601833 39.614513 -19.279757 178.17592
1510000000 -4.2988448 -178.83276 18.939062 81.028893 -28.568316 40.031895 -19.371492 178.67068
1520000000 -4.2950029 -178.98761 18.893612 80.766151 -28.663086 40.023354 -19.414068 179.13107
1530000000 -4.2966027 -179.19057 18.839338 80.494431 -28.520504 39.691673 -19.341093 179.4586
1540000000 -4.293488 -179.48891 18.80032 80.187775 -28.457462 40.369812 -19.386217 179.69769
1550000000 -4.2908778 -179.69617 18.746147 79.872528 -28.381716 40.259193 -19.438217 -179.84749
1560000000 -4.2964945 -179.86076 18.70248 79.624069 -28.378517 39.906342 -19.422869 -179.92593
1570000000 -4.3010807 179.93007 18.647764 79.377838 -28.398865 40.086555 -19.380299 -179.28934
1580000000 -4.3101578 179.78079 18.605997 79.088356 -28.31485 40.298241 -19.435734 -178.98856
1590000000 -4.2939219 179.67386 18.554274 78.845772 -28.340864 40.126339 -19.386463 -179.09167
1600000000 -4.2998447 179.44888 18.506483 78.558449 -28.232601 40.112686 -19.470879 -178.60205
1610000000 -4.2951899 179.32933 18.463835 78.274361 -28.220678 40.195244 -19.445963 -178.03258
1620000000 -4.2841468 179.08139 18.4209 78.0121 -28.129988 39.83987 -19.442419 -177.80923
1630000000 -4.2830434 178.90657 18.375933 77.750359 -28.063356 39.002995 -19.375355 -177.62912
1640000000 -4.2905989 178.65645 18.32979 77.475639 -27.991411 40.491096 -19.369036 -177.64713
1650000000 -4.2924037 178.52361 18.281916 77.233002 -27.969872 40.196262 -19.399057 -177.22342
1660000000 -4.2890272 178.3912 18.233395 76.957855 -27.919872 40.461884 -19.410913 -177.22897
1670000000 -4.2760501 178.13458 18.198357 76.721619 -28.003262 40.045712 -19.385651 -176.89619
1680000000 -4.2903156 178.01933 18.154749 76.423843 -27.929901 40.072235 -19.374052 -176.60341
1690000000 -4.2844534 177.71243 18.105326 76.201454 -27.808502 39.755272 -19.373482 -176.44202
1700000000 -4.283124 177.51297 18.061928 75.849922 -27.72723 39.939751 -19.376974 -176.04515
1710000000 -4.2876868 177.36896 18.012482 75.614464 -27.895136 40.284527 -19.426695 -176.04836
1720000000 -4.2851319 177.15767 17.968363 75.34375 -27.784468 39.878384 -19.317078 -175.70599
1730000000 -4.2869854 176.97545 17.930826 75.085999 -27.685503 40.353722 -19.395515 -175.46307
1740000000 -4.2783256 176.80937 17.884649 74.850487 -27.708612 40.417782 -19.371788 -175.26631
1750000000 -4.2881317 176.49622 17.837278 74.507927 -27.523838 40.259029 -19.394712 -174.98213
1760000000 -4.2756891 176.39977 17.79628 74.312004 -27.575375 39.749435 -19.355564 -174.81207
1770000000 -4.2849789 176.18629 17.751028 74.030396 -27.59868 39.561028 -19.339798 -174.57779
1780000000 -4.2934108 175.96748 17.706934 73.787025 -27.339392 39.719414 -19.370031 -174.37132
1790000000 -4.2959862 175.79579 17.657982 73.532806 -27.458357 39.601757 -19.275984 -174.04056
1800000000 -4.2907634 175.69893 17.620796 73.335678 -27.320215 40.238258 -19.344137 -174.01805
1810000000 -4.2968712 175.3884 17.581778 73.0784 -27.282932 39.754913 -19.278917 -173.88434
1820000000 -4.2883573 175.2437 17.539227 72.777855 -27.417318 39.924973 -19.308397 -173.31953
1830000000 -4.2807117 174.978 17.500603 72.54744 -27.272661 39.723602 -19.269917 -173.25484
1840000000 -4.2664337 174.84431 17.463175 72.249825 -27.276234 39.473454 -19.252838 -173.02834
1850000000 -4.2764134 174.61847 17.414745 72.004494 -27.154858 40.183563 -19.214794 -172.65938
1860000000 -4.279942 174.39966 17.372482 71.694336 -27.134319 39.785667 -19.157963 -172.65747
1870000000 -4.29532 174.3183 17.328808 71.466309 -27.130499 39.403671 -19.14275 -172.771
1880000000 -4.2885008 174.11974 17.283998 71.206772 -27.039063 39.769909 -19.150757 -172.09077
1890000000 -4.2966318 174.00885 17.253899 70.977547 -27.022102 39.764103 -19.140446 -172.08324
1900000000 -4.3019824 173.72597 17.206514 70.739006 -26.868601 39.768055 -19.122452 -171.86757
1910000000 -4.2882705 173.58353 17.174232 70.441277 -26.925779 39.447418 -19.102644 -171.50298
1920000000 -4.2724276 173.33553 17.124632 70.169144 -26.801014 39.968979 -19.074717 -170.99136
1930000000 -4.2936702 173.16324 17.086744 69.906105 -26.846771 39.85014 -19.052374 -171.60423
1940000000 -4.3002067 172.94043 17.042204 69.699501 -26.846687 39.41573 -19.030699 -171.14995
1950000000 -4.3001575 172.7662 17.003813 69.485115 -26.861132 40.670216 -18.9986 -170.73148
1960000000 -4.2887721 172.59503 16.967461 69.206848 -26.841913 38.256313 -19.032009 -170.68315
1970000000 -4.2984014 172.54155 16.930069 68.971596 -26.816034 38.679661 -19.017292 -170.34489
1980000000 -4.2922239 172.28943 16.893652 68.689438 -26.678135 39.40797 -18.997292 -170.36214
1990000000 -4.2751408 172.06889 16.84812 68.473549 -26.64558 39.753517 -18.906252 -169.80301
2000000000 -4.3198552 171.91444 16.807796 68.175476 -26.732534 39.164486 -18.890074 -170.12082
2010000000 -4.2965384 171.66827 16.769363 67.979218 -26.585917 38.929348 -18.888498 -169.91655
2020000000 -4.303319 171.52686 16.730978 67.716492 -26.660639 39.508186 -18.884899 -169.79156
2030000000 -4.300261 171.35446 16.691071 67.458992 -26.626902 39.174568 -18.824501 -169.71196
2040000000 -4.2946095 171.19016 16.657656 67.246201 -26.639984 38.822914 -18.811169 -169.49474
2050000000 -4.3026719 170.93767 16.623968 66.985306 -26.601856 38.756512 -18.730642 -169.01245
2060000000 -4.2842507 170.8037 16.584866 66.721832 -26.352057 39.07618 -18.74234 -168.73125
2070000000 -4.2801037 170.44652 16.547234 66.436493 -26.384989 38.84758 -18.752275 -168.79324
2080000000 -4.2860799 170.2816 16.514334 66.204262 -26.402578 37.929527 -18.683884 -168.79414
2090000000 -4.3037586 170.08707 16.467842 66.004097 -26.246897 38.551464 -18.631716 -168.88815
2100000000 -4.2956681 169.92812 16.434732 65.718781 -26.385109 38.455376 -18.6516 -168.32813
2110000000 -4.2930379 169.76489 16.411274 65.481865 -26.235811 39.186615 -18.623022 -168.52614
2120000000 -4.2933927 169.562 16.361395 65.286652 -26.219784 37.800663 -18.639217 -168.46164
2130000000 -4.2822552 169.33902 16.331772 64.939674 -26.256695 38.655972 -18.574333 -168.03137
