# Hz S  dB   R 50
10000000 -6.7817826 -81.591736 34.868851 147.37907 -35.094582 40.515293 -6.8200154 -106.40015
20000000 -8.8925934 -112.18983 32.373566 152.28525 -34.856152 9.386673 -7.6845365 -137.32544
30000000 -10.185696 -128.48013 31.372892 156.37831 -34.958683 13.352557 -8.2625523 -152.85281
40000000 -10.657378 -136.81084 30.913761 158.66263 -34.593456 10.398235 -8.4245882 -161.14793
50000000 -10.928292 -141.96146 30.678171 159.95857 -34.921448 8.9734898 -8.5010128 -166.88002
60000000 -10.977562 -145.21414 30.51527 160.38737 -34.828331 9.2292299 -8.5443735 -171.22649
70000000 -11.012445 -146.77229 30.414568 160.37209 -34.471863 5.1401381 -8.6209421 -174.48174
80000000 -10.942854 -148.57249 30.311846 160.04803 -34.892876 7.8785458 -8.7130318 -177.09796
90000000 -10.863499 -148.93617 30.242214 159.48534 -34.877174 7.471158 -8.7284384 -179.37692
100000000 -10.778635 -149.40346 30.173706 158.85663 -34.596455 7.8605242 -8.8186979 178.30127
110000000 -10.646797 -149.75418 30.1047 158.05634 -34.844345 6.4383206 -8.8563538 176.70985
120000000 -10.4941 -149.84567 30.035851 157.16968 -34.831966 7.7426257 -8.9114628 174.93538
130000000 -10.322811 -149.95012 29.967249 156.21529 -34.69091 7.0962691 -8.9874506 173.45567
140000000 -10.178197 -149.90855 29.898932 155.2209 -34.617443 7.7302427 -9.0726433 171.89465
150000000 -10.014375 -149.84448 29.829805 154.24866 -34.810764 7.7751884 -9.1633701 170.53845
160000000 -9.8665028 -149.69452 29.774731 153.21495 -34.661369 7.2496891 -9.2379303 169.37285
170000000 -9.6997595 -149.84549 29.698986 152.23254 -34.85384 8.2284431 -9.2904835 168.10037
180000000 -9.5193834 -149.85771 29.621284 151.11818 -34.902412 8.5079193 -9.3382854 166.72836
190000000 -9.3456402 -149.64204 29.561611 150.00253 -34.647713 7.4940929 -9.3916855 165.81099
200000000 -9.1987333 -149.82961 29.474905 149.04887 -34.654293 6.590169 -9.492404 164.59708
210000000 -9.0273714 -149.82918 29.401867 147.97888 -34.913742 8.8066244 -9.6109047 163.60378
220000000 -8.8591118 -149.83562 29.323622 146.85001 -34.819241 9.0410814 -9.6937218 162.65121
230000000 -8.7285557 -150.08282 29.241703 145.89171 -34.702961 9.0996914 -9.7930965 161.6955
240000000 -8.5785933 -150.22478 29.159813 144.84045 -34.692608 10.870196 -9.9005384 160.89021
250000000 -8.454093 -150.30264 29.068241 143.80881 -34.584003 12.358264 -9.9817152 159.90266
260000000 -8.3197889 -150.48772 28.997597 142.8376 -34.910328 9.8344355 -10.108232 158.9287
270000000 -8.1596899 -150.86674 28.903929 141.81207 -34.795303 12.393852 -10.186518 158.25221
280000000 -8.0086966 -150.97542 28.819016 140.79196 -35.134991 12.824418 -10.291558 157.75121
290000000 -7.8996444 -150.91379 28.728174 139.79427 -34.464367 15.488522 -10.408233 156.65932
300000000 -7.7385616 -151.29552 28.639681 138.84579 -34.534969 14.846116 -10.483344 155.8812
310000000 -7.6131997 -151.77098 28.544182 137.82298 -34.690876 13.279076 -10.601302 155.39417
320000000 -7.507514 -151.71443 28.458317 136.94148 -34.874153 15.764965 -10.720963 154.28236
330000000 -7.420445 -152.24622 28.36198 136.06685 -34.69846 13.749575 -10.808707 153.90895
340000000 -7.2858591 -152.32849 28.265007 135.12897 -35.149689 16.296154 -10.919414 153.33994
350000000 -7.2133727 -152.93559 28.171173 134.22981 -34.646194 17.337654 -11.024599 152.75917
360000000 -7.1085954 -153.18625 28.082043 133.29361 -34.673809 16.327065 -11.158953 152.1687
370000000 -7.0166535 -153.49147 27.973906 132.4807 -34.782642 15.212292 -11.236594 151.60182
380000000 -6.9228945 -153.55899 27.89629 131.61871 -34.366074 17.909725 -11.417199 150.87595
390000000 -6.8180175 -154.00948 27.796066 130.72089 -34.490604 16.090975 -11.517033 150.67419
400000000 -6.7223005 -154.3378 27.703131 129.92021 -34.521832 16.676701 -11.620368 150.08963
410000000 -6.6582956 -154.75687 27.599081 129.10329 -34.439842 18.992699 -11.725434 149.64351
420000000 -6.5775599 -155.15443 27.502548 128.32828 -34.315273 19.268353 -11.822405 149.36411
430000000 -6.4949927 -155.4407 27.400076 127.58422 -34.713276 17.748093 -11.952441 148.85837
440000000 -6.4118185 -155.81279 27.311268 126.75076 -34.758072 20.451088 -12.06088 148.41005
450000000 -6.3439631 -156.06108 27.220104 125.97693 -34.360321 19.752434 -12.22604 147.8907
460000000 -6.2655444 -156.34525 27.117773 125.26869 -34.319714 20.125633 -12.319219 147.45866
470000000 -6.2024035 -156.66037 27.023958 124.50512 -34.243244 19.947163 -12.441114 147.17993
480000000 -6.156776 -156.94258 26.926392 123.81747 -34.37608 22.640528 -12.590089 146.6288
490000000 -6.0828457 -157.37463 26.83688 123.0394 -34.272453 22.202066 -12.685317 146.39479
500000000 -6.0667167 -157.58141 26.74608 122.37714 -34.198803 21.536285 -12.781623 146.0683
510000000 -5.9756551 -157.88638 26.6411 121.6907 -34.323811 21.959011 -12.919595 145.79623
520000000 -5.9312215 -158.32631 26.5583 121.0758 -34.2952 21.598181 -13.072207 145.32422
530000000 -5.8653221 -158.50038 26.461636 120.31742 -34.16555 25.10673 -13.151546 145.2563
540000000 -5.824275 -158.96062 26.361944 119.6738 -34.135632 23.926067 -13.254435 144.88626
550000000 -5.7724977 -159.28059 26.266523 119.06211 -34.244305 24.890303 -13.386169 144.39737
560000000 -5.7205725 -159.57274 26.171164 118.38577 -33.908398 25.975052 -13.477294 144.37152
570000000 -5.6933217 -159.85342 26.086819 117.77543 -33.749695 23.872562 -13.596032 144.14638
580000000 -5.6461458 -160.02324 25.99404 117.12327 -34.149818 26.068829 -13.742586 143.9576
590000000 -5.5945764 -160.35231 25.907562 116.54131 -33.980782 26.926943 -13.88087 143.51814
600000000 -5.5522375 -160.74878 25.822172 115.90086 -33.932484 27.479553 -13.967484 143.49033
610000000 -5.5075617 -161.15814 25.714676 115.34914 -33.738625 25.988907 -14.110728 143.44553
620000000 -5.4885859 -161.3718 25.629713 114.81279 -33.892849 28.877705 -14.234146 143.21088
630000000 -5.4260111 -161.76595 25.53977 114.15373 -33.826542 27.932741 -14.348129 143.12425
640000000 -5.4004188 -162.05766 25.435385 113.6524 -33.715683 28.416964 -14.49978 143.2066
650000000 -5.3757038 -162.32088 25.363001 113.07719 -33.477795 28.369608 -14.599451 143.10689
660000000 -5.3493805 -162.62846 25.272648 112.55029 -33.787106 28.173315 -14.713096 142.94704
670000000 -5.3017788 -162.85036 25.188517 111.97334 -33.488056 29.23381 -14.808548 143.011
680000000 -5.2923326 -163.20288 25.109785 111.44289 -33.717903 29.346191 -14.944328 142.86885
690000000 -5.2590127 -163.43135 25.018143 110.97031 -33.467003 29.741507 -15.085139 142.87654
700000000 -5.2429299 -163.68907 24.935474 110.41066 -33.270924 30.488356 -15.154542 142.67421
710000000 -5.2037101 -163.98705 24.841154 109.87817 -33.428963 30.566132 -15.313132 142.90672
720000000 -5.1801248 -164.23683 24.77346 109.34238 -33.307884 31.289169 -15.382074 142.44171
730000000 -5.1650596 -164.43689 24.685522 108.86948 -33.258667 32.035576 -15.53072 142.63608
740000000 -5.1257486 -164.78377 24.597666 108.32537 -33.13512 30.814089 -15.614238 142.56235
750000000 -5.1027589 -165.08731 24.511332 107.88095 -32.924618 30.707432 -15.717364 142.75339
760000000 -5.0869889 -165.23354 24.438484 107.39925 -33.166672 32.067173 -15.873428 142.52316
770000000 -5.0627775 -165.54408 24.354925 106.92269 -32.974678 32.749081 -15.977202 142.61897
780000000 -5.055449 -165.78415 24.270901 106.45165 -32.865372 34.025604 -16.065527 142.64604
790000000 -5.0334244 -166.05292 24.192583 105.9824 -32.940941 33.356682 -16.194323 142.35042
800000000 -5.0108032 -166.3111 24.103327 105.52453 -33.093674 33.964798 -16.294603 142.49493
810000000 -4.9800286 -166.58057 24.03351 105.04437 -32.687126 33.000519 -16.397732 142.67197
820000000 -4.9592094 -166.90758 23.956463 104.60272 -32.668907 33.510281 -16.530348 143.05269
830000000 -4.9454546 -167.12979 23.874371 104.16264 -32.66576 34.802746 -16.630686 143.11259
840000000 -4.9357805 -167.33083 23.796589 103.73141 -32.579765 34.006222 -16.707951 143.00572
850000000 -4.9311862 -167.54797 23.718315 103.29929 -32.355339 36.036644 -16.907574 143.16559
860000000 -4.916759 -167.78223 23.644043 102.85043 -32.342072 35.861115 -16.940474 143.15819
870000000 -4.8895555 -168.05676 23.567595 102.41891 -32.429199 34.650433 -17.063478 143.38182
880000000 -4.8759418 -168.18056 23.485905 102.01606 -32.240829 35.784325 -17.180897 143.79526
890000000 -4.8558764 -168.53453 23.416384 101.61205 -32.383636 36.122543 -17.272858 143.7567
900000000 -4.8566489 -168.76459 23.338135 101.22932 -32.231064 35.905212 -17.426476 143.97148
910000000 -4.8303328 -168.87219 23.263134 100.81544 -32.297405 36.614494 -17.526453 143.94658
920000000 -4.818428 -169.12573 23.19718 100.43988 -32.178734 37.534603 -17.639629 144.08508
930000000 -4.8059149 -169.26509 23.125078 100.06779 -31.932878 37.242252 -17.782164 144.09779
940000000 -4.7958627 -169.55559 23.054901 99.646782 -31.989708 36.128677 -17.860619 144.58043
950000000 -4.782052 -169.81462 22.969906 99.187309 -31.979069 38.608749 -18.029297 144.64767
960000000 -4.7754765 -170.06718 22.910492 98.781029 -31.85643 36.801144 -18.077223 144.8176
970000000 -4.7569442 -170.33727 22.833311 98.447884 -31.768688 36.935776 -18.205336 145.04536
980000000 -4.7589273 -170.5668 22.769066 98.049576 -31.751736 37.238163 -18.326298 145.22795
990000000 -4.7488294 -170.76097 22.687359 97.643715 -31.852772 36.767036 -18.384602 145.61926
1000000000 -4.7281661 -172.78021 22.633112 97.262009 -31.734499 37.005569 -18.503551 147.60483
1010000000 -4.7431817 -171.13017 22.562122 96.868309 -31.672443 38.487343 -18.552433 146.15341
1020000000 -4.7330022 -171.41589 22.481583 96.462555 -31.579012 38.967182 -18.709772 146.24176
1030000000 -4.7069263 -171.59999 22.421444 96.103378 -31.562191 38.919159 -18.881468 146.73698
1040000000 -4.6933141 -171.81355 22.357706 95.780594 -31.534294 38.354179 -18.952612 146.95291
1050000000 -4.6979618 -172.04703 22.285458 95.399422 -31.513327 38.363346 -19.044071 147.18303
1060000000 -4.6972551 -172.19481 22.214834 95.119904 -31.497667 38.436314 -19.15732 147.55304
1070000000 -4.6863928 -172.34283 22.151722 94.718307 -31.353045 39.783104 -19.29508 148.09641
1080000000 -4.6762943 -172.55705 22.081661 94.389534 -31.33112 40.295273 -19.385126 148.3172
1090000000 -4.6765766 -172.77029 22.01078 94.019737 -31.164799 38.183922 -19.464134 148.93387
1100000000 -4.657763 -172.96062 21.955734 93.65139 -31.18343 39.684307 -19.596289 148.77538
1110000000 -4.6512003 -173.16064 21.895378 93.30661 -31.042103 38.595776 -19.728786 149.49525
1120000000 -4.6620541 -173.41676 21.828735 93.027367 -31.188862 39.512669 -19.802313 149.55794
1130000000 -4.6475568 -173.58725 21.763956 92.663467 -30.917713 39.357319 -19.936298 150.32162
1140000000 -4.648006 -173.76379 21.702816 92.385048 -31.040136 39.80304 -20.061752 150.64133
1150000000 -4.6419725 -174.0547 21.630518 91.951645 -30.911621 39.258362 -20.140162 150.80518
1160000000 -4.635695 -174.16869 21.577662 91.600708 -30.724005 40.740311 -20.275726 151.05092
1170000000 -4.6206894 -174.35535 21.514629 91.311958 -30.727695 40.421314 -20.335878 151.50838
1180000000 -4.6210885 -174.57033 21.454544 90.958565 -30.812712 40.583309 -20.433472 151.87756
1190000000 -4.6208477 -174.81879 21.391203 90.68116 -30.726881 41.164001 -20.527267 152.70198
1200000000 -4.6165576 -175.01442 21.324472 90.296585 -30.687746 40.68362 -20.677414 152.63609
1210000000 -4.6113396 -175.15904 21.269869 90.001961 -30.571661 40.011684 -20.726681 153.50877
1220000000 -4.6125498 -175.33557 21.206087 89.682396 -30.550333 40.522453 -20.753683 153.56987
1230000000 -4.5923982 -175.47992 21.150976 89.35215 -30.439123 41.362572 -21.00108 154.15967
1240000000 -4.6018033 -175.61017 21.094143 89.090683 -30.536156 41.148846 -21.072346 154.65869
1250000000 -4.5971022 -175.80885 21.035686 88.757736 -30.448568 41.302891 -21.03949 155.53719
1260000000 -4.6035995 -176.03772 20.977242 88.420647 -30.297712 41.372604 -21.196209 155.49304
1270000000 -4.5769248 -176.23528 20.919792 88.120117 -30.139257 41.338356 -21.191172 156.48044
1280000000 -4.5844517 -176.40489 20.859591 87.816093 -30.16069 41.882725 -21.373535 157.25439
1290000000 -4.5768743 -176.64845 20.80312 87.476303 -30.180237 41.027927 -21.402678 157.49394
1300000000 -4.5717769 -176.81081 20.747919 87.193619 -29.97695 41.36557 -21.448294 157.65994
1310000000 -4.5721087 -176.93912 20.69175 86.871948 -29.987249 40.601803 -21.571363 158.47984
1320000000 -4.568089 -177.16943 20.636726 86.557388 -30.116003 41.243614 -21.722271 159.35864
1330000000 -4.5684586 -177.42729 20.580997 86.26181 -30.014425 41.80563 -21.732527 158.7874
1340000000 -4.56322 -177.65393 20.525513 85.983719 -29.878214 42.118607 -21.798683 160.14775
1350000000 -4.5667167 -177.75752 20.465626 85.703346 -29.96394 42.394051 -21.899969 160.2538
1360000000 -4.5691843 -177.90047 20.422344 85.411461 -29.811213 42.215973 -22.048519 160.60468
1370000000 -4.5596209 -178.09427 20.35968 85.10154 -29.84701 41.036873 -22.041161 160.77937
1380000000 -4.5461426 -178.2674 20.310534 84.804665 -29.717274 42.479561 -22.170746 161.51132
1390000000 -4.5460792 -178.4792 20.262543 84.482155 -29.655302 41.530117 -22.163177 162.18626
1400000000 -4.5490856 -178.67642 20.200397 84.193016 -29.608177 41.972591 -22.187128 163.11893
1410000000 -4.5519743 -178.91382 20.148005 83.869453 -29.680338 41.870026 -22.317862 163.3857
1420000000 -4.5515423 -179.08276 20.092081 83.65007 -29.417652 42.508324 -22.398308 164.13322
1430000000 -4.5580039 -179.27428 20.038393 83.308342 -29.544725 42.897968 -22.4468 164.41174
1440000000 -4.5414681 -179.40788 19.99382 83.052422 -29.416752 43.131916 -22.485556 165.04337
1450000000 -4.5435066 -179.59135 19.944366 82.761688 -29.340487 41.636467 -22.490101 166.19598
1460000000 -4.5424714 -179.74422 19.8915 82.433533 -29.285015 42.547523 -22.57313 166.43921
1470000000 -4.5353885 -179.98537 19.839792 82.195946 -29.289837 42.859585 -22.778326 167.30452
1480000000 -4.5400925 179.81746 19.784256 81.923767 -29.119488 42.874321 -22.703167 167.41739
1490000000 -4.5404239 179.64528 19.732452 81.602951 -29.123619 42.039871 -22.753328 168.37154
1500000000 -4.5483489 179.38185 19.681479 81.304672 -29.092182 41.680737 -22.741938 168.71037
1510000000 -4.5423932 179.27782 19.628349 81.052841 -29.090523 42.366272 -22.817024 169.2524
1520000000 -4.543479 179.16034 19.579973 80.803352 -29.010977 42.893242 -22.936192 169.93237
1530000000 -4.532105 179.00334 19.532122 80.516525 -29.046007 42.489826 -22.838203 170.60107
1540000000 -4.5288911 178.76062 19.48827 80.215195 -28.991388 42.790169 -22.958603 171.10983
1550000000 -4.5384583 178.54678 19.433689 79.929703 -28.916937 42.443016 -23.05505 172.1409
1560000000 -4.5293612 178.41307 19.392551 79.669456 -28.730528 42.065922 -22.99184 172.28159
1570000000 -4.5367661 178.23872 19.33882 79.411224 -28.824669 41.812706 -22.970531 173.29422
1580000000 -4.5456004 177.94795 19.29328 79.093903 -28.846685 43.064346 -23.043489 174.15041
1590000000 -4.5293779 177.92036 19.244205 78.886261 -28.65922 42.616776 -23.018936 174.16888
1600000000 -4.5361199 177.71735 19.191776 78.580994 -28.639654 42.421841 -23.125761 175.04944
1610000000 -4.5267267 177.60385 19.150177 78.314018 -28.713514 42.880478 -23.158428 175.90823
1620000000 -4.5202956 177.34846 19.111145 78.055603 -28.511103 43.685989 -23.187183 176.6409
1630000000 -4.5330462 177.21815 19.061749 77.769806 -28.592321 42.216251 -23.158216 177.20033
1640000000 -4.5384426 177.01425 19.016066 77.505051 -28.434933 41.445026 -23.030283 177.47348
1650000000 -4.5435534 176.8259 18.966139 77.267395 -28.407652 41.729164 -23.119942 177.89421
1660000000 -4.536459 176.72775 18.920507 76.993797 -28.351271 42.076916 -23.124311 178.63403
1670000000 -4.5281653 176.5007 18.884642 76.760712 -28.342222 42.561092 -23.177259 179.59149
1680000000 -4.525465 176.25482 18.842384 76.434227 -28.319389 41.58707 -23.068565 179.99277
1690000000 -4.5309181 176.11383 18.793459 76.221222 -28.313557 42.473793 -23.082626 -178.92328
1700000000 -4.5406637 175.91379 18.749306 75.890724 -28.246222 41.997047 -23.091694 -179.14561
1710000000 -4.5347176 175.71381 18.701674 75.643196 -28.216959 43.42625 -23.13402 -178.46947
1720000000 -4.5248814 175.57957 18.654202 75.3769 -28.119623 42.30938 -23.065447 -178.3286
1730000000 -4.5345364 175.39026 18.615105 75.118439 -28.163694 42.254528 -23.24062 -177.23994
1740000000 -4.5234327 175.19739 18.572144 74.871994 -28.135218 42.085194 -23.194586 -176.28398
1750000000 -4.5273871 174.92174 18.523537 74.523491 -28.085876 41.392544 -23.074505 -176.14072
1760000000 -4.5237355 174.78627 18.483971 74.355705 -27.997814 41.866402 -23.087961 -176.41154
1770000000 -4.5337853 174.60149 18.432432 74.069176 -27.927534 41.505043 -23.088736 -175.38174
1780000000 -4.540442 174.47441 18.388447 73.801559 -27.951559 41.012215 -23.143896 -174.77129
1790000000 -4.5311418 174.22066 18.346958 73.550835 -27.712408 42.353645 -22.982225 -174.61641
1800000000 -4.5366383 174.11037 18.306343 73.341309 -27.74012 42.169022 -23.123573 -173.39514
1810000000 -4.5479016 173.88612 18.263611 73.084663 -27.756935 42.302948 -23.014488 -172.88515
1820000000 -4.5406704 173.75854 18.221718 72.795006 -27.805557 41.943981 -23.043898 -172.26256
1830000000 -4.5311017 173.52429 18.185871 72.565887 -27.610449 41.914227 -22.962305 -171.51901
1840000000 -4.5356593 173.35466 18.141241 72.256645 -27.628059 42.317852 -23.006102 -170.9825
1850000000 -4.5373931 173.16054 18.102516 72.014542 -27.61702 41.467808 -22.772371 -170.51337
1860000000 -4.5327978 172.97849 18.058203 71.703049 -27.643723 42.728825 -22.848166 -170.24953
1870000000 -4.5505309 172.83957 18.013939 71.48111 -27.547474 41.723866 -22.841454 -170.09389
1880000000 -4.548264 172.71326 17.967375 71.244347 -27.5322 40.851494 -22.768665 -169.73242
1890000000 -4.5427408 172.43245 17.936932 70.973816 -27.41757 42.246559 -22.781584 -170.12431
1900000000 -4.5386562 172.27792 17.88625 70.749039 -27.356014 42.667561 -22.774906 -168.77904
1910000000 -4.5408802 172.07646 17.854359 70.458862 -27.456671 41.991234 -22.487421 -168.72705
1920000000 -4.5367002 171.90685 17.807981 70.179634 -27.309313 42.025024 -22.585493 -167.07233
1930000000 -4.5534801 171.66194 17.766567 69.922371 -27.322683 40.531353 -22.483437 -167.74791
1940000000 -4.543005 171.52585 17.721695 69.699989 -27.242838 41.171188 -22.459009 -166.82396
1950000000 -4.5508914 171.33295 17.685717 69.492065 -27.213604 41.214016 -22.476202 -166.26842
1960000000 -4.5444446 171.25595 17.648397 69.258125 -27.184565 41.335609 -22.45857 -165.80096
1970000000 -4.5482121 171.14798 17.606411 68.983307 -27.151421 41.187168 -22.353697 -165.55344
1980000000 -4.5445561 170.98378 17.568804 68.711449 -27.087299 41.153034 -22.406084 -165.09428
1990000000 -4.5322599 170.68179 17.528711 68.490578 -27.081087 41.525314 -22.330133 -164.43776
2000000000 -4.5775146 170.4595 17.486929 68.192299 -26.955921 41.561405 -22.15333 -164.47968
2010000000 -4.5431685 170.27831 17.449995 67.99144 -26.931395 40.596478 -22.227383 -164.3992
2020000000 -4.543623 170.11732 17.41254 67.731354 -26.931751 41.131077 -22.221411 -164.15036
2030000000 -4.5474482 170.03447 17.370287 67.47377 -26.924116 41.171471 -22.061226 -163.54559
2040000000 -4.5554895 169.85501 17.33584 67.242416 -26.857573 40.906227 -22.04867 -163.00404
2050000000 -4.5541658 169.71333 17.303263 67.022614 -26.88908 41.047211 -21.981331 -162.717
2060000000 -4.5334992 169.48355 17.262762 66.733101 -26.801258 40.48016 -21.898373 -161.69112
2070000000 -4.5396352 169.13779 17.224718 66.456017 -26.731262 40.52943 -21.916742 -161.92351
2080000000 -4.5449572 168.96111 17.188416 66.232117 -26.819803 40.627426 -21.740389 -161.90065
2090000000 -4.5645194 168.84308 17.143639 66.024765 -26.618895 40.793797 -21.693846 -161.71893
2100000000 -4.5591097 168.55217 17.110888 65.72818 -26.812237 40.467499 -21.728436 -161.17375
2110000000 -4.5399547 168.45335 17.090096 65.515228 -26.663925 40.629074 -21.679716 -160.87018
2120000000 -4.5345845 168.30594 17.03968 65.301491 -26.510445 40.113335 -21.710678 -160.52087
2130000000 -4.5284619 168.07088 17.01202 64.987366 -26.473454 40.720074 -21.588533 -160.56857
