# Hz S  dB   R 50
10000000 -6.4040995 -72.139008 34.151981 148.54301 -35.086788 31.648252 -6.3653994 -95.785522
20000000 -9.5295792 -99.963661 31.729355 153.34311 -34.658714 20.18593 -8.6111012 -130.32726
30000000 -11.152236 -115.05061 30.779987 157.33051 -34.326984 14.979536 -9.3466578 -146.55382
40000000 -11.780242 -124.35037 30.353235 159.49641 -33.990379 11.887792 -9.6521044 -155.43057
50000000 -12.176405 -129.3573 30.134001 160.68114 -33.964241 11.476754 -9.8011456 -162.04224
60000000 -12.232176 -133.59453 29.983099 161.02373 -33.846077 8.1412983 -9.8729 -167.21362
70000000 -12.26966 -135.21957 29.888758 160.93353 -33.844166 5.2428765 -9.9675379 -170.59819
80000000 -12.180225 -136.75975 29.790579 160.53239 -33.656143 5.5676842 -10.111129 -173.48511
90000000 -12.025672 -137.73622 29.722235 159.93483 -33.772274 7.4884033 -10.12504 -175.97069
100000000 -11.875706 -138.34724 29.655724 159.26115 -33.836689 6.3407526 -10.190345 -178.27478
110000000 -11.728992 -138.79324 29.590311 158.42946 -33.709206 7.3391962 -10.245207 -179.97559
120000000 -11.489539 -139.28944 29.524799 157.52383 -33.792503 7.1350994 -10.299059 178.3929
130000000 -11.264384 -139.44209 29.457397 156.55049 -33.725983 6.6474371 -10.366235 176.70311
140000000 -11.048676 -139.68849 29.390989 155.54646 -33.78104 6.8116813 -10.467388 175.10205
150000000 -10.824829 -139.83478 29.322475 154.5453 -33.915501 7.9195499 -10.549963 173.81638
160000000 -10.626124 -139.77666 29.26841 153.48993 -33.746475 8.2119541 -10.635872 172.65691
170000000 -10.410851 -140.20866 29.193155 152.48997 -33.880333 7.1288147 -10.685238 171.46089
180000000 -10.151234 -140.44937 29.116049 151.36433 -33.948822 7.0805607 -10.731533 170.16772
190000000 -9.9459209 -140.5974 29.056297 150.25459 -33.869701 8.2447014 -10.78721 169.33112
200000000 -9.7675447 -140.95209 28.971008 149.25775 -33.963974 8.3095198 -10.863257 168.04257
210000000 -9.5416489 -141.12332 28.897196 148.2056 -33.79866 9.3492546 -10.985972 167.21274
220000000 -9.3499889 -141.34769 28.821598 147.08922 -33.822006 8.7065878 -11.084623 166.19099
230000000 -9.1621294 -141.69304 28.74074 146.10361 -33.728901 9.4510326 -11.160653 165.46474
240000000 -8.9858599 -141.98099 28.659132 145.02486 -33.72646 8.8041468 -11.24647 164.63617
250000000 -8.834239 -142.38652 28.56642 144.00116 -33.758194 9.5580835 -11.349009 163.91621
260000000 -8.6692209 -142.76553 28.495426 143.01866 -34.05405 7.6831946 -11.460166 163.01958
270000000 -8.4879293 -143.01555 28.405151 141.96031 -33.623451 13.612321 -11.587051 162.18987
280000000 -8.3029766 -143.46008 28.31665 140.9758 -33.861504 11.092278 -11.694057 161.83051
290000000 -8.1626062 -143.82947 28.226727 139.97366 -33.72897 8.1782684 -11.736989 161.31039
300000000 -7.9977703 -144.38808 28.135761 139.01137 -33.609585 11.253131 -11.828621 160.49591
310000000 -7.8593717 -144.60448 28.044239 138.0197 -33.926342 12.85663 -11.983556 159.88718
320000000 -7.7201719 -145.15967 27.95286 137.0849 -33.794044 11.897253 -12.054561 159.01842
330000000 -7.6072946 -145.59973 27.86125 136.19333 -33.986057 13.740526 -12.165066 158.61983
340000000 -7.4795218 -145.97343 27.7668 135.27086 -33.615269 12.420343 -12.272509 157.81056
350000000 -7.3504558 -146.45912 27.671732 134.37447 -34.008709 13.417096 -12.366676 157.8886
360000000 -7.2529407 -146.88461 27.583723 133.47989 -33.858803 14.928988 -12.467896 157.10162
370000000 -7.1305947 -147.44286 27.477406 132.60683 -33.855942 12.567385 -12.562804 156.75417
380000000 -7.0236592 -147.57401 27.394907 131.74316 -33.842491 16.341719 -12.713245 156.0674
390000000 -6.9266844 -148.13249 27.300407 130.83879 -33.993263 15.598754 -12.809909 155.79752
400000000 -6.8448782 -148.59608 27.202892 130.04863 -34.165363 14.548453 -12.90812 155.36464
410000000 -6.7387424 -149.09221 27.104248 129.22043 -33.812374 16.212765 -13.037692 155.18094
420000000 -6.6602902 -149.57999 27.004677 128.46878 -33.757748 16.377205 -13.131089 155.08482
430000000 -6.5786109 -150.07713 26.905394 127.70088 -33.494473 17.462282 -13.265499 154.38756
440000000 -6.4697175 -150.42528 26.816116 126.86398 -33.895313 18.332003 -13.337241 154.22893
450000000 -6.3985825 -150.825 26.726774 126.08784 -33.606251 18.027092 -13.479102 153.88644
460000000 -6.3179789 -151.25093 26.6199 125.37637 -33.528385 19.797825 -13.598663 153.79863
470000000 -6.2511048 -151.79036 26.531786 124.61567 -33.769978 18.161009 -13.635925 153.47118
480000000 -6.1806021 -152.07628 26.430428 123.90857 -33.583385 20.323187 -13.838667 153.27016
490000000 -6.1032739 -152.46941 26.340399 123.17462 -33.398479 20.144144 -13.929055 153.11316
500000000 -6.0681853 -152.90703 26.248978 122.48199 -33.55267 20.612215 -14.004173 152.71075
510000000 -5.9767094 -153.17871 26.146242 121.81046 -33.809494 19.605288 -14.131669 152.69508
520000000 -5.9318566 -153.6572 26.05991 121.18205 -33.591137 20.884943 -14.283975 152.3463
530000000 -5.8587837 -154.02477 25.9664 120.41588 -33.555309 21.581903 -14.389517 152.23637
540000000 -5.8147321 -154.44865 25.868706 119.77689 -33.455791 20.638109 -14.468985 152.04942
550000000 -5.7589803 -154.91707 25.770967 119.11965 -33.295918 23.043968 -14.620042 151.93279
560000000 -5.7021775 -155.22166 25.675249 118.4672 -33.72287 20.407259 -14.678316 151.85321
570000000 -5.6685934 -155.70329 25.595528 117.87195 -33.271011 22.469315 -14.754973 151.71045
580000000 -5.6207042 -155.88135 25.49785 117.22443 -33.205341 23.3202 -14.909105 151.63928
590000000 -5.5620079 -156.27757 25.412865 116.62701 -33.32827 22.596369 -15.014009 151.55078
600000000 -5.5075769 -156.64708 25.326851 116.01557 -32.919064 24.173944 -15.103509 151.42995
610000000 -5.4873252 -157.12201 25.216471 115.42538 -33.096115 24.584175 -15.240578 151.51451
620000000 -5.4454026 -157.42317 25.139286 114.87804 -32.934685 24.333239 -15.317503 151.59767
630000000 -5.3951025 -157.85284 25.046818 114.23689 -32.988644 24.51709 -15.465697 151.2326
640000000 -5.3568964 -158.26137 24.942381 113.71047 -33.172794 24.872128 -15.626091 151.71208
650000000 -5.3258319 -158.55696 24.87051 113.17363 -32.936298 25.674192 -15.694486 151.62509
660000000 -5.2933559 -158.85387 24.778458 112.62207 -32.953659 26.504663 -15.782182 151.83942
670000000 -5.2533312 -159.24124 24.698225 112.06947 -32.859608 26.247206 -15.857885 152.00699
680000000 -5.2211113 -159.51154 24.619217 111.52851 -32.850368 26.624706 -15.980321 151.66809
690000000 -5.2075133 -159.83969 24.52776 111.03848 -32.775581 25.425583 -16.104013 152.02551
700000000 -5.1869926 -160.19392 24.442591 110.49622 -32.820663 27.282213 -16.175285 151.97833
710000000 -5.1383576 -160.5146 24.35095 109.9398 -32.68927 28.262238 -16.324738 152.2715
720000000 -5.1138873 -160.72453 24.280426 109.41253 -32.624851 27.588585 -16.404238 151.9337
730000000 -5.0942173 -161.07523 24.193409 108.92685 -32.744427 27.782791 -16.468613 152.21382
740000000 -5.0544868 -161.34023 24.104826 108.3875 -32.590012 27.74258 -16.546703 152.15976
750000000 -5.0343132 -161.65749 24.020498 107.9522 -32.598625 29.288343 -16.691389 152.56456
760000000 -5.0105023 -161.98404 23.947424 107.45722 -32.617619 29.332603 -16.740686 152.73248
770000000 -4.9858942 -162.2269 23.861898 106.96822 -32.395447 28.005457 -16.874475 152.45599
780000000 -4.9637747 -162.57001 23.77755 106.51239 -32.365448 29.922441 -16.983603 153.07878
790000000 -4.9431739 -162.86543 23.699095 106.05854 -32.342873 30.639498 -17.055458 153.12358
800000000 -4.9226537 -163.12878 23.613417 105.58617 -32.205296 31.186972 -17.166567 153.26839
810000000 -4.8987718 -163.46635 23.543137 105.10799 -32.286911 30.305283 -17.201544 153.47844
820000000 -4.8801165 -163.78804 23.464485 104.66937 -32.177486 30.148052 -17.335808 153.49533
830000000 -4.8624668 -164.05614 23.382462 104.21265 -32.152081 31.526394 -17.422482 153.80437
840000000 -4.8543758 -164.31149 23.304287 103.80263 -32.1283 31.033068 -17.532391 153.96481
850000000 -4.8329496 -164.64482 23.227415 103.3424 -32.07766 30.480007 -17.660004 154.50595
860000000 -4.818872 -164.88194 23.149569 102.92074 -32.113232 32.316223 -17.703058 154.3409
870000000 -4.8003521 -165.1644 23.080137 102.50562 -32.005959 32.819439 -17.780067 154.81911
880000000 -4.7825952 -165.31886 22.99876 102.06603 -31.86875 31.651459 -17.854982 155.02057
890000000 -4.7577415 -165.61378 22.926525 101.64374 -31.723387 33.615555 -17.929029 155.28795
900000000 -4.749229 -165.87796 22.846493 101.29358 -31.715387 31.7981 -18.040237 155.91203
910000000 -4.7326093 -166.16513 22.771732 100.86718 -31.720026 33.15266 -18.14366 155.7401
920000000 -4.7115655 -166.35107 22.706783 100.49344 -31.68808 33.88739 -18.252674 156.10161
930000000 -4.7097268 -166.46857 22.634127 100.12117 -31.724533 34.117275 -18.342775 156.24768
940000000 -4.6913476 -166.83966 22.563414 99.683182 -31.518898 33.537819 -18.437595 156.9324
950000000 -4.6827302 -167.08182 22.482422 99.270714 -31.497732 34.882416 -18.559242 156.86621
960000000 -4.6732321 -167.39011 22.418884 98.841484 -31.500702 34.710396 -18.600903 157.26187
970000000 -4.6533151 -167.69002 22.343119 98.485588 -31.382618 35.368183 -18.680651 157.93585
980000000 -4.6538992 -167.84157 22.280142 98.106651 -31.291904 35.06884 -18.751406 158.0735
990000000 -4.6391015 -168.19269 22.202271 97.688812 -31.273064 34.386753 -18.802544 158.14178
1000000000 -4.6200252 -170.17754 22.144197 97.312302 -31.27235 34.910568 -18.915792 160.47926
1010000000 -4.6234436 -168.60347 22.07906 96.905518 -31.256996 34.73748 -18.896507 159.05194
1020000000 -4.6079183 -168.8927 21.993139 96.53775 -31.316107 35.397392 -19.061371 159.39536
1030000000 -4.5949025 -169.13661 21.931 96.158958 -31.318882 35.884998 -19.138893 159.93881
1040000000 -4.593308 -169.33386 21.862967 95.812416 -31.164612 36.80711 -19.178942 160.3168
1050000000 -4.5834894 -169.5817 21.795765 95.44796 -30.915159 35.127781 -19.260902 160.60165
1060000000 -4.5778942 -169.71626 21.726709 95.17424 -31.054142 36.019421 -19.395576 161.16801
1070000000 -4.5832934 -169.91376 21.659071 94.776779 -30.723576 36.85989 -19.450565 161.83939
1080000000 -4.5548382 -170.15425 21.592527 94.423195 -30.802174 35.993999 -19.491257 161.77826
1090000000 -4.5489531 -170.45175 21.52112 94.041122 -30.946821 36.076057 -19.611826 162.49956
1100000000 -4.5395651 -170.57967 21.468813 93.704552 -30.849451 36.612728 -19.650169 162.73875
1110000000 -4.5398054 -170.83945 21.406092 93.352226 -30.692165 35.906414 -19.7586 163.4722
1120000000 -4.5307174 -171.08049 21.342653 93.075729 -30.623146 36.652493 -19.790468 163.48766
1130000000 -4.5263343 -171.24095 21.274601 92.691994 -30.69017 37.550041 -19.914209 164.25212
1140000000 -4.5274582 -171.50494 21.214943 92.426193 -30.540802 37.074257 -19.938969 164.76811
1150000000 -4.5151491 -171.75185 21.143938 91.998222 -30.510418 37.263237 -20.040867 165.37027
1160000000 -4.5105271 -171.93108 21.092562 91.650414 -30.59099 37.138443 -20.135527 165.61592
1170000000 -4.5056839 -172.07314 21.024895 91.356422 -30.481417 36.353836 -20.177471 165.86108
1180000000 -4.5000839 -172.30878 20.965317 90.996834 -30.322105 38.584671 -20.172192 166.25778
1190000000 -4.4942632 -172.59572 20.901615 90.705658 -30.302843 39.221279 -20.278742 166.88324
1200000000 -4.4856672 -172.79324 20.841883 90.317932 -30.300867 37.65728 -20.348171 167.30064
1210000000 -4.4828982 -173.00122 20.783604 90.047226 -30.387289 38.715343 -20.419678 167.87233
1220000000 -4.4865675 -173.13548 20.72143 89.704979 -30.167208 38.083675 -20.373892 168.12534
1230000000 -4.4709296 -173.35106 20.667011 89.373878 -29.984531 37.868446 -20.566765 168.88428
1240000000 -4.4752913 -173.51286 20.610229 89.102425 -30.065401 38.142941 -20.552521 169.21202
1250000000 -4.4683552 -173.72786 20.552717 88.783913 -29.918144 38.86607 -20.565176 169.69997
1260000000 -4.4613295 -173.93005 20.496862 88.436768 -30.013798 38.610771 -20.694149 170.27908
1270000000 -4.462615 -174.16969 20.435331 88.134109 -29.982149 38.573883 -20.607019 170.93971
1280000000 -4.4502139 -174.34143 20.372887 87.826775 -29.94952 38.664482 -20.7803 171.69487
1290000000 -4.4491529 -174.61877 20.316648 87.492538 -29.857645 39.415276 -20.735846 171.68431
1300000000 -4.4410982 -174.74059 20.261795 87.206207 -29.785646 39.363537 -20.736462 172.11937
1310000000 -4.437973 -174.94814 20.204456 86.894539 -29.734035 39.216537 -20.879345 172.8403
1320000000 -4.4313822 -175.15019 20.151882 86.588509 -29.726948 39.293114 -20.863371 173.07405
1330000000 -4.433372 -175.3887 20.098976 86.283852 -29.604691 38.709587 -20.91061 173.46838
1340000000 -4.4377341 -175.51901 20.038481 86.026176 -29.461781 38.751442 -20.993694 174.58231
1350000000 -4.429955 -175.80478 19.983681 85.724838 -29.437218 39.386333 -21.055828 174.57562
1360000000 -4.4281564 -175.96617 19.937387 85.410141 -29.448862 38.78064 -21.164557 174.96693
1370000000 -4.4259863 -176.06403 19.874254 85.11972 -29.461145 38.616631 -21.136139 174.93221
1380000000 -4.4141288 -176.38324 19.822887 84.800568 -29.323284 38.788548 -21.146807 175.66508
1390000000 -4.4092464 -176.43942 19.781389 84.510933 -29.3293 39.189991 -21.178192 175.80843
1400000000 -4.4188876 -176.76419 19.718227 84.187225 -29.272169 39.321461 -21.147493 176.60803
1410000000 -4.4201798 -176.95009 19.665825 83.89502 -29.276142 40.136257 -21.264128 176.93979
1420000000 -4.4202437 -177.1998 19.607328 83.657555 -29.184599 39.352615 -21.293072 176.95958
1430000000 -4.4112134 -177.37184 19.556618 83.33461 -29.130049 39.448364 -21.271484 178.26695
1440000000 -4.4000945 -177.56961 19.512018 83.029045 -29.176662 39.32325 -21.248302 178.38924
1450000000 -4.3964562 -177.75818 19.462479 82.758865 -29.148966 39.760212 -21.283718 178.61116
1460000000 -4.4023128 -177.93712 19.409609 82.421715 -29.055836 40.015495 -21.233631 179.67336
1470000000 -4.3871126 -178.13243 19.357618 82.214485 -29.11274 38.740101 -21.326954 179.95244
1480000000 -4.3948884 -178.37097 19.302921 81.919662 -29.008171 39.981449 -21.364002 -179.42804
1490000000 -4.400383 -178.49557 19.248814 81.633484 -28.985653 39.061939 -21.410276 -179.23651
1500000000 -4.4065704 -178.73808 19.198053 81.330345 -29.003124 39.786388 -21.341259 -178.80998
1510000000 -4.3998532 -178.84752 19.147013 81.064011 -28.743895 39.977955 -21.403917 -178.59909
1520000000 -4.3947964 -179.04254 19.102333 80.804619 -28.844582 39.920086 -21.409554 -177.68863
1530000000 -4.3968248 -179.16937 19.050074 80.537613 -28.766083 39.823582 -21.444664 -177.33437
1540000000 -4.3928504 -179.47795 19.011169 80.220306 -28.638275 39.915791 -21.405714 -176.97714
1550000000 -4.3953276 -179.7207 18.957886 79.910561 -28.652348 39.868954 -21.489328 -176.20285
1560000000 -4.3879743 -179.88828 18.913271 79.656082 -28.639734 40.146843 -21.400009 -176.40398
1570000000 -4.3921447 179.97679 18.860186 79.410698 -28.489866 39.576809 -21.348379 -175.65607
1580000000 -4.4059134 179.7955 18.817995 79.109375 -28.447329 39.90913 -21.385971 -175.06299
1590000000 -4.400053 179.63542 18.764019 78.875626 -28.5665 39.958553 -21.377705 -174.92346
1600000000 -4.3914618 179.44556 18.714602 78.59391 -28.37464 40.468361 -21.479721 -173.95357
1610000000 -4.3766623 179.30339 18.67334 78.305084 -28.440294 40.13702 -21.38809 -173.7643
1620000000 -4.3829689 179.04332 18.629025 78.027023 -28.323994 39.687355 -21.455517 -173.74652
1630000000 -4.3787708 178.86896 18.585981 77.76989 -28.253624 40.780392 -21.326115 -172.9819
1640000000 -4.3922105 178.65009 18.5378 77.495728 -28.220018 39.41679 -21.328899 -172.53984
1650000000 -4.3949056 178.48085 18.491207 77.255798 -28.1833 39.791443 -21.323408 -172.39412
1660000000 -4.3912239 178.36885 18.442781 76.977882 -28.160307 40.249992 -21.314697 -171.88065
1670000000 -4.3891149 178.1884 18.407766 76.733055 -28.123795 39.691959 -21.363836 -171.63451
1680000000 -4.3824263 177.93056 18.364807 76.432861 -28.132994 40.508743 -21.294781 -171.39595
1690000000 -4.3764157 177.68027 18.314016 76.19693 -28.010935 40.627739 -21.212049 -170.66518
1700000000 -4.3808298 177.53252 18.269535 75.870926 -28.00688 40.123909 -21.262068 -170.35121
1710000000 -4.3800721 177.33383 18.224848 75.617851 -28.114153 40.250263 -21.280806 -170.46126
1720000000 -4.3770986 177.11552 18.178617 75.368294 -27.863153 39.748211 -21.295916 -170.62727
1730000000 -4.390408 176.99834 18.133837 75.111458 -27.775579 39.705914 -21.233631 -169.47617
1740000000 -4.3804364 176.82652 18.096952 74.849091 -27.829865 39.330189 -21.240891 -169.57007
1750000000 -4.377429 176.56995 18.047792 74.515343 -27.811398 39.878414 -21.232212 -168.80511
1760000000 -4.3675981 176.41435 18.008165 74.343765 -27.708815 39.562767 -21.229952 -169.03615
1770000000 -4.3779097 176.17023 17.959572 74.047737 -27.717491 39.848259 -21.20719 -168.05789
1780000000 -4.3857117 175.99176 17.915699 73.778564 -27.693697 39.463242 -21.179344 -167.97662
1790000000 -4.3938742 175.84084 17.870525 73.542152 -27.563885 39.76059 -21.103615 -167.60606
1800000000 -4.3875232 175.69832 17.830975 73.339905 -27.581758 40.193768 -21.159109 -167.64574
1810000000 -4.3975749 175.43581 17.791107 73.049713 -27.616867 39.107155 -21.085922 -166.66835
1820000000 -4.3834991 175.30115 17.746513 72.764999 -27.423124 38.724033 -21.123388 -166.10355
1830000000 -4.3836513 175.03563 17.710123 72.515358 -27.478718 39.093533 -20.980505 -165.62898
1840000000 -4.3635764 174.91847 17.668983 72.232445 -27.362286 39.142082 -20.961712 -166.21584
1850000000 -4.3887124 174.62154 17.622622 71.990799 -27.482969 39.007057 -20.911007 -165.72537
1860000000 -4.3713946 174.44783 17.584394 71.671509 -27.392321 39.463978 -20.894138 -165.58623
1870000000 -4.3943305 174.32349 17.534103 71.457886 -27.310667 39.804382 -20.891878 -164.95728
1880000000 -4.3938408 174.09023 17.490778 71.199593 -27.2159 39.269611 -20.885136 -164.74026
1890000000 -4.3803797 173.96138 17.462948 70.971863 -27.298159 40.117046 -20.817701 -164.8378
1900000000 -4.376265 173.84326 17.415894 70.738167 -27.119514 39.367146 -20.78339 -164.03928
1910000000 -4.3802295 173.54935 17.378969 70.414345 -27.17021 39.157703 -20.726259 -163.98376
1920000000 -4.3729944 173.34976 17.335297 70.152969 -27.132252 39.421528 -20.671803 -163.31448
1930000000 -4.3892732 173.10677 17.294193 69.892303 -27.040552 39.19788 -20.679531 -163.68398
1940000000 -4.3941159 172.9512 17.246992 69.659424 -27.09621 38.951946 -20.562849 -163.52786
1950000000 -4.3957539 172.82909 17.210411 69.458611 -27.00009 38.310745 -20.59066 -162.78694
1960000000 -4.3869534 172.67674 17.177126 69.177078 -26.998638 39.378017 -20.651709 -162.85201
1970000000 -4.390451 172.44278 17.136332 68.920792 -27.027241 38.763889 -20.529192 -162.0092
1980000000 -4.3897729 172.2999 17.099396 68.651848 -26.995022 39.053535 -20.502251 -162.41194
1990000000 -4.3826385 172.16402 17.054394 68.455048 -26.960344 39.645016 -20.448025 -161.44562
2000000000 -4.4152579 171.86458 17.01498 68.154617 -26.755434 39.263905 -20.352842 -162.03357
2010000000 -4.3822627 171.71991 16.977068 67.923149 -26.873878 39.100014 -20.434744 -161.69624
2020000000 -4.3930664 171.53001 16.938395 67.668739 -26.778599 39.117744 -20.300478 -161.55373
2030000000 -4.4031229 171.32689 16.899719 67.41008 -26.606806 39.529579 -20.353748 -161.27144
2040000000 -4.3917437 171.18002 16.86499 67.203239 -26.689127 38.494713 -20.199232 -161.63094
2050000000 -4.3974962 171.00859 16.830809 66.955055 -26.742266 38.664635 -20.199949 -160.71481
2060000000 -4.383606 170.79288 16.791931 66.667 -26.501152 38.841118 -20.111444 -160.51503
2070000000 -4.382411 170.46902 16.756725 66.381088 -26.597977 38.848572 -20.080967 -160.36836
2080000000 -4.3838482 170.33107 16.718142 66.189369 -26.570976 39.089069 -20.018053 -160.42914
2090000000 -4.3943348 170.16544 16.672007 65.96389 -26.457216 38.227222 -19.998144 -160.22606
2100000000 -4.3902216 169.9485 16.642906 65.689072 -26.59346 38.120613 -20.006195 -160.01491
2110000000 -4.3916993 169.76537 16.615339 65.436424 -26.543081 38.639641 -19.941296 -160.11731
2120000000 -4.3785315 169.55353 16.567902 65.22364 -26.357222 37.747231 -19.960938 -159.87727
2130000000 -4.3781219 169.37904 16.540363 64.917618 -26.4664 38.248638 -19.895725 -159.7011
