# Hz S  dB   R 50
10000000 -6.5718513 -79.725731 34.649612 147.58499 -36.500435 34.705044 -6.1171389 -103.43127
20000000 -9.4838095 -108.71867 32.145718 152.41518 -35.120697 24.376137 -8.0867405 -135.93924
30000000 -10.610528 -123.75774 31.164377 156.61693 -34.155716 12.884697 -8.5101709 -150.85878
40000000 -11.112598 -132.5954 30.717854 158.92485 -34.224251 10.842957 -8.7484941 -159.3428
50000000 -11.407951 -137.79082 30.490164 160.19066 -34.73439 10.23196 -8.893692 -165.46333
60000000 -11.456842 -141.11313 30.333565 160.60121 -33.867619 11.848929 -8.9232693 -169.98618
70000000 -11.465421 -142.97372 30.236897 160.56212 -34.50256 6.9396186 -9.0054703 -173.24461
80000000 -11.357285 -144.53329 30.135401 160.19962 -34.197521 8.5388651 -9.0983868 -175.86987
90000000 -11.27061 -145.18558 30.065079 159.62921 -34.510723 6.6226244 -9.1156244 -178.28555
100000000 -11.167805 -145.78951 29.997547 158.97969 -34.368374 6.2784572 -9.1996202 179.53577
110000000 -11.019513 -146.13411 29.929003 158.16911 -34.598183 6.6224051 -9.2325277 177.75304
120000000 -10.816493 -146.33047 29.864359 157.28387 -34.549915 7.0514703 -9.3113451 176.14249
130000000 -10.657244 -146.48283 29.794697 156.31941 -34.432053 6.6952181 -9.3668823 174.57356
140000000 -10.46725 -146.46265 29.728008 155.32832 -34.491337 7.2056627 -9.4566736 173.06044
150000000 -10.282522 -146.48038 29.658913 154.34004 -34.49995 7.6638165 -9.5499134 171.78484
160000000 -10.1235 -146.35999 29.603537 153.30385 -34.490574 7.7573338 -9.6209078 170.56607
170000000 -9.9424667 -146.57321 29.528854 152.29948 -34.477295 8.1923857 -9.6805096 169.39162
180000000 -9.7346783 -146.53069 29.450205 151.18805 -34.290543 8.2998161 -9.7215939 168.18622
190000000 -9.5598192 -146.60869 29.390306 150.07617 -34.181332 8.5312614 -9.7856407 167.34773
200000000 -9.397522 -146.89088 29.303627 149.10063 -34.414486 9.5291529 -9.8748226 166.02202
210000000 -9.2154207 -146.92001 29.232407 148.02951 -34.56876 8.7726669 -10.002718 165.16714
220000000 -9.0030746 -146.95985 29.154142 146.91617 -34.384899 9.1026859 -10.074863 164.09175
230000000 -8.875248 -147.24942 29.0707 145.95044 -34.401295 10.515034 -10.170415 163.18323
240000000 -8.7183018 -147.33168 28.990105 144.8802 -34.413189 10.570057 -10.26621 162.42709
250000000 -8.5691662 -147.61078 28.898209 143.85722 -34.636379 10.20356 -10.355064 161.46107
260000000 -8.4361248 -147.73251 28.826027 142.90845 -34.504402 10.499705 -10.462798 160.34171
270000000 -8.2765341 -148.17996 28.737043 141.83249 -34.981789 9.8914509 -10.571146 160.02936
280000000 -8.1143837 -148.36243 28.64629 140.83501 -34.375008 9.2472353 -10.656701 159.62158
290000000 -7.9816566 -148.69496 28.55632 139.84566 -34.707306 10.908306 -10.739831 158.32942
300000000 -7.8285589 -149.16216 28.464245 138.85298 -34.953701 11.116741 -10.849178 157.57114
310000000 -7.6910768 -149.27534 28.372095 137.89807 -34.464779 13.02688 -10.973363 157.33121
320000000 -7.5582371 -149.50253 28.285322 136.99545 -34.515961 15.188512 -11.049948 156.46291
330000000 -7.4584494 -150.10718 28.190601 136.08966 -34.289284 13.245119 -11.174219 155.69687
340000000 -7.3457069 -150.39235 28.095848 135.17342 -34.269676 15.312478 -11.24974 155.31116
350000000 -7.2456074 -150.60501 27.998043 134.24736 -34.33054 13.958618 -11.393402 154.86913
360000000 -7.13236 -151.06117 27.909452 133.34671 -34.681576 13.420028 -11.496451 154.44058
370000000 -7.0320482 -151.54175 27.807659 132.49774 -34.609901 17.826777 -11.582609 153.65881
380000000 -6.9277973 -151.67003 27.722425 131.64543 -34.571606 14.748083 -11.718055 153.07443
390000000 -6.8503947 -151.9451 27.623648 130.74698 -34.514584 17.01368 -11.843661 152.70181
400000000 -6.7594972 -152.35161 27.531878 129.95927 -34.479961 15.630164 -11.916618 152.36134
410000000 -6.658278 -152.89876 27.430895 129.10669 -34.105598 19.009518 -12.064219 152.00954
420000000 -6.5724473 -153.26239 27.336754 128.35747 -34.141502 16.200947 -12.173344 151.65735
430000000 -6.519949 -153.64859 27.229456 127.61192 -34.146431 18.919128 -12.284698 151.24779
440000000 -6.4311833 -153.98218 27.137352 126.77248 -34.375023 17.88847 -12.391912 151.02176
450000000 -6.3572392 -154.32964 27.054836 126.01096 -34.287868 20.656298 -12.523259 150.43515
460000000 -6.2771316 -154.62444 26.948349 125.29638 -34.141418 19.176218 -12.614197 150.16539
470000000 -6.2237167 -155.02509 26.856258 124.52963 -34.224766 19.537828 -12.740907 149.96448
480000000 -6.153645 -155.30112 26.754452 123.84045 -34.048386 18.780348 -12.877414 149.61584
490000000 -6.0907102 -155.74461 26.66753 123.06557 -33.876732 21.367298 -13.018687 149.30803
500000000 -6.0619254 -155.94272 26.573441 122.40867 -33.949318 20.704374 -13.082094 149.09158
510000000 -5.9746966 -156.23912 26.470387 121.72136 -33.966785 23.813444 -13.17968 148.90054
520000000 -5.9263806 -156.69327 26.384985 121.09505 -34.020699 25.040779 -13.356637 148.16275
530000000 -5.8595996 -157.03885 26.289145 120.34791 -34.0313 23.333672 -13.432534 148.17657
540000000 -5.8065791 -157.39738 26.194736 119.72611 -33.956696 24.109667 -13.552566 147.89626
550000000 -5.754241 -157.77998 26.097721 119.06077 -33.974545 22.275612 -13.678041 147.48883
560000000 -5.7145128 -158.11412 25.998198 118.40845 -33.694874 25.532841 -13.778652 147.46591
570000000 -5.6646814 -158.46741 25.918848 117.79458 -33.796799 22.35582 -13.857967 147.26936
580000000 -5.6226149 -158.76135 25.821566 117.144 -33.940159 22.684162 -13.975714 147.30437
590000000 -5.5666246 -159.06088 25.735535 116.55109 -33.825306 25.810596 -14.106435 147.13786
600000000 -5.5266986 -159.27428 25.653812 115.94389 -33.79171 27.385298 -14.208275 146.88577
610000000 -5.4843588 -159.80115 25.545383 115.35262 -33.441288 27.537441 -14.306337 146.97334
620000000 -5.4545202 -160.0654 25.460402 114.8323 -33.777397 27.414656 -14.446046 146.86499
630000000 -5.413785 -160.40221 25.368755 114.18949 -33.896801 26.922415 -14.555532 146.7249
640000000 -5.3706408 -160.78748 25.265444 113.65991 -33.520664 27.34334 -14.734052 146.78998
650000000 -5.3487058 -161.04979 25.193291 113.11823 -33.422585 26.578331 -14.822531 146.90404
660000000 -5.3152289 -161.26382 25.104654 112.57886 -33.383957 29.082085 -14.907125 146.8575
670000000 -5.2822819 -161.63622 25.018646 112.01952 -33.360966 28.228428 -14.996168 146.9798
680000000 -5.2592874 -161.9381 24.936138 111.46861 -33.148815 29.395693 -15.09486 146.91252
690000000 -5.2353044 -162.29147 24.848 110.97746 -33.319103 29.374321 -15.204458 146.804
700000000 -5.2012677 -162.57309 24.765396 110.45073 -33.132618 31.328894 -15.320782 146.70766
710000000 -5.1824107 -162.77103 24.668268 109.89831 -32.943779 30.070103 -15.464663 147.04927
720000000 -5.1363363 -163.03284 24.602106 109.38739 -32.984547 31.168797 -15.564037 146.41547
730000000 -5.1252294 -163.37929 24.513752 108.89455 -33.106339 31.03529 -15.672786 146.79582
740000000 -5.0975447 -163.56921 24.425623 108.34823 -32.886833 32.069855 -15.781624 146.71722
750000000 -5.0667768 -163.99733 24.342422 107.91727 -32.846928 30.870667 -15.845301 146.89577
760000000 -5.0453973 -164.17461 24.264217 107.42476 -32.828354 31.574286 -15.931047 146.73679
770000000 -5.0279698 -164.41673 24.183859 106.93288 -32.744293 31.842649 -16.076715 146.87378
780000000 -5.0166035 -164.71031 24.097879 106.4709 -32.613285 31.763552 -16.191803 146.96416
790000000 -4.993454 -165.04776 24.016895 106.03104 -32.824696 32.154324 -16.257975 147.13724
800000000 -4.9735169 -165.27837 23.932474 105.53796 -32.513237 32.540508 -16.388145 147.03973
810000000 -4.9374642 -165.5416 23.861654 105.08122 -32.377621 33.397236 -16.476114 147.41434
820000000 -4.9257188 -165.80162 23.782814 104.63735 -32.62635 32.564251 -16.587576 147.51779
830000000 -4.9110823 -166.10263 23.699036 104.18949 -32.521687 32.550274 -16.638021 147.42313
840000000 -4.9029608 -166.34804 23.624296 103.77449 -32.388882 33.10471 -16.777924 147.59193
850000000 -4.8906569 -166.62744 23.547314 103.3268 -32.391655 33.798805 -16.920799 147.96136
860000000 -4.8678112 -166.80385 23.470844 102.90173 -32.176575 34.626328 -16.929466 148.14088
870000000 -4.8374057 -167.02689 23.399811 102.48662 -32.340405 34.268517 -17.067841 148.37015
880000000 -4.828145 -167.29752 23.318443 102.02514 -32.15131 34.989365 -17.186333 148.45641
890000000 -4.8100681 -167.60435 23.246107 101.61015 -32.260246 35.444618 -17.262587 148.74031
900000000 -4.816258 -167.81343 23.164572 101.2813 -32.083534 35.679234 -17.378458 148.73892
910000000 -4.7883224 -168.03731 23.091892 100.84062 -32.052952 35.725716 -17.44973 148.69406
920000000 -4.7669854 -168.1617 23.023571 100.46574 -32.146183 35.752781 -17.588762 149.11148
930000000 -4.7712636 -168.36412 22.954681 100.10381 -31.964994 36.947845 -17.703997 149.29182
940000000 -4.7565861 -168.66774 22.882078 99.680389 -31.893478 36.446995 -17.802286 149.79109
950000000 -4.7353182 -168.90527 22.798244 99.24324 -31.887772 36.321281 -17.884983 149.66162
960000000 -4.7310834 -169.17912 22.739893 98.831482 -31.7061 36.298115 -17.961508 150.3261
970000000 -4.7225766 -169.43179 22.660267 98.46508 -31.841276 36.669708 -18.079832 150.47604
980000000 -4.7077155 -169.6581 22.599342 98.077164 -31.663067 37.731964 -18.143673 150.85086
990000000 -4.7029929 -169.89809 22.51878 97.702873 -31.535397 36.597202 -18.214491 151.16037
1000000000 -4.6849132 -171.9183 22.458817 97.302361 -31.576616 36.716187 -18.376883 152.80617
1010000000 -4.6802363 -170.31583 22.395321 96.927109 -31.535191 37.097355 -18.351149 151.62579
1020000000 -4.6686201 -170.61678 22.311512 96.494766 -31.476999 38.138363 -18.568945 151.75195
1030000000 -4.6631446 -170.81383 22.245647 96.157906 -31.434755 38.66153 -18.631773 152.35292
1040000000 -4.6433148 -171.02379 22.183342 95.814766 -31.402317 37.650692 -18.696594 152.41856
1050000000 -4.6526446 -171.21284 22.110605 95.470619 -31.30809 37.789165 -18.791126 152.77583
1060000000 -4.6403384 -171.4689 22.047102 95.128899 -31.39036 38.74844 -18.887138 153.30081
1070000000 -4.6326008 -171.60223 21.98391 94.746559 -31.141172 38.351452 -18.989477 153.40016
1080000000 -4.624773 -171.78381 21.910965 94.417786 -31.132412 39.580235 -19.04801 153.62932
1090000000 -4.617465 -172.06488 21.838909 94.049652 -31.212549 38.402302 -19.206509 154.43443
1100000000 -4.6090112 -172.16553 21.78636 93.701805 -31.073496 38.582901 -19.20326 154.53699
1110000000 -4.6062584 -172.43912 21.726322 93.342712 -31.000824 38.684811 -19.38686 155.08772
1120000000 -4.602344 -172.62097 21.660404 93.07666 -30.821625 38.389019 -19.451456 155.68102
1130000000 -4.6019392 -172.83273 21.588776 92.697266 -30.928118 39.266518 -19.544378 155.72668
1140000000 -4.5990934 -173.08696 21.532305 92.420372 -30.767576 37.93618 -19.599272 156.16682
1150000000 -4.5886946 -173.31438 21.463423 92.002235 -30.873045 40.311428 -19.763861 156.78226
1160000000 -4.5829535 -173.40306 21.407753 91.664818 -30.672756 39.165684 -19.849846 157.11137
1170000000 -4.5745816 -173.65923 21.345053 91.332008 -30.748245 39.327541 -19.879438 157.49135
1180000000 -4.572608 -173.81622 21.283508 91.009354 -30.603958 40.345272 -19.936972 157.91161
1190000000 -4.5680428 -174.06201 21.222862 90.738457 -30.63961 39.751148 -20.091661 158.21123
1200000000 -4.5573759 -174.31367 21.156708 90.342896 -30.46072 39.947586 -20.147604 158.56201
1210000000 -4.5595827 -174.48514 21.099041 90.051651 -30.47031 38.910736 -20.204529 159.32072
1220000000 -4.5657067 -174.65714 21.035566 89.738861 -30.493248 40.244438 -20.196814 159.68425
1230000000 -4.5414038 -174.81299 20.983522 89.392815 -30.221424 40.273083 -20.389053 159.81642
1240000000 -4.54316 -174.95697 20.921211 89.122963 -30.189852 40.461838 -20.430189 160.58835
1250000000 -4.544436 -175.19827 20.86762 88.794479 -30.167822 40.436035 -20.463623 160.83989
1260000000 -4.5453925 -175.36838 20.807966 88.457146 -30.139626 39.897453 -20.561596 161.05397
1270000000 -4.5393701 -175.55673 20.748871 88.13958 -30.096254 40.976234 -20.543911 162.00053
1280000000 -4.5337601 -175.78935 20.691675 87.853813 -30.039988 40.670113 -20.668806 162.42801
1290000000 -4.5284691 -176.01248 20.629002 87.507622 -30.083342 40.162632 -20.723576 162.83443
1300000000 -4.5216236 -176.12411 20.577173 87.226868 -29.995932 40.649929 -20.726995 163.4697
1310000000 -4.5208907 -176.30696 20.518044 86.907913 -29.940821 41.241112 -20.812061 164.14613
1320000000 -4.5209746 -176.53366 20.464102 86.614471 -29.707972 40.287258 -20.94865 164.16193
1330000000 -4.504993 -176.80238 20.416525 86.314438 -29.748165 41.393898 -20.98333 164.44568
1340000000 -4.5048194 -176.96495 20.355499 86.028481 -29.875019 41.239952 -21.007483 165.34566
1350000000 -4.5081491 -177.07668 20.301065 85.753777 -29.738226 40.907925 -21.116783 165.57823
1360000000 -4.5152631 -177.2923 20.252392 85.463699 -29.693375 40.376595 -21.159649 165.66608
1370000000 -4.4986887 -177.43947 20.191343 85.166565 -29.62142 40.142563 -21.221483 165.7758
1380000000 -4.4918113 -177.66275 20.138992 84.854675 -29.711298 40.589687 -21.353369 166.85777
1390000000 -4.4866009 -177.81642 20.094999 84.548141 -29.36869 41.767921 -21.28253 167.07811
1400000000 -4.4993024 -178.08356 20.029131 84.220596 -29.487501 41.129383 -21.32362 167.69818
1410000000 -4.4934635 -178.24213 19.982948 83.921936 -29.395273 40.19175 -21.464991 168.33424
1420000000 -4.4943242 -178.49319 19.924904 83.685013 -29.49848 41.684361 -21.402832 168.55055
1430000000 -4.4973745 -178.67737 19.868067 83.351746 -29.467377 41.739937 -21.535995 169.36801
1440000000 -4.4934402 -178.84106 19.823229 83.092262 -29.217134 40.956661 -21.510544 169.98415
1450000000 -4.4841685 -179.02664 19.775028 82.794518 -29.090067 40.752102 -21.602516 170.59154
1460000000 -4.4792914 -179.23282 19.724558 82.463814 -29.240313 42.072853 -21.580997 170.91624
1470000000 -4.4766879 -179.39944 19.671333 82.241623 -29.155718 42.083614 -21.671299 171.64783
1480000000 -4.4813032 -179.61681 19.615726 81.94783 -29.171207 41.681553 -21.713259 172.09898
1490000000 -4.4851952 -179.75238 19.564802 81.666969 -29.151781 41.708706 -21.690784 172.19402
1500000000 -4.4878306 -179.89246 19.509914 81.392746 -28.981987 42.004257 -21.665203 172.75713
1510000000 -4.4903307 179.88292 19.461432 81.115257 -28.984104 41.841656 -21.785957 173.02255
1520000000 -4.4875522 179.75484 19.416471 80.872154 -28.990108 40.954487 -21.825691 173.71402
1530000000 -4.4771528 179.51309 19.364756 80.585716 -28.827726 41.601807 -21.806757 174.08287
1540000000 -4.4823904 179.28459 19.321381 80.260834 -28.690542 41.128014 -21.796762 174.65944
1550000000 -4.4843373 179.12096 19.268909 79.983635 -28.691702 42.408066 -21.895493 175.29756
1560000000 -4.4788847 178.93269 19.225693 79.699402 -28.722282 42.085361 -21.860601 175.58119
1570000000 -4.4838982 178.7403 19.17008 79.467735 -28.636765 42.324181 -21.820444 176.05003
1580000000 -4.4919558 178.61366 19.125898 79.168114 -28.542952 41.814117 -21.934671 176.88107
1590000000 -4.4826794 178.47226 19.074022 78.942238 -28.503923 41.295574 -21.872328 177.08109
1600000000 -4.4848633 178.24828 19.024847 78.643135 -28.637859 42.13377 -21.954241 177.89099
1610000000 -4.4736266 178.06335 18.982805 78.34803 -28.45223 41.786682 -21.979763 178.45197
1620000000 -4.468523 177.8654 18.941339 78.090546 -28.417934 41.982304 -21.992359 178.711
1630000000 -4.463407 177.73085 18.895834 77.823601 -28.360662 41.114319 -21.917828 179.48476
1640000000 -4.4754982 177.49019 18.849277 77.559235 -28.380955 42.364288 -21.861065 179.89255
1650000000 -4.4793162 177.34952 18.802086 77.306366 -28.27879 40.912338 -21.909609 -179.86765
1660000000 -4.4680209 177.21504 18.753368 77.049217 -28.293108 41.294262 -21.958015 -179.47746
1670000000 -4.4685774 177.04724 18.719826 76.783279 -28.138382 41.225426 -21.916756 -178.7894
1680000000 -4.4689445 176.77188 18.672768 76.498329 -28.16791 41.659821 -21.893314 -178.27936
1690000000 -4.4659305 176.61812 18.626305 76.279755 -28.19072 41.830593 -21.856148 -177.69682
1700000000 -4.4693532 176.40532 18.581829 75.941574 -27.979599 41.546391 -21.927406 -177.29984
1710000000 -4.4785266 176.16557 18.535284 75.690002 -28.035303 41.45961 -21.880745 -177.46844
1720000000 -4.4641361 176.05452 18.490574 75.42791 -28.065409 40.626228 -21.878428 -176.71024
1730000000 -4.4826264 175.89594 18.447195 75.157188 -27.882847 41.361191 -22.020376 -175.90817
1740000000 -4.4657555 175.72983 18.405172 74.925568 -28.013697 41.936634 -21.940128 -175.63322
1750000000 -4.4726081 175.43199 18.356689 74.58609 -27.957382 41.625313 -21.890194 -175.54106
1760000000 -4.4713817 175.29823 18.314476 74.397942 -27.880657 41.335884 -21.903599 -175.59512
1770000000 -4.4821634 175.14436 18.266014 74.113136 -27.877155 40.849384 -21.876757 -174.82593
1780000000 -4.4757657 174.93771 18.223562 73.850235 -27.700865 40.764458 -21.824911 -174.22136
1790000000 -4.4761834 174.75342 18.178461 73.609688 -27.800495 41.438965 -21.760536 -173.81798
1800000000 -4.4829817 174.56747 18.143562 73.381638 -27.70953 41.80159 -21.86507 -172.93599
1810000000 -4.4782934 174.34618 18.099319 73.123772 -27.643635 41.92762 -21.840988 -172.85719
1820000000 -4.4791584 174.18633 18.057169 72.846825 -27.584503 41.075035 -21.778534 -172.57588
1830000000 -4.4767604 174.02461 18.020788 72.600182 -27.581738 42.085392 -21.763092 -171.97035
1840000000 -4.4670019 173.79089 17.979523 72.301331 -27.534451 41.231979 -21.711435 -171.73819
1850000000 -4.4718866 173.64481 17.93449 72.076187 -27.420757 40.94799 -21.642803 -171.47151
1860000000 -4.4710464 173.36739 17.890583 71.746948 -27.514027 40.497959 -21.601202 -171.33163
1870000000 -4.484827 173.30167 17.845922 71.553581 -27.47381 40.459156 -21.639555 -170.54033
1880000000 -4.4787126 173.11588 17.801245 71.275223 -27.357651 41.188705 -21.591995 -170.07039
1890000000 -4.4798875 172.86958 17.770937 71.049133 -27.322195 41.071682 -21.572771 -170.15012
1900000000 -4.4784465 172.7291 17.722446 70.815582 -27.202438 41.105713 -21.548378 -169.09468
1910000000 -4.4679799 172.62036 17.688749 70.528954 -27.20882 40.577152 -21.484318 -169.07436
1920000000 -4.4724936 172.29709 17.643244 70.205032 -27.127026 41.314796 -21.38619 -168.12418
1930000000 -4.4895601 172.10002 17.60198 69.952423 -27.204859 41.24638 -21.406757 -168.52443
1940000000 -4.4910374 171.94522 17.558496 69.752075 -27.248081 41.342834 -21.368214 -167.84337
1950000000 -4.4879761 171.8712 17.517908 69.540466 -27.087894 40.613869 -21.365765 -167.80739
1960000000 -4.4834061 171.63441 17.48481 69.275856 -27.045282 40.277962 -21.30687 -167.32132
1970000000 -4.4777684 171.51453 17.440224 69.024406 -27.180599 41.200485 -21.320459 -166.74538
1980000000 -4.4725862 171.34172 17.406612 68.770172 -26.964899 40.69553 -21.32563 -166.11009
1990000000 -4.4851933 171.14143 17.361265 68.550323 -26.965111 40.523666 -21.204836 -166.47606
2000000000 -4.5125465 170.99837 17.323648 68.249039 -26.88891 41.218937 -21.095879 -165.97702
2010000000 -4.4893694 170.68221 17.289635 68.042786 -26.915047 40.671314 -21.14024 -165.60567
2020000000 -4.4816227 170.54793 17.250202 67.771591 -26.780651 40.408646 -21.08758 -165.66293
2030000000 -4.4905581 170.46495 17.203171 67.530136 -26.945263 41.061581 -21.045982 -165.6239
2040000000 -4.4862032 170.18251 17.172361 67.276321 -26.866777 40.059601 -20.998381 -164.89285
2050000000 -4.4950194 170.0394 17.139488 67.059395 -26.828281 39.950188 -20.97637 -164.30235
2060000000 -4.48352 169.81163 17.099972 66.762909 -26.652081 39.770805 -20.905909 -163.72105
2070000000 -4.4889483 169.52249 17.063656 66.500229 -26.712807 39.882523 -20.923532 -164.27939
2080000000 -4.4802909 169.39581 17.025738 66.280205 -26.577623 40.295605 -20.744339 -163.834
2090000000 -4.4929633 169.18179 16.97699 66.070839 -26.649694 40.493835 -20.77021 -163.48737
2100000000 -4.4871101 168.99538 16.945564 65.787506 -26.572676 40.335129 -20.768637 -163.3409
2110000000 -4.4856658 168.82286 16.925041 65.563232 -26.541952 40.300983 -20.764128 -163.46964
2120000000 -4.4856057 168.6857 16.873871 65.350281 -26.459831 39.594078 -20.68174 -163.07355
2130000000 -4.4785743 168.4649 16.845121 65.031807 -26.402327 39.553959 -20.566826 -162.79259
