# Hz S  dB   R 50
10000000 -6.5200973 -76.432121 34.334358 147.71582 -37.244869 33.357601 -6.0754175 -104.77747
20000000 -9.5501194 -103.86943 31.876175 152.79919 -35.593014 22.806221 -8.0989571 -136.47694
30000000 -10.913604 -118.64758 30.922499 156.9567 -34.702583 11.625758 -8.5708218 -150.57339
40000000 -11.544076 -127.72208 30.488838 159.19287 -34.772087 11.828025 -8.8597851 -159.40648
50000000 -11.827403 -133.0322 30.272692 160.38744 -34.47401 11.301282 -8.9386663 -164.89359
60000000 -11.835936 -136.58481 30.120552 160.73326 -34.32085 8.2760344 -9.0006218 -169.35727
70000000 -11.860972 -138.23822 30.025709 160.63702 -34.83382 9.7822495 -9.0482635 -172.47643
80000000 -11.760731 -139.78526 29.925631 160.24051 -34.319878 9.039546 -9.1386147 -175.03061
90000000 -11.613462 -140.65044 29.856344 159.62296 -34.111877 9.2930813 -9.181406 -177.3257
100000000 -11.469417 -141.12135 29.787764 158.94115 -34.282314 8.8787222 -9.2456064 -179.30443
110000000 -11.292758 -141.74542 29.719673 158.10529 -34.2864 5.5311942 -9.2730465 179.27457
120000000 -11.069214 -141.98233 29.652485 157.19621 -34.34919 6.2111621 -9.3333597 177.91315
130000000 -10.864544 -142.23969 29.583494 156.19756 -34.381298 6.2555556 -9.400301 176.24022
140000000 -10.666915 -142.36378 29.515377 155.18401 -34.326351 7.9449434 -9.4880133 174.96744
150000000 -10.453442 -142.37413 29.444729 154.16687 -34.364452 8.0301905 -9.564147 173.71324
160000000 -10.258785 -142.34489 29.388363 153.10225 -34.315308 7.9647026 -9.6342154 172.7059
170000000 -10.058023 -142.69603 29.311827 152.08501 -34.382332 9.087409 -9.6884279 171.67741
180000000 -9.8222675 -143.00513 29.230864 150.95743 -34.545055 6.9044428 -9.725318 170.4756
190000000 -9.5989962 -142.93019 29.168003 149.81166 -34.412365 8.1385403 -9.7969055 169.67755
200000000 -9.4299068 -143.38669 29.081501 148.81378 -34.282265 9.6343365 -9.8715591 168.78113
210000000 -9.2298155 -143.44588 29.003372 147.76414 -34.269703 7.8779712 -9.9925041 167.85713
220000000 -9.0249949 -143.69745 28.925938 146.61124 -34.411152 11.325929 -10.062116 167.06796
230000000 -8.8642092 -144.01836 28.841717 145.62878 -34.431789 10.723254 -10.128355 166.22388
240000000 -8.6878204 -144.34538 28.757259 144.55617 -34.307087 11.636353 -10.229233 165.63631
250000000 -8.5450811 -144.6207 28.664206 143.53011 -34.455868 10.471269 -10.315969 164.88878
260000000 -8.3746243 -144.82809 28.58877 142.5255 -33.924458 8.0360317 -10.397193 164.05081
270000000 -8.216465 -145.35632 28.497965 141.48698 -34.068726 11.570718 -10.515462 163.53105
280000000 -8.018918 -145.56068 28.408178 140.45128 -34.089512 11.751782 -10.592323 163.26897
290000000 -7.9164205 -145.93817 28.311764 139.48575 -34.121395 13.429039 -10.66229 162.66954
300000000 -7.7247262 -146.39986 28.221148 138.48315 -33.744827 12.701894 -10.72705 161.90903
310000000 -7.6023932 -146.85393 28.125143 137.49657 -34.423965 12.240365 -10.881556 161.48479
320000000 -7.4576344 -147.23354 28.034145 136.56676 -33.987995 13.365756 -10.927609 160.80342
330000000 -7.37431 -147.75162 27.931908 135.68436 -34.299259 14.245273 -11.070726 160.45549
340000000 -7.2514844 -147.97104 27.842329 134.76392 -34.326973 15.085865 -11.129827 160.03941
350000000 -7.1532607 -148.4803 27.740402 133.84418 -33.954353 16.446089 -11.234817 159.5594
360000000 -7.0177016 -148.82027 27.649422 132.923 -34.196968 16.119352 -11.330517 159.12729
370000000 -6.9083915 -149.37933 27.541946 132.08839 -34.272835 14.779079 -11.415119 158.70277
380000000 -6.8312635 -149.6113 27.455439 131.23656 -34.138142 16.190004 -11.519541 158.31532
390000000 -6.7321777 -150.01622 27.362823 130.32982 -34.327942 18.062328 -11.609079 158.17253
400000000 -6.6390686 -150.5191 27.26038 129.53409 -33.902092 17.707024 -11.704204 157.81638
410000000 -6.545773 -150.96661 27.160912 128.69852 -33.813705 18.355019 -11.798929 157.5368
420000000 -6.4371328 -151.35504 27.064846 127.94386 -34.37709 18.667913 -11.931775 157.27541
430000000 -6.3691196 -151.86914 26.952765 127.1843 -34.221382 20.064116 -11.996257 157.08249
440000000 -6.2999015 -152.15015 26.861174 126.35184 -34.08794 19.971203 -12.08922 156.75201
450000000 -6.2178459 -152.63849 26.773695 125.58924 -33.993935 20.853687 -12.219356 156.40402
460000000 -6.1544108 -152.99387 26.66325 124.88309 -33.937099 21.465666 -12.276339 156.34122
470000000 -6.072875 -153.46269 26.572321 124.1181 -34.139084 20.301188 -12.352928 155.99231
480000000 -6.0168705 -153.79733 26.46743 123.40871 -34.053474 19.864197 -12.505484 156.00693
490000000 -5.9276786 -154.20461 26.377623 122.69066 -33.908894 22.078674 -12.577748 155.67665
500000000 -5.9232278 -154.56407 26.282816 122.00229 -33.633636 23.310347 -12.652694 155.52031
510000000 -5.8140516 -154.85376 26.176508 121.29516 -33.797237 22.307964 -12.719271 155.40013
520000000 -5.773222 -155.34492 26.095783 120.69279 -33.710396 23.810797 -12.880746 155.27032
530000000 -5.7096214 -155.68741 25.994997 119.93272 -33.593929 22.773405 -12.918395 155.12646
540000000 -5.6610274 -156.09325 25.897327 119.30965 -33.504383 23.796425 -13.058333 155.23027
550000000 -5.6027293 -156.46509 25.799973 118.66951 -33.79023 23.93508 -13.158641 154.65228
560000000 -5.5509758 -156.86833 25.702572 118.01526 -33.577415 25.907171 -13.227965 154.88528
570000000 -5.5167708 -157.23021 25.620153 117.41592 -33.430687 26.765635 -13.295938 154.5611
580000000 -5.4660821 -157.4494 25.524364 116.78531 -33.290249 24.825901 -13.420079 154.53998
590000000 -5.4060211 -157.82767 25.43454 116.19403 -33.527775 26.675373 -13.473447 154.78436
600000000 -5.3710504 -158.20219 25.351522 115.5727 -33.316895 27.98461 -13.547024 154.74016
610000000 -5.3350439 -158.60419 25.239996 115.00342 -33.389412 27.647083 -13.685681 154.61426
620000000 -5.3041053 -158.94879 25.155653 114.47105 -33.44561 29.313665 -13.75278 154.69115
630000000 -5.2549567 -159.33713 25.062477 113.82354 -33.459209 28.353798 -13.843523 154.56128
640000000 -5.2172208 -159.73486 24.954453 113.30838 -33.116199 28.606331 -13.966593 154.97237
650000000 -5.1933632 -159.951 24.884005 112.769 -33.420055 28.731983 -14.039816 154.73595
660000000 -5.1610589 -160.34662 24.791723 112.21392 -33.111866 28.644022 -14.124927 155.0181
670000000 -5.127068 -160.62656 24.709927 111.68108 -33.15921 28.933672 -14.165283 155.19926
680000000 -5.103045 -161.01042 24.627184 111.12789 -32.925327 29.779308 -14.251943 155.10349
690000000 -5.0648041 -161.30316 24.538692 110.65916 -32.90255 31.135735 -14.33402 154.92496
700000000 -5.0540118 -161.57431 24.454346 110.11871 -32.903732 31.907127 -14.398373 155.03722
710000000 -5.0179009 -161.9411 24.357319 109.57998 -32.688805 31.626591 -14.523036 155.30974
720000000 -4.9865737 -162.09486 24.287931 109.06372 -32.59882 30.743706 -14.592276 155.12866
730000000 -4.9580421 -162.47554 24.197655 108.57546 -32.731091 31.300688 -14.650038 155.07242
740000000 -4.9339828 -162.75581 24.109671 108.04314 -32.653206 33.077526 -14.739345 155.2487
750000000 -4.9162269 -163.08647 24.023285 107.62083 -32.77248 31.489607 -14.802156 155.39288
760000000 -4.8892641 -163.39056 23.946144 107.1461 -32.429466 32.951828 -14.85079 155.23387
770000000 -4.8665848 -163.62428 23.866987 106.65569 -32.478153 32.486168 -14.954892 155.54996
780000000 -4.8605084 -163.90163 23.779758 106.1815 -32.341335 32.681942 -15.03605 155.88281
790000000 -4.8258595 -164.19868 23.699419 105.75687 -32.333393 32.950306 -15.089947 155.77925
800000000 -4.8119788 -164.51671 23.612841 105.29384 -32.162727 33.042847 -15.181981 156.06784
810000000 -4.7967629 -164.76808 23.538496 104.83599 -32.290268 33.425655 -15.19866 156.20386
820000000 -4.7710824 -165.09996 23.460863 104.38905 -32.221558 34.103523 -15.318412 156.1627
830000000 -4.7535915 -165.41753 23.375401 103.93011 -32.231262 34.359039 -15.324449 156.46954
840000000 -4.7379613 -165.5918 23.299404 103.52051 -31.973532 35.300797 -15.397124 156.33025
850000000 -4.719532 -165.90448 23.227144 103.07294 -32.125656 35.005447 -15.489373 156.79456
860000000 -4.7087154 -166.15887 23.145969 102.63915 -31.937885 34.748077 -15.569392 156.78333
870000000 -4.678504 -166.358 23.074894 102.23735 -31.859209 35.581482 -15.640283 156.96095
880000000 -4.669898 -166.63338 22.99366 101.80618 -31.829191 35.18581 -15.689188 157.21661
890000000 -4.6558638 -166.90004 22.918644 101.40492 -31.818998 36.913151 -15.71582 157.31651
900000000 -4.6429629 -167.20413 22.838274 101.05275 -31.639214 35.62825 -15.845923 157.70132
910000000 -4.6315322 -167.39009 22.767153 100.63481 -31.830502 36.22646 -15.882824 157.57007
920000000 -4.6192083 -167.56862 22.695477 100.28012 -31.677851 36.337173 -15.983075 157.92302
930000000 -4.6067543 -167.76645 22.623951 99.88343 -31.582314 35.391285 -16.022398 157.93143
940000000 -4.5973225 -168.03178 22.554733 99.464447 -31.581507 35.794567 -16.082254 158.1864
950000000 -4.5812387 -168.28554 22.474642 99.058472 -31.553209 37.278511 -16.180779 158.49034
960000000 -4.5761485 -168.5488 22.412392 98.650085 -31.551579 36.819374 -16.212048 158.62227
970000000 -4.5599885 -168.85625 22.333067 98.268051 -31.323645 36.241943 -16.286768 158.92102
980000000 -4.551393 -169.0787 22.268894 97.911423 -31.233656 38.089672 -16.305752 158.95891
990000000 -4.550878 -169.35396 22.184546 97.512962 -31.288544 37.622742 -16.354475 159.33174
1000000000 -4.5263877 -171.44229 22.131187 97.139023 -31.267282 37.693012 -16.461378 161.21785
1010000000 -4.5323391 -169.7215 22.062786 96.747292 -31.238052 37.885159 -16.433702 159.83846
1020000000 -4.5223522 -170.00269 21.978373 96.343109 -31.181387 37.919682 -16.537279 160.16922
1030000000 -4.4989724 -170.29721 21.920141 95.994919 -31.101637 38.595535 -16.616674 160.26309
1040000000 -4.4970536 -170.49918 21.853455 95.652534 -30.896164 37.225063 -16.655174 160.60228
1050000000 -4.4976845 -170.72366 21.781441 95.285316 -30.907667 38.846169 -16.706421 160.74847
1060000000 -4.4868436 -170.91658 21.715082 94.991974 -30.961044 39.659695 -16.753565 161.16216
1070000000 -4.4876142 -171.05276 21.645935 94.619041 -30.830524 39.361122 -16.877068 161.32347
1080000000 -4.4769893 -171.28148 21.576618 94.292213 -30.756884 38.25251 -16.888969 161.10565
1090000000 -4.4617977 -171.56641 21.506975 93.927208 -30.936548 40.005585 -16.967218 161.95975
1100000000 -4.4490414 -171.7618 21.456347 93.553482 -30.781887 38.73568 -16.995962 162.11401
1110000000 -4.4536023 -171.95555 21.390797 93.215958 -30.576139 40.046753 -17.084663 162.05373
1120000000 -4.4537396 -172.24104 21.325409 92.9422 -30.60784 39.393719 -17.129311 162.49461
1130000000 -4.4368782 -172.37892 21.258545 92.583572 -30.595526 39.696659 -17.177507 162.8959
1140000000 -4.4391708 -172.62102 21.200447 92.308968 -30.428665 39.710686 -17.187332 163.36111
1150000000 -4.4351873 -172.82799 21.130184 91.905273 -30.358082 40.064793 -17.27767 163.42369
1160000000 -4.4231067 -173.00111 21.078346 91.559448 -30.351868 40.296516 -17.321333 163.59338
1170000000 -4.4203787 -173.21086 21.01206 91.235909 -30.370659 40.045864 -17.372229 163.91951
1180000000 -4.4147038 -173.40366 20.951565 90.903168 -30.374805 39.953194 -17.404531 164.29625
1190000000 -4.4198322 -173.65021 20.885765 90.654732 -30.105036 40.188534 -17.483498 164.57278
1200000000 -4.4022107 -173.88173 20.825388 90.246475 -30.274771 40.633064 -17.538864 164.57399
1210000000 -4.4048882 -174.0592 20.767319 89.96981 -30.129351 40.438824 -17.551754 165.31721
1220000000 -4.3996158 -174.24194 20.702295 89.623581 -29.976614 40.006313 -17.522371 165.13356
1230000000 -4.3933029 -174.43707 20.647881 89.3134 -30.110077 41.096268 -17.678471 165.47787
1240000000 -4.3936667 -174.58076 20.590672 89.04248 -29.967224 40.583572 -17.687969 165.76122
1250000000 -4.3887253 -174.84698 20.533375 88.731316 -29.890137 40.301441 -17.693567 165.93126
1260000000 -4.3859816 -174.9964 20.474821 88.388649 -29.887495 40.848263 -17.767214 166.2574
1270000000 -4.3854003 -175.20065 20.414968 88.086876 -29.850544 40.327953 -17.709743 166.68394
1280000000 -4.3744469 -175.41063 20.360073 87.789818 -29.908865 41.379044 -17.842241 167.23383
1290000000 -4.3713117 -175.6485 20.299267 87.446266 -29.679743 41.460606 -17.859715 167.22031
1300000000 -4.3629451 -175.84048 20.241358 87.16626 -29.515255 40.781246 -17.869656 167.19983
1310000000 -4.3538251 -176.02048 20.18886 86.845322 -29.565001 41.266937 -17.881613 167.68811
1320000000 -4.3637819 -176.20776 20.129642 86.566559 -29.5819 41.956928 -17.975883 167.86113
1330000000 -4.3563929 -176.44542 20.078833 86.258354 -29.48175 41.568077 -17.99213 167.93282
1340000000 -4.3524103 -176.61732 20.019613 85.994247 -29.502489 41.301437 -18.057808 168.57474
1350000000 -4.3602786 -176.80295 19.966015 85.691078 -29.432344 40.424931 -18.097155 168.60341
1360000000 -4.3494987 -176.98174 19.918386 85.413063 -29.223412 41.437466 -18.154337 168.82338
1370000000 -4.3546853 -177.06958 19.853714 85.120087 -29.313961 41.378529 -18.179667 168.8387
1380000000 -4.3405905 -177.33307 19.807243 84.827217 -29.141285 41.767365 -18.183704 169.28598
1390000000 -4.3366165 -177.53856 19.75915 84.497551 -29.166321 41.191334 -18.181591 169.07071
1400000000 -4.3435712 -177.75111 19.696802 84.207695 -29.140911 41.324455 -18.212591 169.62163
1410000000 -4.3428845 -177.96931 19.645802 83.909828 -29.152472 41.579979 -18.258146 169.81766
1420000000 -4.3357062 -178.18483 19.591417 83.692863 -29.14455 42.412838 -18.263851 170.22607
1430000000 -4.3402967 -178.3511 19.536898 83.359108 -29.066977 41.738186 -18.348759 170.74097
1440000000 -4.3376632 -178.54817 19.489677 83.082993 -29.056074 41.587799 -18.312424 170.52751
1450000000 -4.3324337 -178.74362 19.440393 82.8097 -28.837605 41.744961 -18.334791 170.64015
1460000000 -4.3326349 -178.87393 19.387119 82.471619 -28.852127 42.192116 -18.350904 171.26823
1470000000 -4.3166966 -179.11301 19.33695 82.246117 -28.68663 41.392914 -18.408392 171.80402
1480000000 -4.3340769 -179.35905 19.278524 81.954094 -28.757347 41.41655 -18.496771 171.85095
1490000000 -4.3280783 -179.47708 19.230047 81.686325 -28.81073 42.278553 -18.485966 172.02202
1500000000 -4.3381 -179.64973 19.175657 81.383553 -28.690512 41.927044 -18.449816 172.1244
1510000000 -4.3272824 -179.89384 19.126366 81.107475 -28.66453 41.677101 -18.476185 172.18343
1520000000 -4.3370481 179.98584 19.077148 80.870232 -28.640348 40.816456 -18.502871 172.52454
1530000000 -4.3218269 179.80463 19.029083 80.587112 -28.557875 42.279221 -18.503542 173.06552
1540000000 -4.322516 179.6329 18.988884 80.30117 -28.572292 40.45303 -18.581509 173.22679
1550000000 -4.3205504 179.32805 18.935402 79.985222 -28.427073 42.522198 -18.584709 173.31
1560000000 -4.3233428 179.13571 18.891472 79.731346 -28.388561 42.873875 -18.527197 173.64622
1570000000 -4.3340206 178.9908 18.83692 79.47554 -28.43664 41.853115 -18.557287 173.98868
1580000000 -4.3349237 178.76854 18.79273 79.180901 -28.382406 42.09042 -18.609245 173.82378
1590000000 -4.3148932 178.73486 18.744265 78.968414 -28.243654 42.287422 -18.567844 174.55681
1600000000 -4.3215289 178.47087 18.6924 78.693672 -28.18498 41.645515 -18.683104 174.4012
1610000000 -4.3133569 178.35612 18.650719 78.401443 -28.157499 41.591087 -18.598204 174.91779
1620000000 -4.3169208 178.07079 18.607506 78.155602 -28.195696 41.059486 -18.637032 175.2744
1630000000 -4.3256707 177.91594 18.560673 77.857124 -28.03126 42.278545 -18.640648 175.55461
1640000000 -4.3224139 177.67706 18.515574 77.58638 -28.034422 42.744427 -18.570633 175.61551
1650000000 -4.3277736 177.58134 18.466019 77.36013 -27.996925 41.070343 -18.644732 175.61778
1660000000 -4.3213267 177.47861 18.425236 77.100273 -27.85659 41.977509 -18.588779 176.11801
1670000000 -4.3237166 177.21837 18.385462 76.853867 -27.921717 41.239697 -18.643364 176.19289
1680000000 -4.3088894 176.99423 18.343103 76.548645 -27.97123 42.353657 -18.639189 176.43147
1690000000 -4.3149767 176.81908 18.29286 76.332466 -27.82468 41.609413 -18.62178 176.78142
1700000000 -4.3203516 176.55536 18.248623 75.982628 -27.791788 41.79805 -18.656799 177.08513
1710000000 -4.3265433 176.37959 18.203552 75.736549 -27.744055 41.296112 -18.680588 176.74028
1720000000 -4.3144879 176.21199 18.156464 75.505447 -27.833971 42.145699 -18.632231 177.53563
1730000000 -4.3279924 176.02274 18.115891 75.255241 -27.683813 42.388607 -18.674156 177.41742
1740000000 -4.3188987 175.90804 18.073181 75.010452 -27.59326 41.515129 -18.733 177.92708
1750000000 -4.318604 175.56317 18.025799 74.659531 -27.689445 42.208519 -18.698635 177.84894
1760000000 -4.3056474 175.46431 17.984747 74.491447 -27.640764 41.372162 -18.684095 177.82381
1770000000 -4.320015 175.23846 17.933483 74.184036 -27.519676 41.170155 -18.67457 178.49799
1780000000 -4.321043 175.13979 17.890011 73.938293 -27.330769 41.609879 -18.654032 178.37823
1790000000 -4.3235059 174.88864 17.847315 73.680443 -27.406038 41.53862 -18.618942 178.72116
1800000000 -4.3196855 174.67574 17.811918 73.472687 -27.422857 42.685608 -18.676912 178.68823
1810000000 -4.3303132 174.5612 17.767044 73.227287 -27.340263 41.19384 -18.739592 179.27306
1820000000 -4.3224468 174.36212 17.723835 72.945427 -27.38483 41.312195 -18.670803 179.50345
1830000000 -4.3235021 174.16159 17.687738 72.678139 -27.123352 41.087341 -18.655289 -179.9572
1840000000 -4.309258 173.99123 17.64534 72.386581 -27.206631 41.495266 -18.637537 -179.95503
1850000000 -4.3180933 173.79936 17.602703 72.178848 -27.163071 42.064266 -18.645021 -179.76276
1860000000 -4.3209057 173.57491 17.561092 71.852753 -27.088289 41.472813 -18.582125 -179.58324
1870000000 -4.3291769 173.4549 17.51292 71.632401 -27.105108 41.168118 -18.569788 -179.81461
1880000000 -4.3300853 173.27946 17.470839 71.398323 -27.121469 40.856373 -18.655767 -179.18712
1890000000 -4.3246303 173.08292 17.441448 71.156601 -27.058804 41.388317 -18.596178 -179.15538
1900000000 -4.3269997 172.94122 17.388762 70.923164 -26.978582 41.121147 -18.600616 -178.31416
1910000000 -4.3254991 172.7356 17.356302 70.61026 -26.981041 41.701744 -18.534224 -179.0269
1920000000 -4.3256397 172.44279 17.311914 70.32653 -26.811247 41.030094 -18.502499 -178.28061
1930000000 -4.3252716 172.2755 17.269913 70.079742 -26.829567 40.797867 -18.524885 -178.43045
1940000000 -4.3284373 172.09146 17.227308 69.855118 -26.795109 41.043568 -18.474691 -178.37944
1950000000 -4.3398194 171.91554 17.190346 69.641754 -26.873943 41.115673 -18.525606 -177.82845
1960000000 -4.3280005 171.76836 17.151768 69.390732 -26.82806 40.789997 -18.571909 -177.91722
1970000000 -4.3251057 171.67584 17.115026 69.139626 -26.738409 41.223602 -18.557947 -177.43777
1980000000 -4.3356857 171.44351 17.076292 68.886574 -26.658195 40.81778 -18.519001 -177.41602
1990000000 -4.3214064 171.2343 17.032625 68.688751 -26.678465 40.784489 -18.441137 -177.17865
2000000000 -4.3530102 171.0489 16.992962 68.349991 -26.60338 40.553524 -18.387383 -177.20815
2010000000 -4.3307581 170.79012 16.95702 68.169952 -26.563789 40.728058 -18.459345 -176.9425
2020000000 -4.3479714 170.65791 16.914135 67.915802 -26.572187 40.555569 -18.422335 -176.60478
2030000000 -4.3461623 170.5746 16.874249 67.667686 -26.533052 40.372871 -18.405787 -176.73297
2040000000 -4.3285823 170.3838 16.843204 67.464836 -26.423182 40.118416 -18.356174 -175.97063
2050000000 -4.3325319 170.12024 16.808836 67.207909 -26.338598 40.702923 -18.310127 -176.43932
2060000000 -4.3255687 169.96527 16.772053 66.918945 -26.38521 40.314442 -18.344812 -175.82309
2070000000 -4.3220329 169.61801 16.733141 66.646286 -26.399387 39.887848 -18.297333 -175.69232
2080000000 -4.3359017 169.4807 16.692226 66.445099 -26.297726 40.508057 -18.245581 -175.83092
2090000000 -4.345264 169.2401 16.650482 66.223259 -26.291664 39.727798 -18.249369 -175.70833
2100000000 -4.3346901 169.10764 16.621531 65.939117 -26.224916 39.579529 -18.207563 -175.28767
2110000000 -4.3318882 168.97786 16.595453 65.710297 -26.217949 39.623104 -18.234598 -175.38377
2120000000 -4.3359938 168.76764 16.546864 65.474983 -26.266005 39.419132 -18.206865 -175.47273
2130000000 -4.3251553 168.59358 16.518261 65.18602 -26.216839 39.444942 -18.171299 -175.03824
