# Hz S  dB   R 50
10000000 -6.1546206 -81.505119 34.991299 147.03569 -35.226791 22.717791 -6.4623885 -105.50861
20000000 -8.8661404 -115.68198 32.542561 152.03697 -35.890633 22.093462 -7.5603895 -141.85139
30000000 -9.815937 -131.66527 31.540266 156.18721 -35.482685 11.682844 -7.7297902 -155.66339
40000000 -10.23143 -140.08524 31.075611 158.49802 -35.043243 7.0546947 -7.8667011 -163.38483
50000000 -10.422886 -145.12552 30.837618 159.78876 -34.810863 8.8681622 -7.9913821 -168.36888
60000000 -10.497556 -148.23285 30.670996 160.23337 -34.982693 6.9129891 -8.0294075 -172.6209
70000000 -10.517428 -150.09891 30.568583 160.23384 -35.074295 9.1262884 -8.0770245 -175.63547
80000000 -10.471245 -151.14543 30.465345 159.90077 -35.020893 5.6392918 -8.1815071 -178.09277
90000000 -10.398046 -151.8004 30.392082 159.34789 -35.110809 5.3902106 -8.1969776 179.57541
100000000 -10.318 -151.97002 30.322922 158.72154 -34.854126 5.0518084 -8.2575541 177.72142
110000000 -10.224014 -152.40056 30.254471 157.92703 -35.022305 5.42276 -8.2973804 175.93356
120000000 -10.071653 -152.60274 30.183886 157.04375 -35.042351 8.5051022 -8.3589382 174.31392
130000000 -9.9587421 -152.7243 30.113907 156.08405 -35.28484 7.563323 -8.4360743 172.66586
140000000 -9.8195753 -152.61835 30.046991 155.10176 -34.998932 6.8680677 -8.5170441 171.22589
150000000 -9.6644363 -152.54662 29.97575 154.12851 -35.004047 7.7310529 -8.6072121 169.90367
160000000 -9.5376043 -152.42488 29.920244 153.09149 -35.057045 8.0789967 -8.6734381 168.69994
170000000 -9.3917923 -152.58205 29.843588 152.10884 -35.136478 8.7164288 -8.7372379 167.54802
180000000 -9.2294521 -152.53029 29.764482 151.00053 -35.073345 8.3363457 -8.7764721 166.22755
190000000 -9.0746012 -152.35803 29.70591 149.87454 -35.038567 8.3775215 -8.838685 165.28697
200000000 -8.9351692 -152.51534 29.617266 148.90744 -35.116543 9.5016546 -8.9356632 164.12233
210000000 -8.7907963 -152.36143 29.543198 147.85124 -35.07962 9.7472334 -9.0581808 163.12167
220000000 -8.634758 -152.3228 29.46682 146.72163 -34.973839 11.530416 -9.1508589 162.13991
230000000 -8.5121555 -152.60277 29.382866 145.76385 -35.287003 11.409624 -9.2346373 161.15445
240000000 -8.3770247 -152.62068 29.300144 144.6996 -35.34758 10.629828 -9.337245 160.35265
250000000 -8.2542896 -152.79268 29.208639 143.68744 -35.165863 11.26641 -9.417634 159.35197
260000000 -8.1306343 -152.81918 29.13797 142.69548 -34.945099 12.284052 -9.5383797 158.35138
270000000 -7.997364 -153.07445 29.044008 141.66409 -34.429958 11.903273 -9.629674 157.52806
280000000 -7.8487096 -153.16556 28.958971 140.64502 -34.520905 15.978457 -9.7644634 157.21921
290000000 -7.7507963 -153.17322 28.862041 139.68491 -35.403393 16.600685 -9.8291941 156.29182
300000000 -7.5933957 -153.57648 28.773748 138.69107 -35.112404 13.022529 -9.8919554 155.64641
310000000 -7.4842772 -153.68666 28.677462 137.71202 -34.891933 16.005953 -10.063794 154.89801
320000000 -7.3761182 -153.94791 28.590471 136.78976 -35.186775 13.347733 -10.129041 154.00565
330000000 -7.2914109 -154.4689 28.495455 135.93408 -35.101101 13.720609 -10.240461 153.29848
340000000 -7.1617393 -154.52313 28.398788 134.99562 -35.106495 18.115215 -10.33875 152.89378
350000000 -7.068079 -154.86098 28.302769 134.08919 -35.440918 16.452715 -10.48283 152.3656
360000000 -6.9922924 -155.11885 28.215763 133.19359 -34.936848 18.620007 -10.592854 151.44347
370000000 -6.8823848 -155.45903 28.104794 132.32404 -34.957684 15.917949 -10.668714 151.07629
380000000 -6.8082719 -155.54301 28.024956 131.46173 -35.049725 17.79561 -10.795879 150.60254
390000000 -6.7298532 -155.81584 27.930719 130.57817 -34.971066 19.668524 -10.91177 150.11751
400000000 -6.6389041 -156.21727 27.836792 129.78952 -34.736908 19.453705 -11.037946 149.84076
410000000 -6.547143 -156.54419 27.732208 128.95293 -34.883869 19.581392 -11.152893 149.1366
420000000 -6.4886098 -156.95393 27.635551 128.23969 -34.970837 19.11404 -11.256926 148.8474
430000000 -6.4193149 -157.21414 27.527349 127.47594 -34.840565 19.646917 -11.369897 148.33922
440000000 -6.3452058 -157.55472 27.438988 126.63 -34.874615 19.56489 -11.476225 147.97765
450000000 -6.2747126 -157.76143 27.34907 125.85011 -34.594234 19.85919 -11.605007 147.49466
460000000 -6.2258463 -158.06017 27.245611 125.15898 -34.975048 22.413355 -11.706408 147.05873
470000000 -6.1516986 -158.37282 27.15242 124.3962 -34.83247 23.246435 -11.836888 146.78593
480000000 -6.0867453 -158.60416 27.051891 123.68422 -34.550308 21.323437 -11.966372 146.42113
490000000 -6.0224228 -158.98462 26.96443 122.94695 -34.839336 24.997393 -12.077577 145.87874
500000000 -6.0179744 -159.1989 26.869986 122.26178 -34.371529 25.187534 -12.186734 145.5222
510000000 -5.9174213 -159.45575 26.768133 121.5783 -34.625923 23.077803 -12.29542 145.25044
520000000 -5.8649855 -159.84662 26.686617 120.97996 -34.64006 24.792709 -12.472429 145.12016
530000000 -5.8136911 -160.07408 26.583641 120.20461 -34.427044 25.743338 -12.545723 144.79729
540000000 -5.768661 -160.48911 26.486298 119.58223 -34.630062 26.685179 -12.659862 144.51646
550000000 -5.720273 -160.77138 26.389683 118.94579 -34.227512 26.4387 -12.795815 144.15256
560000000 -5.6812024 -160.97847 26.291719 118.25363 -34.547184 24.716551 -12.864657 143.96242
570000000 -5.6516366 -161.31308 26.211622 117.67411 -34.271332 26.603512 -12.979901 143.71408
580000000 -5.5993414 -161.49136 26.114876 117.01639 -34.165634 27.676399 -13.101173 143.39584
590000000 -5.5462852 -161.79102 26.030701 116.44204 -34.085777 28.659071 -13.196045 143.27219
600000000 -5.5132523 -162.09145 25.945662 115.8096 -34.288944 29.946821 -13.305746 142.99989
610000000 -5.4742937 -162.43231 25.834024 115.27332 -33.935654 28.89584 -13.442776 142.86433
620000000 -5.4427695 -162.76906 25.754583 114.71619 -34.134731 29.794054 -13.550557 142.68446
630000000 -5.4011512 -163.06042 25.662586 114.04394 -34.164551 29.413767 -13.698513 142.82828
640000000 -5.3676324 -163.38766 25.55533 113.55772 -33.994537 30.514069 -13.861693 142.66537
650000000 -5.3412514 -163.55659 25.48245 112.98966 -33.561661 29.619781 -13.943765 142.76805
660000000 -5.3207269 -163.88423 25.390951 112.47407 -33.821926 30.014738 -14.042678 142.46321
670000000 -5.2844377 -164.20435 25.309654 111.89752 -34.085266 29.624464 -14.170859 142.41624
680000000 -5.2649179 -164.46693 25.227242 111.34332 -33.645424 30.50881 -14.258782 142.20737
690000000 -5.2291751 -164.7914 25.139378 110.87094 -33.634853 32.952118 -14.393987 142.16383
700000000 -5.2186785 -164.93892 25.052923 110.34729 -33.679214 31.358522 -14.49013 142.3463
710000000 -5.1846285 -165.2838 24.960314 109.75612 -33.562035 32.222874 -14.618412 142.24963
720000000 -5.1506319 -165.39484 24.894772 109.24954 -33.305408 33.149479 -14.708301 141.86592
730000000 -5.1430731 -165.74333 24.801668 108.77631 -33.428425 32.974533 -14.801579 142.0307
740000000 -5.1044803 -165.98044 24.717113 108.23459 -33.38168 33.146488 -14.912216 141.68465
750000000 -5.0870433 -166.22296 24.629116 107.82606 -33.260853 32.968513 -15.010681 141.8856
760000000 -5.0696139 -166.48711 24.550667 107.30583 -33.161171 34.889164 -15.107658 141.8345
770000000 -5.0488086 -166.66599 24.47187 106.85219 -33.385052 32.932381 -15.27024 141.92964
780000000 -5.0261092 -166.91653 24.388926 106.37479 -32.939499 34.113247 -15.366364 142.00742
790000000 -5.0070481 -167.26176 24.306705 105.92249 -33.030552 34.868645 -15.471037 142.01093
800000000 -5.0062327 -167.48325 24.220003 105.45934 -33.012505 35.21199 -15.581372 141.90266
810000000 -4.9648089 -167.7567 24.148588 104.99678 -33.062626 33.993153 -15.662654 141.87941
820000000 -4.9624691 -167.90411 24.072828 104.56149 -32.991013 34.488728 -15.780812 142.02489
830000000 -4.9430809 -168.24139 23.989479 104.09746 -33.009312 34.531815 -15.899656 141.91684
840000000 -4.9359827 -168.52792 23.90815 103.65983 -32.931988 37.19698 -16.009851 142.17932
850000000 -4.9140868 -168.66533 23.836777 103.22808 -32.718178 35.757469 -16.150297 142.34322
860000000 -4.9060245 -168.89365 23.757475 102.79961 -32.688473 36.591892 -16.183142 142.31911
870000000 -4.8804436 -169.12294 23.682011 102.39165 -32.759796 36.767036 -16.328096 142.37473
880000000 -4.861804 -169.29581 23.602562 101.93668 -32.578655 36.744263 -16.419184 142.88182
890000000 -4.856595 -169.55313 23.530222 101.53792 -32.617802 37.537083 -16.545073 142.62909
900000000 -4.8410277 -169.77068 23.452017 101.1898 -32.46822 37.892624 -16.661388 142.97612
910000000 -4.8208303 -169.90778 23.379169 100.76517 -32.472244 38.627209 -16.745148 142.7171
920000000 -4.8044238 -170.14606 23.310347 100.39191 -32.32172 38.414829 -16.847225 142.8103
930000000 -4.807076 -170.23454 23.237028 100.02523 -32.062626 38.598438 -16.986481 143.1517
940000000 -4.7902288 -170.54601 23.165234 99.586258 -32.019741 38.246754 -17.068769 143.3938
950000000 -4.7805986 -170.77548 23.082222 99.157364 -32.132408 38.727291 -17.226694 143.1521
960000000 -4.7641521 -170.96585 23.026825 98.763367 -32.056347 40.006977 -17.309492 143.72217
970000000 -4.7514019 -171.24081 22.946028 98.38533 -32.068607 39.118729 -17.416723 143.96239
980000000 -4.7497487 -171.48363 22.884794 98.021118 -31.973444 38.653351 -17.459591 143.74438
990000000 -4.7416544 -171.79636 22.802298 97.602974 -31.971142 39.7645 -17.560637 144.29933
1000000000 -4.7345939 -173.72737 22.745182 97.236137 -31.795746 39.557266 -17.741838 145.99609
1010000000 -4.7320495 -172.10249 22.679029 96.867584 -31.883492 39.637577 -17.741125 144.74152
1020000000 -4.7168217 -172.39584 22.59305 96.44162 -31.767632 39.637154 -17.921362 144.73778
1030000000 -4.7037997 -172.50183 22.531935 96.096352 -31.461683 40.580715 -18.029255 145.15848
1040000000 -4.7093339 -172.80959 22.467447 95.74073 -31.566839 39.750946 -18.079636 145.24509
1050000000 -4.6988769 -172.96178 22.394377 95.385666 -31.502123 39.669479 -18.155067 145.10699
1060000000 -4.6932445 -173.11179 22.330597 95.09977 -31.523781 41.119247 -18.270725 145.76463
1070000000 -4.6886702 -173.27081 22.263304 94.685341 -31.458187 40.39048 -18.44409 145.87012
1080000000 -4.6907015 -173.51118 22.191555 94.351616 -31.384043 40.840523 -18.471893 145.99467
1090000000 -4.6728978 -173.71588 22.121666 93.993416 -31.267796 41.09977 -18.644569 146.95253
1100000000 -4.6623373 -173.82326 22.06991 93.649567 -31.312233 40.775772 -18.76553 146.76744
1110000000 -4.6568341 -174.02423 22.008625 93.297119 -31.131851 40.078094 -18.874916 147.28868
1120000000 -4.6669793 -174.26605 21.939486 93.026054 -31.128458 41.037758 -18.929588 147.60101
1130000000 -4.6479049 -174.43163 21.873585 92.642418 -30.988729 41.509808 -19.053452 147.75607
1140000000 -4.6480365 -174.73169 21.813087 92.367538 -30.903917 41.318027 -19.112566 148.14346
1150000000 -4.6577721 -174.87341 21.744127 91.970619 -31.07571 40.98624 -19.289591 148.46466
1160000000 -4.6441278 -175.07745 21.691025 91.583588 -30.865332 41.679726 -19.354929 148.82086
1170000000 -4.6316218 -175.17088 21.626095 91.318176 -30.80798 41.683903 -19.429926 148.94122
1180000000 -4.6292496 -175.42982 21.566278 90.923424 -30.787199 41.938549 -19.514502 149.13095
1190000000 -4.6239276 -175.64439 21.503241 90.675911 -30.638041 43.123623 -19.665245 149.69022
1200000000 -4.6250753 -175.86308 21.436981 90.282722 -30.604017 42.647163 -19.756086 150.04651
1210000000 -4.6193719 -175.95442 21.380455 90.01992 -30.420023 42.474346 -19.775669 150.63669
1220000000 -4.6232576 -176.14008 21.31481 89.684227 -30.665623 42.443855 -19.831738 151.02347
1230000000 -4.6147804 -176.30257 21.26334 89.361404 -30.625177 42.287128 -20.086178 151.15556
1240000000 -4.6145563 -176.41823 21.202242 89.103859 -30.485313 41.901775 -20.054249 151.84651
1250000000 -4.6020179 -176.66736 21.146229 88.769165 -30.375616 42.861778 -20.169262 151.97438
1260000000 -4.5974398 -176.79794 21.088346 88.435333 -30.232882 42.306011 -20.229715 152.4151
1270000000 -4.5955973 -177.12601 21.02776 88.099869 -30.300817 42.189644 -20.201517 153.0217
1280000000 -4.588161 -177.29597 20.968977 87.798637 -30.257788 43.359615 -20.380938 153.4893
1290000000 -4.5898442 -177.47411 20.909714 87.473625 -30.194405 42.308926 -20.466688 154.22331
1300000000 -4.5893044 -177.60591 20.854643 87.194794 -30.019032 42.631073 -20.548468 154.04959
1310000000 -4.5816946 -177.78137 20.797962 86.872696 -30.069836 42.888817 -20.6278 154.46359
1320000000 -4.584743 -178.00906 20.746962 86.575844 -30.113354 42.314728 -20.748257 155.20224
1330000000 -4.5747414 -178.21184 20.695423 86.272255 -29.993252 42.380611 -20.800673 155.35858
1340000000 -4.5740499 -178.35144 20.636024 85.990219 -29.922247 42.597023 -20.915104 156.20863
1350000000 -4.5701571 -178.49089 20.58152 85.723389 -29.967798 42.709743 -20.969187 156.28581
1360000000 -4.5776734 -178.65086 20.530594 85.413742 -29.805277 42.435772 -21.130783 156.51021
1370000000 -4.5646515 -178.80322 20.471666 85.124519 -29.791153 43.384628 -21.163797 156.73491
1380000000 -4.5579028 -179.06451 20.419556 84.823708 -29.652487 42.721172 -21.279484 157.56212
1390000000 -4.5549321 -179.28513 20.374876 84.508583 -29.67178 43.433743 -21.255301 157.42348
1400000000 -4.5672135 -179.4431 20.311647 84.235405 -29.676643 42.935596 -21.281424 158.45009
1410000000 -4.5653024 -179.60509 20.259958 83.928886 -29.449327 43.163631 -21.394854 159.06232
1420000000 -4.5730896 -179.77876 20.20418 83.682175 -29.39113 42.378349 -21.44832 159.24959
1430000000 -4.5745902 179.99806 20.146906 83.345428 -29.505268 42.993633 -21.563971 160.20419
1440000000 -4.5632143 179.84912 20.104273 83.060356 -29.362936 43.3297 -21.530142 160.55214
1450000000 -4.5606322 179.65332 20.055134 82.788521 -29.441336 43.092075 -21.666971 160.81848
1460000000 -4.5584183 179.49556 19.998037 82.444138 -29.380451 44.053131 -21.678144 161.53691
1470000000 -4.5461607 179.28366 19.947914 82.222626 -29.204504 43.348446 -21.830738 161.79697
1480000000 -4.5471377 179.09566 19.890804 81.93734 -29.167324 44.401852 -21.85589 162.45531
1490000000 -4.5526791 179.00557 19.841124 81.659431 -29.138712 43.719131 -21.861221 162.96783
1500000000 -4.5600305 178.76715 19.78912 81.376137 -29.088942 43.602432 -21.822351 163.26382
1510000000 -4.5566411 178.59921 19.738537 81.096275 -29.000265 44.374367 -21.976875 163.2366
1520000000 -4.5506449 178.46327 19.691893 80.833641 -28.997103 44.280716 -22.026733 164.10052
1530000000 -4.5481291 178.30772 19.641285 80.540932 -28.837503 43.514736 -22.071692 165.08765
1540000000 -4.5425677 178.04271 19.598944 80.246735 -28.917475 44.012035 -22.116341 165.49785
1550000000 -4.5529618 177.80656 19.545509 79.953659 -28.941919 44.411091 -22.222675 166.15918
1560000000 -4.5454011 177.68448 19.50523 79.706596 -28.892246 44.071732 -22.174824 166.6693
1570000000 -4.5560679 177.51595 19.447762 79.445503 -28.857718 44.091839 -22.209581 167.31042
1580000000 -4.5612731 177.29797 19.401556 79.151497 -28.758718 43.583221 -22.294651 167.65044
1590000000 -4.5587869 177.19081 19.351181 78.92392 -28.742952 44.035233 -22.291765 168.08521
1600000000 -4.5527558 177.04921 19.301773 78.649834 -28.649473 43.785583 -22.355888 168.63004
1610000000 -4.5340009 176.95789 19.263916 78.362389 -28.63496 43.463211 -22.321283 169.34999
1620000000 -4.5409641 176.62747 19.216845 78.113297 -28.605457 44.144112 -22.382969 170.23326
1630000000 -4.5463128 176.53003 19.173077 77.816757 -28.521175 43.652458 -22.37211 170.93488
1640000000 -4.5578942 176.31165 19.125284 77.566635 -28.433043 43.154381 -22.379492 171.00787
1650000000 -4.558156 176.16592 19.078354 77.291359 -28.443666 44.101971 -22.349375 171.54567
1660000000 -4.5567608 176.08917 19.03018 77.054031 -28.376419 43.053932 -22.372688 171.99609
1670000000 -4.5536566 175.83716 18.992218 76.795624 -28.348324 43.379406 -22.445625 173.2937
1680000000 -4.5384712 175.68733 18.950787 76.504677 -28.195871 43.540451 -22.398294 173.60068
1690000000 -4.5369935 175.47789 18.901438 76.289658 -28.36264 44.236153 -22.517714 173.85585
1700000000 -4.542788 175.24315 18.858437 75.952751 -28.202732 43.296406 -22.507183 174.69325
1710000000 -4.5505848 174.98135 18.811087 75.707924 -28.145555 42.094486 -22.512344 174.17432
1720000000 -4.5528216 174.95212 18.763145 75.445877 -28.11326 43.442471 -22.464527 175.37227
1730000000 -4.5528731 174.75639 18.722231 75.180283 -28.08456 43.524799 -22.533331 175.46489
1740000000 -4.5397124 174.55379 18.680449 74.941368 -28.105745 43.331554 -22.511604 176.83699
1750000000 -4.5573721 174.36461 18.632095 74.617104 -27.932144 43.644245 -22.574045 176.90321
1760000000 -4.5305462 174.16341 18.592024 74.419441 -27.942837 42.77689 -22.516829 176.96062
1770000000 -4.5522633 173.96747 18.542521 74.130943 -27.901834 43.225388 -22.47728 177.75064
1780000000 -4.5569811 173.78438 18.498592 73.884415 -27.891357 43.105652 -22.61632 178.4483
1790000000 -4.550271 173.64159 18.452993 73.615898 -27.808727 43.640289 -22.393055 178.90395
1800000000 -4.5631042 173.56471 18.416161 73.422394 -27.85955 42.984386 -22.557398 179.82536
1810000000 -4.5462189 173.20235 18.377005 73.157898 -27.934708 43.493057 -22.515676 -179.65434
1820000000 -4.5506949 173.15425 18.331928 72.870628 -27.695333 43.327232 -22.5312 179.88469
1830000000 -4.54743 172.89537 18.295252 72.617897 -27.654488 42.452419 -22.467472 -178.72618
1840000000 -4.547637 172.78032 18.251457 72.349998 -27.623531 42.416645 -22.445335 -178.13225
1850000000 -4.5659871 172.56033 18.20624 72.109268 -27.529383 43.508068 -22.438055 -177.37183
1860000000 -4.5523295 172.31615 18.162664 71.768845 -27.631802 42.541744 -22.389482 -177.46017
1870000000 -4.5667462 172.17459 18.119949 71.564201 -27.487391 42.33276 -22.35957 -177.39647
1880000000 -4.5650339 172.00705 18.070974 71.312386 -27.438446 42.623249 -22.383421 -176.58331
1890000000 -4.5636773 171.88544 18.041668 71.048721 -27.419569 42.02153 -22.364851 -175.7357
1900000000 -4.5489202 171.7215 17.993759 70.837631 -27.568369 43.250008 -22.380363 -175.09724
1910000000 -4.5636492 171.56241 17.960411 70.536911 -27.248528 41.682247 -22.23736 -175.12398
1920000000 -4.5453148 171.34352 17.915825 70.273254 -27.263674 41.531796 -22.170261 -173.97849
1930000000 -4.5536003 171.0658 17.874887 70.011665 -27.244539 42.031136 -22.200279 -174.09947
1940000000 -4.5821753 170.97952 17.829525 69.794144 -27.240612 42.758354 -22.182053 -173.57779
1950000000 -4.5803418 170.79395 17.790648 69.56897 -27.149185 42.488911 -22.162315 -173.40459
1960000000 -4.5713329 170.63989 17.75404 69.324913 -27.187717 42.812183 -22.176819 -172.51451
1970000000 -4.5639062 170.50574 17.718023 69.068886 -27.138142 42.493584 -22.175907 -172.49507
1980000000 -4.5698633 170.28886 17.675308 68.794952 -27.011068 42.13765 -22.160511 -171.85915
1990000000 -4.5575633 170.05731 17.636444 68.579216 -27.151363 42.132732 -22.060255 -171.08853
2000000000 -4.6042328 169.93071 17.594624 68.296036 -27.047663 42.760227 -21.965818 -170.99969
2010000000 -4.5696254 169.65092 17.556412 68.067581 -26.878633 41.897305 -22.000559 -170.58206
2020000000 -4.5708404 169.5705 17.518284 67.82254 -26.776779 41.844112 -21.964684 -170.68948
2030000000 -4.5737252 169.42453 17.474131 67.575615 -26.859386 41.744404 -21.895372 -170.50066
2040000000 -4.575892 169.20233 17.443064 67.34584 -26.842096 40.959873 -21.809021 -169.82382
2050000000 -4.5756836 169.05351 17.407969 67.107605 -26.855202 42.36216 -21.78447 -169.23073
2060000000 -4.5530434 168.85698 17.371593 66.835785 -26.819921 41.641109 -21.725319 -168.17961
2070000000 -4.5615902 168.51784 17.33279 66.544464 -26.75168 41.101768 -21.744741 -168.44466
2080000000 -4.5624619 168.43263 17.294039 66.350487 -26.698296 40.394608 -21.572235 -168.03731
2090000000 -4.5813742 168.26143 17.249163 66.136597 -26.66114 41.119675 -21.524275 -168.29167
2100000000 -4.5741024 168.03273 17.217638 65.853897 -26.646399 39.983387 -21.573456 -167.67964
2110000000 -4.5674162 167.88512 17.193438 65.607719 -26.592613 41.734184 -21.569059 -167.7276
2120000000 -4.5703235 167.74727 17.147141 65.404251 -26.639004 41.057144 -21.579668 -167.18633
2130000000 -4.5651093 167.47012 17.116186 65.081352 -26.464067 41.135105 -21.40797 -167.01683
