# Hz S  dB   R 50
10000000 -6.4175406 -83.45578 34.841633 147.1839 -37.892452 33.518261 -5.9414234 -108.62769
20000000 -9.2230167 -110.86942 32.304253 152.06105 -34.206257 18.939169 -7.8466516 -138.18456
30000000 -10.366193 -126.6416 31.308914 156.33946 -34.3573 15.337906 -8.2046604 -152.92844
40000000 -10.811516 -135.47975 30.857361 158.68965 -35.024265 13.202765 -8.3542318 -161.68489
50000000 -11.049969 -140.92616 30.628321 159.98813 -34.824955 9.0302095 -8.4208593 -167.04733
60000000 -11.035327 -144.06277 30.46965 160.40707 -34.697296 8.5455122 -8.4617567 -171.29893
70000000 -11.099901 -145.90169 30.371815 160.39856 -34.79269 7.4440465 -8.5220757 -174.34991
80000000 -11.020024 -147.21173 30.27169 160.04784 -34.808956 5.4283166 -8.6157084 -176.88089
90000000 -10.907439 -147.83835 30.200348 159.47943 -34.679008 6.8662014 -8.6488724 -179.17003
100000000 -10.838867 -148.4052 30.130928 158.85345 -34.666786 10.082886 -8.7042437 178.65192
110000000 -10.70022 -148.6588 30.063078 158.04491 -34.75835 8.8244848 -8.7598143 177.09238
120000000 -10.500521 -148.7795 29.994875 157.15121 -34.959854 6.5248113 -8.8069239 175.51611
130000000 -10.3559 -148.90907 29.925688 156.18475 -34.812111 8.2270527 -8.8741369 173.96452
140000000 -10.196764 -148.91995 29.859493 155.19286 -34.742264 8.6504488 -8.9771185 172.57011
150000000 -10.021547 -148.86122 29.790121 154.20679 -34.825985 8.9603176 -9.0421057 171.13872
160000000 -9.8728628 -148.76846 29.735079 153.15881 -34.658306 8.413455 -9.1330318 170.00673
170000000 -9.6993322 -148.97958 29.658298 152.17322 -34.776787 7.1477752 -9.1844673 168.9185
180000000 -9.5011349 -148.86037 29.57926 151.06012 -34.64727 8.5102262 -9.2368021 167.63428
190000000 -9.3308067 -149.02489 29.517597 149.94168 -34.795753 9.2819204 -9.3051748 166.73727
200000000 -9.1828003 -149.10811 29.434431 148.96725 -34.781666 8.3210239 -9.3907642 165.61449
210000000 -9.0092449 -149.20996 29.357222 147.91736 -34.822346 10.343842 -9.4925642 164.61209
220000000 -8.8448639 -149.08473 29.28083 146.7742 -34.724194 9.8372774 -9.5857916 163.63849
230000000 -8.6885891 -149.38521 29.19854 145.81558 -34.880798 10.223769 -9.6575432 162.80275
240000000 -8.5441523 -149.47325 29.116573 144.76508 -34.726353 9.7850733 -9.7618589 162.0542
250000000 -8.408576 -149.64729 29.02211 143.71593 -34.792625 12.227894 -9.8523912 161.08331
260000000 -8.2599564 -149.85997 28.949623 142.76375 -34.598358 12.07607 -9.9455166 160.19299
270000000 -8.1150589 -150.26465 28.859554 141.71698 -34.480904 10.777452 -10.067543 159.49019
280000000 -7.9685888 -150.45903 28.769966 140.70293 -35.002209 13.402808 -10.164056 159.0509
290000000 -7.8345785 -150.54985 28.680811 139.71997 -34.940548 12.24164 -10.257862 158.22914
300000000 -7.7247391 -150.87715 28.58638 138.73595 -34.838791 13.770805 -10.362997 157.40746
310000000 -7.5705142 -151.16443 28.493614 137.75172 -34.642132 13.944448 -10.489744 157.03711
320000000 -7.4641371 -151.4299 28.406597 136.83313 -34.764198 13.802328 -10.5294 155.78868
330000000 -7.3782125 -151.70035 28.304834 135.96786 -35.163315 15.662454 -10.689103 155.65552
340000000 -7.2617431 -151.97621 28.211901 135.03197 -34.544304 14.568191 -10.754961 154.93349
350000000 -7.1539254 -152.3205 28.119139 134.12573 -34.900753 13.662461 -10.895004 154.55121
360000000 -7.0568094 -152.63684 28.028545 133.22134 -34.332756 16.737181 -10.999741 153.75677
370000000 -6.9467397 -153.16942 27.918085 132.37376 -35.0714 15.66475 -11.075438 153.5522
380000000 -6.8620949 -153.29597 27.838888 131.49272 -34.549934 18.63834 -11.224236 152.93498
390000000 -6.7594438 -153.60294 27.745876 130.60954 -34.648872 15.567599 -11.281466 152.57036
400000000 -6.6859846 -154.12825 27.650064 129.82443 -34.408024 17.292013 -11.423292 152.16096
410000000 -6.5998893 -154.32939 27.545774 128.99709 -34.635517 18.515455 -11.534472 151.61627
420000000 -6.5189204 -154.68689 27.447842 128.25035 -34.606056 18.98237 -11.634606 151.31874
430000000 -6.4543948 -155.07378 27.344034 127.49323 -34.648052 18.627439 -11.753583 150.9827
440000000 -6.3759422 -155.41078 27.250273 126.66879 -34.331966 18.861065 -11.8827 150.62271
450000000 -6.296464 -155.81316 27.162058 125.89177 -34.726604 21.21176 -11.984635 150.0321
460000000 -6.2250137 -156.07903 27.057344 125.16812 -34.268074 20.291906 -12.069513 149.82147
470000000 -6.1621637 -156.4709 26.968084 124.40146 -34.333652 20.808769 -12.190827 149.59399
480000000 -6.0985818 -156.76613 26.867928 123.70876 -34.336063 22.630112 -12.31836 149.24593
490000000 -6.0433016 -157.04228 26.776237 122.95564 -34.187698 22.778866 -12.439749 148.96965
500000000 -6.0153275 -157.37979 26.685228 122.28123 -34.337254 22.131422 -12.534356 148.56282
510000000 -5.9234819 -157.61391 26.578215 121.60478 -34.165325 21.610476 -12.646825 148.41589
520000000 -5.8843498 -158.06915 26.495188 120.98998 -34.123001 24.790709 -12.804126 147.98714
530000000 -5.8280272 -158.30243 26.401049 120.22805 -34.20137 26.11974 -12.851154 147.89148
540000000 -5.7866745 -158.76443 26.298113 119.60364 -33.4995 23.801748 -12.978889 147.8576
550000000 -5.7151113 -159.09315 26.205839 118.9325 -34.043598 25.402519 -13.094939 147.32358
560000000 -5.6680703 -159.44023 26.106483 118.298 -33.982586 26.292337 -13.166349 147.16829
570000000 -5.627533 -159.68761 26.025822 117.70061 -33.829391 24.754683 -13.304962 146.98097
580000000 -5.5811911 -159.93629 25.928392 117.0449 -33.890793 25.62649 -13.430028 147.07457
590000000 -5.5302629 -160.26904 25.841677 116.47835 -33.795193 27.892504 -13.520938 146.68289
600000000 -5.4914165 -160.57954 25.763268 115.82177 -33.796368 26.134495 -13.606824 146.50323
610000000 -5.4624362 -160.94881 25.650122 115.27827 -33.752834 27.081657 -13.732387 146.37164
620000000 -5.429461 -161.23433 25.566141 114.74195 -33.732975 28.438519 -13.866026 146.47014
630000000 -5.382781 -161.54614 25.473156 114.07839 -33.781525 28.318773 -13.96007 146.30437
640000000 -5.3534985 -161.86804 25.369463 113.58363 -33.660572 29.553747 -14.126616 146.3912
650000000 -5.3266931 -162.13441 25.300877 113.02882 -33.806946 28.600147 -14.231881 146.45995
660000000 -5.2947407 -162.46417 25.208996 112.50099 -33.480522 29.238506 -14.28279 146.41733
670000000 -5.2617507 -162.77245 25.12384 111.92049 -33.673325 31.093517 -14.423077 146.5174
680000000 -5.2359467 -163.03433 25.040791 111.38919 -33.494637 30.79495 -14.526669 146.29343
690000000 -5.2119017 -163.34421 24.952587 110.90682 -33.410706 31.534346 -14.608418 146.32744
700000000 -5.1721625 -163.54192 24.872112 110.37712 -33.409988 31.302584 -14.726795 146.24072
710000000 -5.1539531 -163.89664 24.775116 109.82034 -33.120583 31.113256 -14.866405 146.3127
720000000 -5.1237302 -164.07654 24.705366 109.29346 -33.150837 31.450327 -14.955814 145.94844
730000000 -5.1080952 -164.35759 24.617208 108.80697 -33.057827 32.352345 -15.057363 146.19136
740000000 -5.0781889 -164.67274 24.532963 108.2692 -33.138123 32.929806 -15.134501 146.12569
750000000 -5.0571952 -164.96292 24.444324 107.85855 -33.035297 32.508347 -15.186022 146.45302
760000000 -5.0308447 -165.17592 24.368029 107.35173 -32.949749 32.631752 -15.324266 146.15154
770000000 -5.0044603 -165.4847 24.288025 106.88142 -32.849892 32.796474 -15.440348 146.33023
780000000 -4.9987884 -165.69048 24.202024 106.40896 -32.921616 31.870321 -15.522284 146.53975
790000000 -4.9666266 -166.00777 24.118708 105.95316 -33.095264 32.533024 -15.602655 146.5291
800000000 -4.9579396 -166.25977 24.034107 105.48775 -32.754078 34.137226 -15.751836 146.65416
810000000 -4.9232383 -166.51076 23.964365 105.0358 -32.761246 35.377346 -15.826795 146.54002
820000000 -4.9087439 -166.76639 23.886745 104.57443 -32.676117 34.267826 -15.917744 146.65318
830000000 -4.9036283 -167.04399 23.802382 104.14737 -32.3974 36.030811 -15.999159 146.86278
840000000 -4.8949604 -167.27013 23.721977 103.69366 -32.545605 35.811172 -16.092258 146.87595
850000000 -4.8754854 -167.56093 23.64875 103.26831 -32.47205 34.833675 -16.231873 147.20674
860000000 -4.8624897 -167.75363 23.570173 102.82655 -32.418537 36.31741 -16.269093 147.07713
870000000 -4.8425598 -167.97443 23.498583 102.42003 -32.396389 36.352566 -16.42613 147.25139
880000000 -4.8282313 -168.19563 23.414249 101.98067 -32.193714 34.851879 -16.477451 147.70149
890000000 -4.8013577 -168.46983 23.346344 101.58399 -32.138275 36.598209 -16.579212 147.72038
900000000 -4.7978067 -168.64276 23.265844 101.23022 -32.316086 37.264095 -16.676178 147.83083
910000000 -4.7747283 -168.87553 23.192642 100.7875 -32.070923 37.062817 -16.772726 147.86786
920000000 -4.7727342 -169.07787 23.123791 100.43121 -32.080227 37.996933 -16.85779 147.72484
930000000 -4.7669535 -169.20573 23.052792 100.07761 -32.080479 38.517517 -16.956011 148.1882
940000000 -4.7495017 -169.51427 22.978495 99.614182 -31.988096 37.437572 -17.076229 148.55426
950000000 -4.7469554 -169.71417 22.8986 99.193077 -32.139584 37.289555 -17.199347 148.60942
960000000 -4.725565 -169.99883 22.841263 98.77726 -31.879057 38.859638 -17.281651 149.01979
970000000 -4.7125349 -170.26227 22.759151 98.429085 -31.849577 38.75618 -17.375942 149.04268
980000000 -4.7118649 -170.46426 22.698257 98.051857 -31.700211 37.444687 -17.463026 148.8904
990000000 -4.701582 -170.69875 22.617994 97.661308 -31.783802 36.98452 -17.512196 149.48526
1000000000 -4.6851521 -172.79089 22.558048 97.260391 -31.600267 39.293797 -17.635847 151.50369
1010000000 -4.6858497 -171.15959 22.493111 96.866447 -31.658583 38.045979 -17.648066 150.21484
1020000000 -4.673172 -171.42218 22.408974 96.479187 -31.512854 38.998554 -17.811848 150.31923
1030000000 -4.6582894 -171.60751 22.346865 96.112999 -31.365757 39.106918 -17.880497 150.7092
1040000000 -4.6517854 -171.79408 22.284286 95.781731 -31.303198 39.227631 -17.975069 150.92961
1050000000 -4.6446242 -171.98192 22.215624 95.438614 -31.347166 39.265934 -18.041208 151.17656
1060000000 -4.6497455 -172.22955 22.144609 95.130035 -31.189768 38.663708 -18.123034 151.38599
1070000000 -4.6349277 -172.33943 22.079695 94.740265 -31.227526 39.735882 -18.247923 151.70775
1080000000 -4.6363611 -172.51012 22.008162 94.390182 -31.190027 38.706501 -18.315287 151.57141
1090000000 -4.6263533 -172.76135 21.939598 94.037697 -31.173635 40.866879 -18.433743 152.49809
1100000000 -4.6154218 -172.91353 21.883848 93.706268 -30.957439 39.563404 -18.544643 152.48235
1110000000 -4.6140852 -173.20761 21.819696 93.338821 -30.934319 40.306885 -18.635315 153.00993
1120000000 -4.6083961 -173.44012 21.75605 93.063881 -31.02681 39.840832 -18.676842 153.40112
1130000000 -4.6103678 -173.60085 21.690571 92.675133 -30.905514 40.231003 -18.768206 153.71869
1140000000 -4.5993075 -173.84891 21.631395 92.421242 -30.921238 40.644611 -18.87763 154.29144
1150000000 -4.5915098 -174.03772 21.560503 92.00312 -30.778887 40.803619 -18.981497 154.39404
1160000000 -4.5921226 -174.12741 21.505184 91.671661 -30.751856 41.225269 -19.047146 154.64961
1170000000 -4.5728164 -174.36105 21.443123 91.34906 -30.738853 39.49482 -19.127748 154.84372
1180000000 -4.5799794 -174.52299 21.380386 91.0037 -30.530571 41.708118 -19.150341 155.22487
1190000000 -4.5741024 -174.8344 21.316916 90.726509 -30.436235 40.954746 -19.330196 155.77049
1200000000 -4.5671654 -175.01671 21.254284 90.332535 -30.421911 41.505939 -19.356165 155.9684
1210000000 -4.5637603 -175.14529 21.197622 90.067299 -30.39959 41.559349 -19.420368 156.52231
1220000000 -4.5732179 -175.29068 21.134573 89.732544 -30.486027 41.970089 -19.415121 156.87833
1230000000 -4.5559521 -175.51054 21.081091 89.410873 -30.503517 40.236229 -19.630777 157.06424
1240000000 -4.5589199 -175.63362 21.020002 89.126762 -30.251921 41.989426 -19.63983 157.78836
1250000000 -4.5540743 -175.8869 20.964302 88.811462 -30.32897 41.840477 -19.665236 158.02533
1260000000 -4.545701 -176.07927 20.905392 88.454674 -30.162886 40.658524 -19.777569 158.19246
1270000000 -4.5424619 -176.23045 20.849014 88.151291 -30.091759 41.586399 -19.7682 158.79951
1280000000 -4.5448799 -176.48059 20.787392 87.847267 -30.071636 41.501938 -19.899984 159.27626
1290000000 -4.5375586 -176.67598 20.730246 87.52935 -30.089199 41.999523 -19.943897 159.74832
1300000000 -4.5263991 -176.79425 20.674648 87.256081 -29.895559 41.207172 -19.985073 159.77252
1310000000 -4.5265284 -177.05345 20.616533 86.914223 -29.906939 41.659916 -20.098316 160.59837
1320000000 -4.5193367 -177.20909 20.566183 86.640755 -29.849901 41.313671 -20.120808 161.01363
1330000000 -4.5152521 -177.43088 20.512184 86.335754 -29.931538 41.485321 -20.171694 161.12477
1340000000 -4.5151019 -177.60947 20.451328 86.058655 -29.792114 41.496517 -20.295467 161.91074
1350000000 -4.5195313 -177.78291 20.397392 85.771561 -29.714739 41.551823 -20.337494 161.94312
1360000000 -4.5147681 -177.97578 20.349613 85.475838 -29.606766 41.48333 -20.437521 162.06453
1370000000 -4.5066829 -178.08788 20.286722 85.169228 -29.560526 42.715523 -20.461311 162.34952
1380000000 -4.5064845 -178.27519 20.233946 84.86853 -29.509867 42.68174 -20.565264 163.09485
1390000000 -4.4933543 -178.50188 20.191353 84.551598 -29.506124 41.990471 -20.542294 163.32263
1400000000 -4.5133452 -178.7265 20.126232 84.258789 -29.320435 42.609909 -20.604202 163.87836
1410000000 -4.502357 -178.90358 20.076452 83.957565 -29.456804 42.316051 -20.652683 164.46616
1420000000 -4.5168524 -179.10146 20.021395 83.726158 -29.303171 42.093769 -20.690607 164.58401
1430000000 -4.5059471 -179.26465 19.96821 83.394661 -29.418325 43.088711 -20.810329 165.23782
1440000000 -4.4996195 -179.49483 19.920424 83.114365 -29.168991 42.944099 -20.772657 165.43431
1450000000 -4.5035148 -179.63908 19.867216 82.841995 -29.144958 41.828777 -20.773579 166.34294
1460000000 -4.4998269 -179.85994 19.81744 82.482643 -29.266066 42.164642 -20.853525 166.72701
1470000000 -4.4916892 179.9761 19.769056 82.243645 -29.152714 42.568306 -20.969542 166.9848
1480000000 -4.489635 179.75816 19.712446 81.975769 -29.012215 42.53223 -20.949545 167.68364
1490000000 -4.4970822 179.56802 19.660137 81.705032 -29.212101 43.68565 -20.997885 167.8134
1500000000 -4.5035529 179.46193 19.606613 81.40406 -29.053623 42.742828 -20.940556 167.94911
1510000000 -4.4924879 179.23636 19.557129 81.136841 -28.859961 42.785656 -21.057236 168.50014
1520000000 -4.5004535 179.13686 19.51079 80.898636 -28.891727 42.381008 -21.145727 169.20448
1530000000 -4.4890652 178.93005 19.462296 80.605942 -28.821444 43.227924 -21.135761 169.65111
1540000000 -4.4937906 178.69562 19.417395 80.326241 -28.674026 42.591026 -21.183197 170.33621
1550000000 -4.4889169 178.4986 19.364744 80.000381 -28.785772 43.182438 -21.229387 170.27075
1560000000 -4.4848514 178.39656 19.321125 79.748856 -28.726515 42.881409 -21.17606 170.86977
1570000000 -4.494061 178.08369 19.266924 79.480881 -28.676001 43.089409 -21.169048 171.7511
1580000000 -4.5046487 178.01309 19.220324 79.207764 -28.545506 42.462177 -21.287039 172.04118
1590000000 -4.4968657 177.92252 19.17058 78.982857 -28.558617 42.719215 -21.307831 171.97975
1600000000 -4.4928694 177.62631 19.120733 78.699654 -28.472954 42.839687 -21.312849 172.74028
1610000000 -4.4816961 177.54465 19.081547 78.412918 -28.387024 42.651005 -21.340979 173.26299
1620000000 -4.4864426 177.31343 19.036423 78.154251 -28.482037 42.798126 -21.349556 173.38892
1630000000 -4.4858689 177.15263 18.990582 77.860497 -28.493797 42.655647 -21.239733 174.09567
1640000000 -4.4951696 176.90334 18.944874 77.604469 -28.370535 42.415146 -21.311937 174.62045
1650000000 -4.4879541 176.74704 18.897696 77.360229 -28.377024 42.875534 -21.328629 175.03685
1660000000 -4.4908795 176.65367 18.85037 77.088982 -28.167828 41.832146 -21.374847 175.28801
1670000000 -4.4819055 176.43748 18.811085 76.833611 -28.188091 43.004799 -21.329613 175.67244
1680000000 -4.4713855 176.26781 18.770157 76.552032 -28.298401 42.609219 -21.353163 176.37178
1690000000 -4.4808908 176.05472 18.720093 76.325699 -28.167236 42.572124 -21.355566 176.7695
1700000000 -4.4885941 175.85194 18.67268 75.98391 -28.160059 42.152313 -21.347029 177.45175
1710000000 -4.4939485 175.61049 18.630875 75.758804 -28.041555 42.13073 -21.34215 177.1684
1720000000 -4.4867663 175.46138 18.58539 75.49128 -28.005384 42.859085 -21.357006 177.64064
1730000000 -4.4991984 175.35345 18.541277 75.219391 -27.91943 42.765942 -21.403109 178.01875
1740000000 -4.4951582 175.13457 18.501831 74.972923 -27.93885 42.780312 -21.429306 178.96275
1750000000 -4.493278 174.88187 18.451674 74.650795 -27.886547 42.787792 -21.462175 179.44008
1760000000 -4.4724574 174.76935 18.412882 74.458817 -27.863848 42.270523 -21.397511 179.48195
1770000000 -4.4907618 174.54259 18.364559 74.192612 -27.817247 42.257675 -21.338486 179.6376
1780000000 -4.4902639 174.36636 18.319344 73.919044 -27.73724 42.608044 -21.386431 -179.55876
1790000000 -4.498034 174.23885 18.272724 73.676025 -27.650698 42.271183 -21.309334 -179.11505
1800000000 -4.5041618 174.10358 18.234911 73.459778 -27.768173 41.242249 -21.448946 -178.56308
1810000000 -4.4960623 173.83913 18.193207 73.20546 -27.588537 42.357357 -21.406874 -178.59813
1820000000 -4.500587 173.67513 18.153017 72.92717 -27.591248 41.738647 -21.362368 -177.46777
1830000000 -4.488049 173.51591 18.114006 72.682457 -27.557831 42.538818 -21.332115 -177.04111
1840000000 -4.4784961 173.25667 18.07411 72.368576 -27.483923 41.9645 -21.276304 -176.95366
1850000000 -4.4882522 173.05786 18.030472 72.164848 -27.406891 42.00761 -21.227247 -176.73817
1860000000 -4.4851217 172.90932 17.987526 71.818123 -27.461632 41.251396 -21.220169 -176.36722
1870000000 -4.4965067 172.70215 17.941347 71.620285 -27.357325 42.084206 -21.180391 -176.11691
1880000000 -4.5006347 172.62901 17.892834 71.366531 -27.380718 41.387493 -21.204123 -175.69287
1890000000 -4.4941063 172.39154 17.866537 71.119919 -27.236032 42.408478 -21.214134 -175.56813
1900000000 -4.4928694 172.26952 17.816347 70.878738 -27.239569 41.326252 -21.220886 -174.63693
1910000000 -4.4908853 172.11389 17.782406 70.579544 -27.168613 41.629898 -21.124041 -174.93785
1920000000 -4.4835382 171.84506 17.738983 70.317993 -27.291544 42.143448 -21.084753 -173.9671
1930000000 -4.5044308 171.61418 17.697006 70.05703 -27.176033 41.707615 -21.045126 -173.96738
1940000000 -4.4943056 171.42845 17.652596 69.846695 -27.225325 42.009377 -21.025373 -173.80235
1950000000 -4.5071635 171.25323 17.615999 69.619316 -27.236841 41.627346 -21.088718 -173.02898
1960000000 -4.5021715 171.1877 17.575888 69.363533 -26.991522 41.83585 -21.008621 -172.83398
1970000000 -4.5068078 171.01497 17.539173 69.094887 -27.090801 41.299774 -21.019081 -172.38309
1980000000 -4.4954953 170.83595 17.501484 68.850998 -26.979721 41.282639 -21.040955 -172.08736
1990000000 -4.5006542 170.66454 17.455055 68.64547 -26.962379 41.245144 -20.991938 -171.61392
2000000000 -4.5177889 170.43294 17.4156 68.322121 -26.846155 41.670013 -20.872589 -171.93513
2010000000 -4.509088 170.22263 17.379559 68.130524 -26.926369 41.100994 -20.857353 -171.44313
2020000000 -4.511373 170.06482 17.341448 67.879105 -26.815323 41.311234 -20.86294 -171.27229
2030000000 -4.5103025 169.94051 17.297989 67.603462 -26.774239 40.887024 -20.802967 -170.74089
2040000000 -4.4984908 169.81432 17.264605 67.401955 -26.729704 40.388535 -20.783516 -170.16493
2050000000 -4.5172362 169.53632 17.230963 67.156158 -26.60001 41.520584 -20.751095 -169.76904
2060000000 -4.4955025 169.4467 17.192019 66.889336 -26.546156 40.793819 -20.697445 -169.41522
2070000000 -4.4978266 169.06996 17.156202 66.612755 -26.673319 40.992947 -20.768095 -169.28098
2080000000 -4.5010052 168.87997 17.116241 66.37458 -26.587002 40.718231 -20.551365 -169.16327
2090000000 -4.5098786 168.74617 17.068773 66.182869 -26.438509 40.533161 -20.513014 -169.00177
2100000000 -4.5112081 168.56664 17.038372 65.910622 -26.544262 40.771744 -20.535196 -168.54944
2110000000 -4.5093603 168.36578 17.019072 65.662277 -26.464752 40.477528 -20.525551 -168.91245
2120000000 -4.501965 168.25555 16.968121 65.438354 -26.528206 41.313145 -20.486328 -168.20953
2130000000 -4.4946284 167.97887 16.938377 65.116676 -26.397743 40.923935 -20.454006 -167.9892
