# Hz S  dB   R 50
10000000 -6.3463955 -78.392776 34.483643 147.69035 -37.263649 29.402004 -5.8677001 -103.30346
20000000 -9.5669365 -106.11832 32.00103 152.59845 -36.320126 21.312878 -8.0892353 -136.49576
30000000 -10.861651 -120.44409 31.033045 156.82066 -34.469582 14.536203 -8.6828337 -150.52444
40000000 -11.358973 -130.39114 30.594999 159.08797 -34.690887 8.142951 -8.8059797 -159.11104
50000000 -11.617952 -135.0939 30.375538 160.33066 -33.919144 10.575494 -8.9863939 -164.81575
60000000 -11.695656 -139.03114 30.2223 160.70358 -34.116337 8.3927479 -9.0368347 -169.64478
70000000 -11.687591 -140.65631 30.126293 160.64482 -34.518307 7.311728 -9.1199265 -172.67625
80000000 -11.600855 -142.26468 30.025103 160.26448 -34.124084 7.2833767 -9.2059736 -175.39122
90000000 -11.470409 -142.74701 29.957487 159.675 -34.263294 9.1209526 -9.2457352 -177.755
100000000 -11.32914 -143.30859 29.889761 159.02348 -34.231495 5.8003769 -9.3017235 -179.69003
110000000 -11.213316 -143.85678 29.822081 158.19772 -34.506081 6.2465162 -9.3535919 178.50293
120000000 -10.982754 -144.00699 29.755644 157.297 -34.284401 7.1969509 -9.4041157 176.99556
130000000 -10.800077 -144.17645 29.687586 156.32501 -34.545883 7.7660618 -9.4821758 175.34737
140000000 -10.608425 -144.25383 29.620083 155.31941 -34.435181 8.600893 -9.5645103 173.97368
150000000 -10.403539 -144.31615 29.552742 154.31618 -34.32576 7.1685219 -9.6496429 172.74718
160000000 -10.232422 -144.20251 29.496023 153.26843 -34.336109 7.2483273 -9.7262154 171.53162
170000000 -10.02656 -144.57535 29.420399 152.2601 -34.232105 6.9593034 -9.7652693 170.46404
180000000 -9.8062458 -144.73592 29.340521 151.1424 -34.485031 7.6543727 -9.8243628 169.15761
190000000 -9.6241169 -144.67284 29.278793 150.02887 -34.470837 7.3085747 -9.8844366 168.38974
200000000 -9.4581661 -145.0173 29.194151 149.03195 -34.34391 8.3242188 -9.9665098 167.19193
210000000 -9.2634335 -145.01404 29.119886 147.98495 -34.322472 9.7354984 -10.084144 166.26596
220000000 -9.0520716 -145.28616 29.042955 146.83817 -34.477337 8.6394138 -10.157402 165.29044
230000000 -8.8971157 -145.54555 28.960476 145.85762 -34.384583 9.3580875 -10.246128 164.49178
240000000 -8.7442665 -145.75443 28.87664 144.79486 -34.337303 10.727752 -10.347714 163.94093
250000000 -8.5905943 -146.04657 28.786718 143.77107 -34.365017 9.7461433 -10.428535 162.92229
260000000 -8.432622 -146.20824 28.7129 142.78458 -34.314728 8.9087391 -10.516081 162.00833
270000000 -8.2977257 -146.47287 28.619814 141.74628 -33.870396 11.366803 -10.612079 161.53609
280000000 -8.1272001 -146.75011 28.530987 140.72943 -34.387451 12.204162 -10.718694 161.03696
290000000 -7.9811645 -147.02701 28.436823 139.75543 -34.439342 12.199342 -10.806599 160.34433
300000000 -7.8154445 -147.56099 28.352074 138.77309 -34.13195 12.720461 -10.908664 159.75504
310000000 -7.6731272 -147.78818 28.25198 137.789 -34.439785 13.850719 -11.04597 159.09329
320000000 -7.573103 -148.21591 28.166294 136.87634 -34.143738 13.249825 -11.098825 158.2359
330000000 -7.4455414 -148.82555 28.067322 135.99792 -34.027817 13.609328 -11.194786 157.93272
340000000 -7.3389449 -148.95445 27.973133 135.06134 -34.039204 13.489963 -11.301381 157.17796
350000000 -7.2254 -149.46371 27.874697 134.14517 -34.303883 15.848858 -11.402757 156.89035
360000000 -7.1216621 -149.71735 27.787188 133.23425 -34.41489 15.021721 -11.526112 156.44189
370000000 -6.9939141 -150.30136 27.680334 132.3707 -34.197495 15.724979 -11.635506 155.94679
380000000 -6.9082775 -150.47809 27.596277 131.50505 -34.309273 15.737467 -11.741729 155.58151
390000000 -6.805479 -150.90546 27.503633 130.6239 -33.999462 17.665869 -11.858948 155.28194
400000000 -6.7294555 -151.24744 27.404734 129.85034 -34.358459 18.380058 -11.95096 154.71846
410000000 -6.6302872 -151.70377 27.30447 129.00482 -34.202061 18.569635 -12.053399 154.36418
420000000 -6.5540142 -152.2482 27.207928 128.22375 -33.98901 18.649429 -12.185232 154.17334
430000000 -6.4760184 -152.62175 27.104473 127.52725 -33.912613 18.676165 -12.298037 153.79004
440000000 -6.3844018 -152.95268 27.012724 126.66245 -33.750626 17.655966 -12.383008 153.39185
450000000 -6.3157301 -153.3074 26.921385 125.89595 -34.326023 19.747219 -12.495682 153.0239
460000000 -6.2535167 -153.71725 26.818104 125.17352 -33.989677 20.111349 -12.591706 152.68483
470000000 -6.1733603 -154.1116 26.728941 124.40183 -33.957958 19.204918 -12.698575 152.71463
480000000 -6.1076684 -154.45978 26.624044 123.71128 -33.976242 20.814461 -12.802838 152.56906
490000000 -6.0417814 -154.86551 26.535904 122.97026 -34.067516 20.386606 -12.924902 152.18916
500000000 -6.0162249 -155.17137 26.442698 122.26443 -33.958241 21.981775 -13.014739 151.84279
510000000 -5.9199653 -155.48088 26.335453 121.59502 -33.725536 22.386213 -13.148084 151.67142
520000000 -5.8707123 -155.90952 26.254683 120.98604 -33.887039 23.57349 -13.299529 151.53993
530000000 -5.8168697 -156.3149 26.15624 120.21405 -33.79393 22.432867 -13.354226 151.12885
540000000 -5.7694302 -156.62981 26.059546 119.58962 -33.796154 24.340277 -13.45761 151.30775
550000000 -5.7158642 -156.99821 25.959303 118.9431 -33.648766 24.859659 -13.577538 150.92429
560000000 -5.6482663 -157.29016 25.862904 118.30444 -33.787189 21.576265 -13.6749 150.92807
570000000 -5.61517 -157.71765 25.783216 117.70197 -33.545765 25.708342 -13.767781 150.64505
580000000 -5.5658684 -157.96736 25.6889 117.05811 -33.471699 24.618093 -13.860604 150.51659
590000000 -5.5106583 -158.32135 25.602507 116.44381 -33.55233 25.992666 -13.972991 150.42561
600000000 -5.4736457 -158.65018 25.520411 115.84765 -33.582024 26.246956 -14.033889 150.32234
610000000 -5.435533 -159.13963 25.406763 115.26057 -33.514301 25.627462 -14.16503 150.51099
620000000 -5.3947186 -159.37396 25.327995 114.74326 -33.475739 26.971592 -14.243299 150.55165
630000000 -5.35676 -159.7278 25.23415 114.08295 -33.474392 25.710085 -14.382983 150.1212
640000000 -5.3136463 -160.08821 25.126266 113.55884 -33.141857 27.910244 -14.521135 150.57918
650000000 -5.2889705 -160.40547 25.0543 112.98988 -33.255417 27.335871 -14.595388 150.46045
660000000 -5.2656441 -160.64867 24.966108 112.51202 -33.218147 29.171923 -14.708915 150.71774
670000000 -5.2248058 -161.01665 24.880342 111.93435 -33.179352 28.55633 -14.797411 150.64891
680000000 -5.2010732 -161.34384 24.798208 111.35655 -33.112354 29.344864 -14.878154 150.69978
690000000 -5.175458 -161.65501 24.708893 110.88822 -33.064583 28.462719 -14.970058 150.56047
700000000 -5.1461735 -161.93602 24.626574 110.38231 -33.002178 28.905872 -15.098554 150.43063
710000000 -5.1184726 -162.29771 24.53335 109.83191 -33.129616 30.730808 -15.159246 150.69264
720000000 -5.0855832 -162.44568 24.465853 109.28428 -32.871147 31.335634 -15.277971 150.5058
730000000 -5.0655861 -162.75328 24.375525 108.8204 -32.633141 31.489096 -15.386815 150.9818
740000000 -5.0303531 -163.04938 24.288893 108.2703 -32.819969 30.408091 -15.463554 150.80798
750000000 -5.0210986 -163.41013 24.199169 107.84432 -32.928509 32.038452 -15.556527 150.94467
760000000 -4.9893336 -163.67209 24.125229 107.34287 -32.67168 32.114262 -15.595932 150.90718
770000000 -4.9633403 -163.88828 24.041004 106.87115 -32.809864 31.396429 -15.714464 151.13327
780000000 -4.9425473 -164.28378 23.957098 106.38872 -32.893623 31.323883 -15.811702 151.13162
790000000 -4.9396672 -164.47792 23.877562 105.94391 -32.675766 32.616871 -15.888541 151.26939
800000000 -4.9174199 -164.80322 23.790888 105.48684 -32.641212 32.191414 -16.013512 151.18547
810000000 -4.8799186 -165.09781 23.721798 105.01647 -32.398849 33.33337 -16.05179 151.61551
820000000 -4.8633151 -165.3075 23.646015 104.58389 -32.377979 32.743298 -16.14637 151.58235
830000000 -4.8537092 -165.57611 23.559814 104.13943 -32.474792 34.199783 -16.229134 151.78038
840000000 -4.8487339 -165.87695 23.480072 103.71135 -32.265923 32.747536 -16.311287 151.84514
850000000 -4.8270469 -166.13756 23.407896 103.27256 -32.204552 34.095692 -16.447264 152.20314
860000000 -4.810781 -166.40324 23.326885 102.82001 -32.351006 35.000317 -16.495214 152.15692
870000000 -4.7790437 -166.59267 23.258617 102.43139 -32.227673 34.319241 -16.599916 152.76299
880000000 -4.7737694 -166.83092 23.173265 101.99644 -32.238987 34.165394 -16.682968 152.61636
890000000 -4.7572351 -167.13231 23.101868 101.58312 -32.069645 35.483482 -16.758768 152.86832
900000000 -4.7493515 -167.3309 23.022633 101.22752 -31.912817 36.115307 -16.835554 153.20502
910000000 -4.7323318 -167.56142 22.948282 100.80443 -31.969261 34.881554 -16.91927 153.25301
920000000 -4.7072849 -167.77103 22.880413 100.43116 -31.790207 35.413166 -16.985266 153.47
930000000 -4.703145 -167.94707 22.810783 100.04469 -31.934231 36.546566 -17.090406 153.30835
940000000 -4.6931233 -168.24582 22.736959 99.617783 -31.77729 36.525921 -17.176807 153.82713
950000000 -4.6819978 -168.44875 22.655445 99.214005 -31.681509 36.858353 -17.309639 154.1389
960000000 -4.6667786 -168.72073 22.597263 98.774506 -31.823612 36.677879 -17.332314 154.38416
970000000 -4.6513629 -169.05463 22.516699 98.439232 -31.597559 37.110035 -17.45816 154.75005
980000000 -4.6557126 -169.25841 22.453342 98.054855 -31.521334 36.831783 -17.476021 154.89474
990000000 -4.6356587 -169.53008 22.374069 97.639648 -31.590559 37.346817 -17.554508 155.29959
1000000000 -4.6170511 -171.55063 22.319315 97.295364 -31.303064 36.753128 -17.682732 157.05751
1010000000 -4.6134624 -169.95348 22.248459 96.879097 -31.430471 36.36758 -17.650238 155.76511
1020000000 -4.6189742 -170.26291 22.167301 96.485954 -31.373396 38.044411 -17.740694 155.92841
1030000000 -4.5879927 -170.40373 22.105978 96.109337 -31.291914 36.65324 -17.861097 156.36275
1040000000 -4.5903401 -170.65543 22.04114 95.773735 -31.167688 37.817127 -17.934851 156.60751
1050000000 -4.5926981 -170.92204 21.969465 95.412064 -31.200596 36.574432 -18.043541 156.79015
1060000000 -4.572401 -171.06068 21.903677 95.122025 -31.056133 38.45652 -18.102636 157.54056
1070000000 -4.5738769 -171.15501 21.835087 94.729881 -31.221052 38.031929 -18.193815 157.83087
1080000000 -4.5805612 -171.43977 21.763163 94.396835 -31.056534 38.530228 -18.245211 157.71373
1090000000 -4.5585361 -171.66347 21.696035 94.031815 -31.022825 38.176819 -18.337797 158.48553
1100000000 -4.5462646 -171.80743 21.642403 93.686432 -30.883442 37.921516 -18.402315 158.65479
1110000000 -4.5505042 -172.05779 21.580496 93.31691 -30.758593 38.299839 -18.495144 159.06898
1120000000 -4.5431881 -172.2989 21.512196 93.052406 -30.850409 37.83992 -18.548561 159.16335
1130000000 -4.535315 -172.52602 21.445454 92.687355 -30.774178 38.216671 -18.627048 159.93277
1140000000 -4.5356884 -172.68646 21.38805 92.403839 -30.61326 39.012886 -18.650898 160.14566
1150000000 -4.5306563 -172.925 21.318838 92.010979 -30.54557 38.379292 -18.724739 160.478
1160000000 -4.5196733 -173.10619 21.264662 91.641045 -30.552691 38.60371 -18.871674 160.58856
1170000000 -4.5043011 -173.29059 21.198069 91.332306 -30.457008 40.236454 -18.852978 160.86998
1180000000 -4.5118523 -173.51535 21.140966 90.962784 -30.427574 39.688385 -18.949532 161.14513
1190000000 -4.5086942 -173.834 21.072287 90.709526 -30.400286 38.99889 -19.028757 162.22665
1200000000 -4.5021615 -173.95262 21.009966 90.317467 -30.335491 39.443821 -19.045631 162.20947
1210000000 -4.5037889 -174.14185 20.956715 90.052551 -30.272055 40.754337 -19.131756 162.71686
1220000000 -4.4958572 -174.32144 20.891239 89.722229 -30.326302 39.956764 -19.153177 162.93814
1230000000 -4.4861202 -174.45406 20.836987 89.409981 -30.19883 39.952377 -19.300543 163.26028
1240000000 -4.4828138 -174.64671 20.780092 89.121712 -30.007225 40.508678 -19.296282 163.57477
1250000000 -4.4819369 -174.8813 20.723932 88.801613 -30.06168 40.281204 -19.321047 164.05276
1260000000 -4.4810524 -175.0639 20.663435 88.453659 -30.081123 40.154839 -19.423918 164.44392
1270000000 -4.4773026 -175.29279 20.604454 88.163116 -30.11553 40.167549 -19.382936 164.8577
1280000000 -4.4707727 -175.49442 20.546581 87.84314 -29.880709 40.369183 -19.542839 165.56821
1290000000 -4.4611115 -175.74245 20.486877 87.502899 -29.824123 40.466087 -19.529762 165.70847
1300000000 -4.4521108 -175.83774 20.432304 87.256943 -29.698339 40.205158 -19.558836 165.90292
1310000000 -4.4539957 -176.06503 20.377144 86.917908 -29.841835 41.778801 -19.625454 166.3343
1320000000 -4.4502687 -176.23904 20.321037 86.613457 -29.882784 41.760319 -19.713568 166.71004
1330000000 -4.4479561 -176.50714 20.271029 86.31559 -29.625538 40.138958 -19.707792 167.18375
1340000000 -4.4496398 -176.64781 20.211172 86.042664 -29.636883 41.237072 -19.761154 167.52151
1350000000 -4.4520116 -176.87195 20.15913 85.753166 -29.513515 40.615788 -19.83502 167.77069
1360000000 -4.4471879 -177.01241 20.107862 85.474358 -29.48699 40.380466 -19.910816 167.95792
1370000000 -4.4380808 -177.1758 20.046432 85.156036 -29.496103 41.356094 -19.93515 168.02151
1380000000 -4.4392514 -177.41473 19.997641 84.856773 -29.478186 39.984638 -19.997774 168.89706
1390000000 -4.4202309 -177.63062 19.9517 84.537216 -29.358877 41.160225 -19.975283 168.78242
1400000000 -4.4314151 -177.85925 19.886726 84.256363 -29.270031 40.73431 -20.06098 169.47801
1410000000 -4.4369678 -177.95503 19.83704 83.963875 -29.287249 40.781494 -20.058861 169.92857
1420000000 -4.4391103 -178.2377 19.777517 83.69632 -29.259644 40.2966 -20.117399 170.05696
1430000000 -4.4440179 -178.34555 19.724054 83.382195 -29.192745 41.397575 -20.141174 170.71835
1440000000 -4.4220233 -178.65375 19.681789 83.094727 -29.119963 40.911327 -20.141199 171.16719
1450000000 -4.4153476 -178.72151 19.630615 82.831726 -29.101341 42.10376 -20.183395 171.58284
1460000000 -4.417223 -178.97479 19.576357 82.500542 -28.986847 42.043171 -20.221411 171.9381
1470000000 -4.4171081 -179.18639 19.525366 82.249504 -28.98214 40.912693 -20.299496 172.29449
1480000000 -4.4135036 -179.38301 19.472649 81.962097 -28.95393 41.286377 -20.296087 172.64252
1490000000 -4.4206901 -179.47762 19.418388 81.70591 -28.889172 42.391563 -20.255117 172.99756
1500000000 -4.4252033 -179.73155 19.366753 81.398804 -28.796814 41.654716 -20.284599 173.15921
1510000000 -4.4233422 -179.92587 19.319742 81.13546 -28.828501 41.234764 -20.316916 173.56744
1520000000 -4.4155188 179.94011 19.269953 80.888084 -28.730219 42.28624 -20.376167 174.14963
1530000000 -4.4167991 179.78183 19.221958 80.592491 -28.852571 41.297752 -20.366508 174.35072
1540000000 -4.4082808 179.48859 19.176981 80.28727 -28.664658 41.965836 -20.449434 174.55396
1550000000 -4.4162273 179.29004 19.127048 79.983765 -28.626316 40.627949 -20.506247 175.18811
1560000000 -4.4215407 179.13028 19.083717 79.74704 -28.501799 41.862194 -20.434082 175.29562
1570000000 -4.4179444 178.98962 19.028633 79.48848 -28.476854 41.91272 -20.385265 176.02986
1580000000 -4.4342866 178.7101 18.982258 79.192421 -28.544426 42.062462 -20.462223 176.37996
1590000000 -4.4147148 178.68234 18.933153 78.968452 -28.44009 41.630989 -20.472763 176.57637
1600000000 -4.4155874 178.40703 18.88184 78.667908 -28.435343 41.606312 -20.56636 177.25336
1610000000 -4.4050374 178.33803 18.841623 78.391449 -28.260551 41.907421 -20.517569 177.12834
1620000000 -4.4030304 178.12708 18.798054 78.135956 -28.361456 42.39402 -20.521278 177.71323
1630000000 -4.3953967 177.93767 18.753113 77.869484 -28.312248 41.434364 -20.47492 177.90759
1640000000 -4.4162221 177.71924 18.703865 77.575577 -28.239517 41.483154 -20.463957 178.38188
1650000000 -4.4083204 177.50661 18.659086 77.347687 -28.082483 41.417984 -20.532709 178.59776
1660000000 -4.4152308 177.41045 18.610662 77.090485 -28.173178 41.536808 -20.48933 179.1687
1670000000 -4.3968573 177.21568 18.573048 76.850395 -28.004608 41.432201 -20.505701 179.54047
1680000000 -4.3954082 176.97623 18.530153 76.519157 -28.03451 40.652718 -20.478926 179.73181
1690000000 -4.396935 176.72668 18.483629 76.309837 -27.877748 41.482513 -20.489325 -179.40587
1700000000 -4.4087753 176.54872 18.439135 75.962074 -28.001812 41.790913 -20.512745 -179.35942
1710000000 -4.4159894 176.39565 18.390806 75.728539 -27.902679 41.706032 -20.514519 -179.44557
1720000000 -4.4097328 176.25255 18.345808 75.476776 -27.984587 41.965748 -20.443899 -179.02007
1730000000 -4.4098716 176.00629 18.307293 75.215637 -27.891781 41.36285 -20.534769 -178.46254
1740000000 -4.4097748 175.90266 18.26104 74.981628 -27.813259 40.979015 -20.512981 -177.86322
1750000000 -4.412766 175.63145 18.214977 74.654854 -27.746538 41.457439 -20.490664 -177.85622
1760000000 -4.4113441 175.55502 18.173164 74.451515 -27.783792 41.641922 -20.528524 -177.8268
1770000000 -4.4118147 175.24892 18.123182 74.165565 -27.785694 41.844952 -20.476532 -177.62302
1780000000 -4.4181919 175.09183 18.080763 73.897484 -27.665501 41.857159 -20.481665 -176.9436
1790000000 -4.4228239 174.85555 18.036625 73.64962 -27.658688 41.250015 -20.456919 -176.64328
1800000000 -4.410749 174.76256 17.999086 73.443192 -27.50893 41.631229 -20.513891 -176.28178
1810000000 -4.4212241 174.55925 17.955999 73.173447 -27.489519 40.979561 -20.498867 -176.04355
1820000000 -4.4154987 174.40854 17.913031 72.898972 -27.540424 41.240376 -20.472311 -175.91292
1830000000 -4.3997998 174.2012 17.877377 72.662636 -27.458691 40.633236 -20.389702 -174.49028
1840000000 -4.4099255 174.01265 17.830973 72.363106 -27.337685 41.652756 -20.420757 -174.84262
1850000000 -4.4271731 173.81821 17.789276 72.121445 -27.423468 41.91048 -20.350021 -174.71265
1860000000 -4.4012442 173.60954 17.7484 71.792122 -27.366491 41.801956 -20.325283 -173.99788
1870000000 -4.42065 173.41319 17.705042 71.600815 -27.36771 41.817165 -20.27747 -174.05354
1880000000 -4.4221992 173.30891 17.656893 71.344795 -27.247066 40.899456 -20.288296 -173.60568
1890000000 -4.4195461 173.14639 17.626303 71.100586 -27.206196 41.107136 -20.281378 -173.81554
1900000000 -4.4079232 172.86502 17.580217 70.864029 -27.229458 40.864075 -20.260906 -172.80159
1910000000 -4.416326 172.71506 17.547613 70.532455 -27.074633 41.502537 -20.168184 -173.15033
1920000000 -4.4029627 172.51939 17.500315 70.29966 -27.057011 40.63089 -20.223446 -172.44579
1930000000 -4.4201593 172.27457 17.460365 70.047607 -27.113588 41.091518 -20.189459 -172.18401
1940000000 -4.4206867 172.10774 17.414803 69.823326 -27.015419 41.521866 -20.176029 -172.14735
1950000000 -4.4206042 171.96796 17.377859 69.598679 -27.005054 41.245201 -20.145267 -172.02951
1960000000 -4.4213767 171.83116 17.33968 69.350807 -26.961143 40.743103 -20.143661 -171.46043
1970000000 -4.420279 171.66136 17.300152 69.086945 -27.001532 40.840466 -20.107841 -171.26173
1980000000 -4.4128904 171.53761 17.26157 68.816261 -26.897461 40.316467 -20.098516 -170.98076
1990000000 -4.4086695 171.28828 17.219072 68.618202 -26.950275 41.304523 -20.083748 -170.87967
2000000000 -4.4515886 171.08974 17.179897 68.311348 -26.768625 40.39093 -19.928492 -170.83543
2010000000 -4.423943 170.89633 17.146683 68.088562 -26.765064 40.574684 -20.014154 -170.36195
2020000000 -4.4178686 170.69859 17.103943 67.848923 -26.662783 40.250843 -20.013506 -170.42436
2030000000 -4.4243112 170.55698 17.065197 67.597374 -26.747997 40.409077 -19.922916 -169.84494
2040000000 -4.4251852 170.41602 17.03124 67.378815 -26.729416 40.774845 -19.903992 -170.00293
2050000000 -4.4263492 170.14796 16.994368 67.125259 -26.559345 40.427864 -19.867485 -169.14729
2060000000 -4.4130983 169.96255 16.959013 66.847908 -26.516502 40.769676 -19.844969 -169.00598
2070000000 -4.423861 169.72121 16.921446 66.559311 -26.624868 40.145504 -19.807398 -168.89163
2080000000 -4.4145722 169.53491 16.881903 66.340729 -26.500998 39.852863 -19.680853 -169.12631
2090000000 -4.4205928 169.31076 16.840374 66.114639 -26.468573 39.57777 -19.733885 -168.53049
2100000000 -4.4275966 169.11406 16.805212 65.853989 -26.384363 39.247211 -19.68648 -168.46964
2110000000 -4.4162369 168.96043 16.783659 65.624054 -26.479847 39.343906 -19.675858 -168.5827
2120000000 -4.413404 168.85728 16.736637 65.410576 -26.361189 39.355869 -19.658821 -168.01093
2130000000 -4.4078207 168.61826 16.70429 65.091003 -26.308044 39.337757 -19.604216 -168.09085
