# Hz S  dB   R 50
10000000 -6.2354498 -83.902374 34.946945 146.85812 -37.062996 23.195911 -5.8389325 -107.8982
20000000 -9.0822086 -113.69621 32.421814 151.8188 -35.76123 17.185061 -7.4428496 -140.91017
30000000 -10.184311 -129.80736 31.418812 156.13232 -35.593056 11.950016 -7.8107176 -155.03185
40000000 -10.547497 -137.85266 30.962404 158.52519 -34.942604 11.362988 -8.0080881 -162.4565
50000000 -10.746547 -142.84836 30.730789 159.84682 -35.325726 8.6163206 -8.0997324 -167.80377
60000000 -10.825912 -146.07008 30.570587 160.2953 -35.155724 7.8806477 -8.1380939 -172.0705
70000000 -10.815333 -147.91769 30.472246 160.28717 -35.287865 8.2883377 -8.1929111 -175.11133
80000000 -10.726923 -149.12135 30.370628 159.93991 -35.06432 7.304534 -8.253355 -177.5262
90000000 -10.656742 -149.65891 30.29854 159.38293 -35.098637 8.6645098 -8.2863998 -179.7679
100000000 -10.561074 -150.18829 30.229641 158.75658 -35.030174 6.9274311 -8.359704 178.15689
110000000 -10.442576 -150.57867 30.161121 157.94812 -35.152618 7.5485153 -8.4030209 176.52016
120000000 -10.275245 -150.5619 30.092463 157.06648 -34.921127 8.9194307 -8.4629946 175.04843
130000000 -10.117794 -150.61166 30.023571 156.11407 -34.732388 7.9228387 -8.5390234 173.47688
140000000 -9.9712973 -150.67424 29.955078 155.10789 -35.130959 8.611886 -8.6180019 172.06216
150000000 -9.8038225 -150.70953 29.886467 154.13129 -34.974094 8.2608767 -8.693059 170.80627
160000000 -9.6736469 -150.50357 29.830418 153.08685 -35.083092 7.8507614 -8.7725821 169.6149
170000000 -9.5127611 -150.68698 29.752672 152.09044 -34.865105 8.3307896 -8.828681 168.54199
180000000 -9.3333921 -150.4705 29.673174 150.98555 -35.163158 9.858634 -8.8714409 167.30869
190000000 -9.1568298 -150.51262 29.613649 149.85678 -34.838501 10.004413 -8.94244 166.3614
200000000 -9.0244265 -150.78497 29.525501 148.90411 -35.098675 9.1579523 -9.0253353 165.2894
210000000 -8.8633127 -150.84714 29.452055 147.82979 -35.121243 11.699961 -9.116848 164.42783
220000000 -8.7042141 -150.73038 29.375774 146.70985 -34.94381 10.870397 -9.2163801 163.37949
230000000 -8.5747118 -150.99777 29.291756 145.73653 -35.210247 12.121249 -9.305438 162.45613
240000000 -8.42241 -151.06212 29.207571 144.65916 -34.809666 11.155252 -9.4045506 161.75609
250000000 -8.3046331 -151.23068 29.116472 143.6454 -34.964588 10.992093 -9.4970245 160.83762
260000000 -8.1709223 -151.29205 29.039022 142.68324 -35.06493 15.571747 -9.5925465 160.00621
270000000 -8.0114899 -151.69595 28.952105 141.61714 -35.023792 12.705175 -9.7057114 159.23051
280000000 -7.8587732 -151.73317 28.861191 140.60953 -35.328484 11.043366 -9.7861423 158.72276
290000000 -7.7571616 -151.90881 28.772112 139.6523 -34.834187 15.051207 -9.8834658 158.04646
300000000 -7.6021218 -152.28893 28.681805 138.67191 -34.86359 10.069199 -9.9733515 157.26216
310000000 -7.483645 -152.40952 28.583752 137.67952 -34.8876 15.865427 -10.109253 156.61185
320000000 -7.3745551 -152.79811 28.495764 136.75168 -34.647667 12.827265 -10.182881 155.87355
330000000 -7.2857046 -153.198 28.397789 135.90312 -34.885853 15.541883 -10.303449 155.30386
340000000 -7.1827569 -153.20323 28.304228 134.95041 -35.11705 15.25003 -10.3837 154.89403
350000000 -7.082396 -153.60493 28.206738 134.07266 -34.607239 17.919899 -10.500475 154.05577
360000000 -6.9741359 -153.8943 28.117416 133.1331 -35.096043 16.516724 -10.600934 153.69289
370000000 -6.8780084 -154.41399 28.006882 132.29836 -35.138714 17.37907 -10.715194 153.24036
380000000 -6.8108506 -154.44144 27.925674 131.42842 -34.79089 19.330147 -10.85774 152.84258
390000000 -6.7100596 -154.89076 27.831224 130.57256 -35.088436 16.508324 -10.918902 152.31265
400000000 -6.6343813 -155.10789 27.734316 129.75967 -34.967201 19.359455 -11.036969 151.75729
410000000 -6.5617838 -155.52736 27.629845 128.92529 -34.660568 18.769262 -11.141706 151.48349
420000000 -6.47124 -155.87389 27.535597 128.15869 -34.677048 19.121279 -11.25121 151.1133
430000000 -6.3994012 -156.2153 27.432777 127.4573 -34.655151 20.973017 -11.354553 150.5683
440000000 -6.3148565 -156.53586 27.339008 126.60419 -34.931889 21.827536 -11.467753 150.36226
450000000 -6.2542219 -156.81705 27.250898 125.83067 -34.667206 20.379173 -11.604646 149.71219
460000000 -6.1816549 -157.19208 27.14402 125.11711 -34.665405 21.007689 -11.701964 149.55293
470000000 -6.1223812 -157.52417 27.051327 124.35414 -34.406673 23.255291 -11.802052 149.24399
480000000 -6.0647645 -157.73703 26.952007 123.65454 -34.586277 22.096029 -11.942554 148.84435
490000000 -5.9948425 -158.07727 26.861677 122.895 -34.709278 23.048283 -12.062702 148.63522
500000000 -5.9862461 -158.35625 26.769205 122.23005 -34.465038 24.728409 -12.125135 148.32979
510000000 -5.8724408 -158.61182 26.662367 121.53794 -34.553558 24.264578 -12.247437 147.99794
520000000 -5.8569236 -158.98552 26.58037 120.92953 -34.061665 24.977943 -12.385133 147.8497
530000000 -5.766789 -159.38487 26.483835 120.15732 -34.348194 23.587711 -12.471856 147.61505
540000000 -5.7502069 -159.7343 26.384754 119.5351 -34.067665 23.358772 -12.574723 147.24876
550000000 -5.6962552 -159.8979 26.287115 118.8839 -34.2733 25.611889 -12.704353 146.95967
560000000 -5.6413178 -160.23647 26.187641 118.24052 -34.366379 27.349461 -12.805092 147.01471
570000000 -5.6183653 -160.6418 26.10792 117.65063 -34.209797 27.264603 -12.874426 146.81329
580000000 -5.5715489 -160.78947 26.007626 117.01331 -34.142574 26.46427 -13.004949 146.44048
590000000 -5.5189662 -161.13612 25.92766 116.44948 -34.144661 26.567694 -13.11375 146.48082
600000000 -5.4857965 -161.41362 25.840601 115.78815 -34.248077 28.420692 -13.219433 146.21661
610000000 -5.4433031 -161.77046 25.731043 115.21671 -34.050571 28.904226 -13.350797 146.06979
620000000 -5.413816 -162.07071 25.649067 114.70328 -34.020725 29.207525 -13.451952 146.07082
630000000 -5.3864632 -162.3909 25.557577 114.03874 -33.905338 28.467365 -13.570212 146.18213
640000000 -5.3228726 -162.73216 25.451315 113.5285 -33.855442 29.55331 -13.688024 145.95027
650000000 -5.3085389 -162.90356 25.378534 112.99685 -33.602749 30.355898 -13.782525 146.05487
660000000 -5.2813148 -163.2525 25.286531 112.47558 -33.638355 29.872158 -13.901111 146.09286
670000000 -5.2350144 -163.63846 25.206627 111.88203 -33.686916 30.857037 -14.020021 146.11571
680000000 -5.2276587 -163.84801 25.120968 111.35563 -33.431625 30.696714 -14.101634 145.90672
690000000 -5.1927538 -164.04454 25.03249 110.87347 -33.43914 30.548513 -14.198604 145.8465
700000000 -5.1778674 -164.41023 24.947994 110.32 -33.46439 32.272232 -14.274767 145.75458
710000000 -5.1485124 -164.66124 24.851242 109.7735 -33.283291 32.588684 -14.404052 145.75667
720000000 -5.1167164 -164.79164 24.786232 109.28625 -33.233917 33.035191 -14.517327 145.42371
730000000 -5.1043644 -165.14597 24.698132 108.78853 -33.417023 32.939754 -14.620404 145.70392
740000000 -5.0636883 -165.40779 24.608683 108.23708 -33.230896 33.442169 -14.678648 145.632
750000000 -5.0455527 -165.68669 24.522192 107.81672 -32.927402 34.948296 -14.766248 145.99095
760000000 -5.0255556 -165.94664 24.445349 107.31139 -33.174999 34.455803 -14.871403 145.86919
770000000 -5.0035648 -166.17186 24.36412 106.85334 -33.074665 35.497429 -15.00986 145.92751
780000000 -4.9926319 -166.43068 24.280518 106.38079 -32.930103 34.477131 -15.095234 145.93289
790000000 -4.9639692 -166.69284 24.200457 105.92591 -33.031845 34.574127 -15.157439 145.92166
800000000 -4.9426322 -166.98341 24.115984 105.45149 -32.856045 34.163567 -15.269431 145.96268
810000000 -4.9299059 -167.18655 24.040775 104.98371 -32.735149 36.255074 -15.348905 146.13748
820000000 -4.9044838 -167.44717 23.967232 104.57481 -32.612747 35.140759 -15.463863 146.41615
830000000 -4.8994946 -167.76503 23.880489 104.11388 -32.767509 37.14151 -15.5418 146.07138
840000000 -4.8896847 -167.9989 23.80131 103.67262 -32.493065 36.108513 -15.6325 146.16949
850000000 -4.8670478 -168.21889 23.72702 103.25033 -32.667992 36.231857 -15.757656 146.42447
860000000 -4.858767 -168.36256 23.647554 102.81993 -32.574192 36.350815 -15.815199 146.45036
870000000 -4.8296809 -168.64076 23.577456 102.4072 -32.437187 36.405151 -15.930647 146.62485
880000000 -4.8179917 -168.8461 23.493839 101.958 -32.458412 36.904266 -16.05057 146.92834
890000000 -4.8162065 -169.09897 23.424286 101.57268 -32.471615 37.649696 -16.091606 146.83109
900000000 -4.7973709 -169.25854 23.344711 101.24368 -32.278519 36.953754 -16.231409 147.10286
910000000 -4.7801309 -169.50798 23.271549 100.79596 -32.149181 37.944641 -16.298506 147.2123
920000000 -4.7613888 -169.68571 23.199389 100.41875 -32.060883 38.485161 -16.391539 147.39299
930000000 -4.7617612 -169.85995 23.128542 100.0374 -32.050053 38.203838 -16.497561 147.30772
940000000 -4.7455301 -170.14952 23.0606 99.623718 -32.016541 38.609051 -16.586685 147.61659
950000000 -4.7282877 -170.36371 22.978573 99.198067 -31.740499 37.627911 -16.696413 147.70741
960000000 -4.7301188 -170.61354 22.916048 98.779007 -31.909693 38.9594 -16.728552 148.07581
970000000 -4.7080841 -170.82538 22.838722 98.436882 -31.953142 38.948948 -16.862499 148.28384
980000000 -4.7056203 -171.05981 22.773037 98.057472 -31.795807 39.434956 -16.948483 148.33687
990000000 -4.6947522 -171.3383 22.696449 97.653862 -31.964701 38.882217 -17.035772 148.77733
1000000000 -4.6780777 -173.36635 22.637766 97.267799 -31.637276 38.746101 -17.11371 150.41243
1010000000 -4.6940327 -171.74083 22.56797 96.891182 -31.547625 40.635204 -17.162117 148.87425
1020000000 -4.6665297 -171.96413 22.486822 96.48291 -31.573496 39.928452 -17.285021 149.29604
1030000000 -4.6691852 -172.18887 22.420641 96.112724 -31.533365 39.518391 -17.409924 149.57674
1040000000 -4.6523228 -172.34288 22.359383 95.790527 -31.392845 40.865082 -17.423138 149.71086
1050000000 -4.6512995 -172.60812 22.29063 95.423622 -31.227612 40.13068 -17.507442 150.14442
1060000000 -4.6458573 -172.76953 22.220787 95.140846 -31.254307 40.051933 -17.608372 150.38701
1070000000 -4.6396437 -172.8532 22.154154 94.743355 -31.32888 39.567814 -17.751341 150.56479
1080000000 -4.629097 -173.09631 22.086657 94.402412 -31.213078 41.040382 -17.767395 150.59622
1090000000 -4.625205 -173.32187 22.016253 94.053131 -31.137348 41.287624 -17.896849 151.03442
1100000000 -4.6119261 -173.51678 21.962309 93.675522 -31.072346 40.827557 -17.963455 151.31441
1110000000 -4.6122332 -173.72224 21.899153 93.362717 -31.070459 39.863995 -18.066019 151.76154
1120000000 -4.6104207 -173.95496 21.831766 93.08239 -31.173494 40.577866 -18.144739 151.71718
1130000000 -4.6057472 -174.13464 21.765633 92.695335 -31.031115 41.087067 -18.238787 152.22285
1140000000 -4.6028266 -174.37711 21.707451 92.420532 -30.93236 41.438984 -18.308546 152.45683
1150000000 -4.5937886 -174.54195 21.637203 92.002968 -30.653227 41.565929 -18.434345 152.98389
1160000000 -4.596272 -174.73982 21.582825 91.67189 -30.733282 41.609932 -18.533585 153.12646
1170000000 -4.5838184 -174.89006 21.518797 91.354637 -30.723042 42.075722 -18.528008 153.50185
1180000000 -4.5845466 -175.09779 21.456997 91.018425 -30.616514 41.393696 -18.659838 153.81001
1190000000 -4.5719256 -175.31238 21.39259 90.742073 -30.532936 41.687939 -18.778107 154.04428
1200000000 -4.5635133 -175.54063 21.332218 90.340279 -30.484566 42.329433 -18.827271 154.36852
1210000000 -4.5680337 -175.72937 21.274378 90.061508 -30.434608 42.292248 -18.865658 154.93608
1220000000 -4.576158 -175.8007 21.210176 89.771767 -30.539524 41.856064 -18.845707 154.76346
1230000000 -4.5675139 -176.02017 21.153803 89.433853 -30.476477 42.438454 -19.08482 155.2068
1240000000 -4.5676432 -176.1311 21.097599 89.152931 -30.334015 42.005962 -19.124224 155.82846
1250000000 -4.5642495 -176.35683 21.039518 88.832428 -30.161011 41.407978 -19.107994 156.10632
1260000000 -4.5549054 -176.53337 20.98156 88.491356 -30.1611 42.906677 -19.282692 156.36896
1270000000 -4.5521545 -176.79785 20.922712 88.173035 -30.195015 42.400738 -19.231617 157.07507
1280000000 -4.5517035 -176.92732 20.86442 87.86377 -30.187342 43.001728 -19.346018 157.38347
1290000000 -4.5355577 -177.1543 20.802179 87.554436 -30.02776 42.722038 -19.382931 157.72604
1300000000 -4.5404382 -177.25923 20.749481 87.268227 -29.918196 42.090973 -19.400188 157.95351
1310000000 -4.5327053 -177.50549 20.692741 86.951324 -29.902184 42.274143 -19.52228 158.38356
1320000000 -4.5352139 -177.69629 20.638191 86.63858 -29.796986 42.455452 -19.646236 158.59404
1330000000 -4.5286069 -177.84602 20.587677 86.384903 -29.805998 42.803448 -19.66906 159.18446
1340000000 -4.5276003 -178.04861 20.529419 86.111763 -29.900126 44.193745 -19.763382 159.34465
1350000000 -4.5354862 -178.23798 20.469164 85.789551 -29.608438 43.140491 -19.782532 159.56918
1360000000 -4.5270782 -178.446 20.424847 85.508621 -29.709059 42.975311 -19.894562 159.79852
1370000000 -4.5195394 -178.5704 20.361471 85.212723 -29.753187 43.043358 -19.859087 159.76295
1380000000 -4.515811 -178.78528 20.312908 84.896355 -29.503391 43.436958 -20.053968 160.73792
1390000000 -4.5119901 -178.90465 20.26561 84.598183 -29.608265 43.131706 -20.018139 160.66385
1400000000 -4.5202079 -179.19783 20.201818 84.273117 -29.563841 43.386253 -20.054785 161.56836
1410000000 -4.5143237 -179.36441 20.150663 83.979126 -29.596573 43.097782 -20.163134 161.93994
1420000000 -4.5327425 -179.55797 20.092398 83.745499 -29.338442 42.670666 -20.167524 162.0004
1430000000 -4.5271878 -179.73256 20.041698 83.424232 -29.324251 44.013199 -20.275415 162.51234
1440000000 -4.5163369 -179.86263 19.997692 83.144424 -29.342611 43.897995 -20.272221 162.9043
1450000000 -4.5070548 179.90427 19.944174 82.868568 -29.2449 43.263168 -20.326979 163.03586
1460000000 -4.5090837 179.70677 19.891481 82.536774 -29.191923 42.996315 -20.344757 163.97714
1470000000 -4.4961224 179.53391 19.843193 82.305672 -29.290539 43.46196 -20.478262 164.09383
1480000000 -4.5001831 179.29955 19.785032 82.042992 -29.180172 43.452934 -20.495832 164.40225
1490000000 -4.5076904 179.23013 19.734604 81.752838 -28.905659 43.409264 -20.443899 164.79008
1500000000 -4.5231018 178.97974 19.681166 81.446747 -29.068565 43.158882 -20.414602 165.37621
1510000000 -4.5141869 178.80722 19.633808 81.179466 -29.079248 44.01749 -20.596853 165.35231
1520000000 -4.5142651 178.69992 19.587114 80.945663 -28.913078 43.402081 -20.624846 166.21384
1530000000 -4.5002584 178.549 19.536943 80.669922 -28.881023 42.84074 -20.633339 166.61641
1540000000 -4.505065 178.24564 19.491747 80.341148 -28.819479 43.099976 -20.680822 167.00845
1550000000 -4.5029016 178.05742 19.439375 80.042969 -28.668526 43.865112 -20.773163 167.39038
1560000000 -4.5088568 177.90886 19.393764 79.797943 -28.718943 44.036331 -20.711718 167.86864
1570000000 -4.5036602 177.74258 19.339314 79.536133 -28.703186 43.811947 -20.729937 168.32086
1580000000 -4.5210876 177.50623 19.295132 79.251907 -28.64085 43.690556 -20.76399 168.92572
1590000000 -4.5059919 177.43741 19.246876 79.032219 -28.640852 44.125347 -20.812977 169.03603
1600000000 -4.4963651 177.22217 19.196945 78.746208 -28.498093 42.946163 -20.899023 169.55615
1610000000 -4.4946752 177.05383 19.15288 78.444687 -28.462246 43.43462 -20.846546 169.66582
1620000000 -4.4961872 176.9427 19.113052 78.220116 -28.528795 42.591328 -20.906284 170.48996
1630000000 -4.4997802 176.78474 19.063641 77.911224 -28.446857 43.237648 -20.835094 171.10915
1640000000 -4.5002623 176.53395 19.019276 77.650856 -28.382935 43.118202 -20.903767 171.14655
1650000000 -4.5073242 176.35858 18.971472 77.396538 -28.267435 43.31694 -20.85671 171.12502
1660000000 -4.5024858 176.28073 18.92474 77.153145 -28.275211 43.828697 -20.868832 171.62868
1670000000 -4.4956117 175.98944 18.888472 76.889259 -28.19478 42.706272 -20.869524 172.58871
1680000000 -4.4856949 175.86667 18.846411 76.599335 -28.204426 43.426811 -20.909992 172.84525
1690000000 -4.4893546 175.62137 18.794687 76.400124 -28.209188 43.442711 -20.982809 173.32735
1700000000 -4.494936 175.37753 18.747684 76.05719 -27.876947 43.791229 -20.927156 173.7216
1710000000 -4.5035224 175.20123 18.703508 75.808296 -28.04854 43.602875 -20.95804 173.83937
1720000000 -4.4963508 175.10948 18.659882 75.551971 -27.898399 43.427555 -20.979067 174.22092
1730000000 -4.5045066 174.94099 18.615379 75.300064 -27.836561 42.314213 -21.059921 174.39629
1740000000 -4.4993711 174.76239 18.577972 75.058624 -27.958868 43.592632 -21.107866 175.31116
1750000000 -4.501544 174.49861 18.526398 74.717804 -27.937628 43.605381 -21.01881 175.39685
1760000000 -4.493444 174.35106 18.489767 74.516212 -27.86775 43.123528 -21.014629 175.32407
1770000000 -4.5016904 174.11267 18.438168 74.232635 -27.710604 42.84164 -20.996183 176.26494
1780000000 -4.5056419 174.05647 18.396408 73.992195 -27.769436 43.819237 -21.05508 176.83937
1790000000 -4.5091767 173.77708 18.346508 73.739258 -27.693361 43.233444 -20.939983 177.1573
1800000000 -4.5093617 173.64476 18.309404 73.521904 -27.681595 43.342922 -21.027346 177.73796
1810000000 -4.5186453 173.41273 18.267313 73.263466 -27.590076 43.305878 -21.043783 177.94943
1820000000 -4.5087819 173.31468 18.226034 72.988335 -27.532221 41.844807 -21.086954 178.48091
1830000000 -4.5011311 173.12329 18.187815 72.751488 -27.521988 42.817596 -20.992905 179.04982
1840000000 -4.492106 172.86763 18.145664 72.437393 -27.537453 42.387871 -20.926571 179.16405
1850000000 -4.5018902 172.77216 18.099262 72.231636 -27.558025 42.022881 -20.88645 178.55553
1860000000 -4.5034137 172.5248 18.057909 71.892563 -27.324062 43.52599 -20.856976 -179.72917
1870000000 -4.5175838 172.37314 18.016941 71.671501 -27.392191 43.056984 -20.869513 179.93608
1880000000 -4.5214486 172.25 17.967688 71.433533 -27.280695 42.263023 -20.88184 -179.22861
1890000000 -4.5178585 172.04057 17.938915 71.18808 -27.25227 43.002422 -20.85557 -179.37448
1900000000 -4.5126309 171.82951 17.88958 70.943581 -27.304636 41.847603 -20.954298 -178.18074
1910000000 -4.5061965 171.71118 17.857849 70.642159 -27.22414 42.473801 -20.826946 -178.39684
1920000000 -4.5113516 171.48889 17.811666 70.417999 -26.985809 42.453884 -20.868296 -177.24011
1930000000 -4.5230131 171.2198 17.768314 70.13179 -27.176058 43.36821 -20.843504 -177.38332
1940000000 -4.5290117 171.00797 17.725071 69.8843 -27.057104 42.024414 -20.791697 -177.4525
1950000000 -4.5156064 170.96233 17.689863 69.714439 -27.218674 42.39793 -20.861431 -177.04546
1960000000 -4.524931 170.83411 17.649376 69.480492 -27.074806 42.223682 -20.744659 -176.6915
1970000000 -4.5106168 170.68629 17.614098 69.188675 -26.863468 41.410328 -20.900103 -176.22842
1980000000 -4.513701 170.46831 17.571621 68.916367 -27.007624 41.554852 -20.771935 -175.73793
1990000000 -4.5091395 170.30688 17.529623 68.710709 -26.853703 41.7271 -20.695749 -175.36832
2000000000 -4.5541434 170.06665 17.489086 68.396828 -26.868727 41.876331 -20.628883 -175.03079
2010000000 -4.5255461 169.84355 17.453091 68.23468 -26.730272 42.091373 -20.688787 -175.24765
2020000000 -4.5200353 169.74312 17.414135 67.961761 -26.767216 42.494495 -20.643484 -174.75841
2030000000 -4.532445 169.61824 17.370726 67.695236 -26.635447 41.73896 -20.566748 -174.29468
2040000000 -4.5247321 169.46056 17.339338 67.499954 -26.763742 41.519711 -20.563709 -173.92159
2050000000 -4.5247402 169.15448 17.30484 67.248825 -26.659878 41.778484 -20.52928 -173.43289
2060000000 -4.5099983 168.96971 17.269804 66.971024 -26.63801 41.490067 -20.513151 -173.27507
2070000000 -4.5073009 168.68358 17.228937 66.685181 -26.689936 41.115395 -20.458752 -173.49234
2080000000 -4.5145249 168.59673 17.193926 66.464035 -26.586584 41.980457 -20.411825 -173.05125
2090000000 -4.5267043 168.40482 17.147543 66.265892 -26.535248 41.191532 -20.353151 -172.70918
2100000000 -4.5279341 168.21468 17.11483 65.996605 -26.482613 41.124741 -20.394905 -172.76642
2110000000 -4.5168862 168.03403 17.090021 65.75267 -26.49258 40.792728 -20.360579 -172.48705
2120000000 -4.5268321 167.84969 17.043325 65.521515 -26.34882 41.312096 -20.313869 -172.1673
2130000000 -4.5118456 167.75392 17.014561 65.226212 -26.386543 41.231152 -20.222614 -171.75566
2140000000 -4.5184999 167.42241 16.964039 64.958107 -26.388268 41.028625 -20.228062 -171.10657
