# Hz S  dB   R 50
10000000 -5.7964387 -68.62104 33.754696 149.90169 -35.657986 20.544407 -5.7167282 -88.879425
20000000 -9.6285734 -93.45327 31.423882 154.11984 -33.767376 22.063265 -9.1472464 -123.87154
30000000 -11.429469 -108.1909 30.495176 157.89929 -34.011345 16.447058 -10.133707 -141.26215
40000000 -12.234632 -117.53756 30.077003 159.97273 -33.211609 12.137884 -10.533055 -150.77609
50000000 -12.678164 -122.74991 29.862627 161.06163 -33.707123 11.609423 -10.745344 -158.44786
60000000 -12.836676 -126.82615 29.713636 161.36768 -33.585365 7.5534439 -10.913994 -164.04399
70000000 -12.908932 -128.92801 29.619827 161.25177 -33.56918 8.4526815 -11.003635 -167.77194
80000000 -12.756752 -130.61411 29.525021 160.83109 -33.213512 7.4829187 -11.142189 -170.9312
90000000 -12.629862 -131.54213 29.458147 160.22711 -33.319866 7.695868 -11.161949 -173.8205
100000000 -12.46632 -132.47321 29.392262 159.53912 -33.328598 7.7373304 -11.275726 -176.27509
110000000 -12.248419 -132.95828 29.326782 158.70227 -33.239594 7.6480227 -11.327379 -178.20308
120000000 -11.993752 -133.42439 29.262486 157.8017 -33.461746 6.6667581 -11.388465 -179.87256
130000000 -11.741543 -133.81697 29.198771 156.82086 -33.333881 7.3321013 -11.4643 178.40584
140000000 -11.504549 -134.18767 29.133503 155.80385 -33.286816 5.4980617 -11.559089 176.6705
150000000 -11.244837 -134.51706 29.066511 154.81581 -33.264107 7.2153034 -11.670953 175.33755
160000000 -11.02176 -134.54739 29.011959 153.7562 -33.263474 7.327858 -11.748635 174.03317
170000000 -10.788661 -135.14764 28.938755 152.74091 -33.416885 6.7317667 -11.800583 172.77075
180000000 -10.52616 -135.40659 28.863195 151.63577 -33.310841 9.0587234 -11.852767 171.44914
190000000 -10.264884 -135.68947 28.80625 150.51973 -33.277908 7.1770091 -11.894965 170.66763
200000000 -10.079793 -136.28127 28.71994 149.52567 -33.401123 8.0468597 -11.986506 169.35751
210000000 -9.8610859 -136.65021 28.64691 148.48097 -33.261398 6.8976684 -12.134866 168.33034
220000000 -9.6145163 -136.74611 28.573738 147.36349 -33.398228 8.7322731 -12.205544 167.38829
230000000 -9.4363394 -137.43559 28.493288 146.35886 -33.474888 8.7632666 -12.276534 166.41599
240000000 -9.2395859 -137.68257 28.413132 145.30469 -33.25835 7.747313 -12.401899 165.74203
250000000 -9.0583296 -138.20322 28.32222 144.27126 -33.460468 8.400506 -12.488307 164.83656
260000000 -8.895381 -138.72507 28.248783 143.29013 -33.713009 10.196143 -12.603559 163.94159
270000000 -8.6807127 -139.09949 28.163473 142.23828 -33.312489 10.019053 -12.686915 163.33096
280000000 -8.5005751 -139.58412 28.07641 141.23741 -33.369881 7.8882532 -12.833304 162.877
290000000 -8.3231592 -139.96007 27.984701 140.26714 -33.325859 7.6700225 -12.924475 162.40836
300000000 -8.1862202 -140.73151 27.898941 139.2502 -33.639713 11.070096 -13.004932 161.39265
310000000 -8.0370045 -140.94344 27.808357 138.29199 -33.733711 12.707181 -13.147542 160.72575
320000000 -7.8783364 -141.46765 27.717627 137.38632 -33.526978 13.176298 -13.20885 160.09155
330000000 -7.7684026 -142.11415 27.630962 136.47966 -33.279129 11.932173 -13.33816 159.61008
340000000 -7.6233797 -142.5246 27.534859 135.5399 -33.272942 11.601607 -13.400652 158.79298
350000000 -7.5123129 -143.22003 27.437696 134.63351 -33.174301 14.135521 -13.55501 158.52965
360000000 -7.3751817 -143.64529 27.35043 133.72961 -33.314888 12.326676 -13.659676 158.25073
370000000 -7.2554936 -144.34445 27.249926 132.8707 -33.434891 12.501637 -13.759379 157.82285
380000000 -7.155611 -144.5377 27.167418 132.00038 -33.247803 13.609184 -13.911247 157.0829
390000000 -7.0326519 -145.09227 27.075085 131.10776 -33.049961 13.794344 -14.023374 157.05948
400000000 -6.9350548 -145.51469 26.977211 130.31123 -33.112286 14.281519 -14.08598 156.59595
410000000 -6.8366609 -146.05406 26.879292 129.4626 -33.648602 13.650446 -14.246009 156.13901
420000000 -6.7460451 -146.63638 26.781723 128.71082 -33.297958 14.615307 -14.31511 155.91968
430000000 -6.6721001 -147.22125 26.681026 127.96812 -33.231747 15.567826 -14.446692 155.90671
440000000 -6.5752983 -147.67079 26.591785 127.13098 -33.258381 16.778566 -14.556893 155.302
450000000 -6.4986377 -148.14426 26.503321 126.33812 -33.091072 16.829166 -14.719266 154.88116
460000000 -6.4166179 -148.57681 26.400799 125.63905 -33.354755 16.215389 -14.807703 154.48286
470000000 -6.3286052 -148.99292 26.312685 124.86655 -33.216484 17.885012 -14.926257 154.57327
480000000 -6.2554026 -149.39804 26.20957 124.1729 -33.084953 16.589148 -15.072602 154.50362
490000000 -6.1722999 -149.86235 26.125042 123.4316 -33.15657 18.064236 -15.205999 154.05547
500000000 -6.1477318 -150.3372 26.032839 122.71217 -33.221111 16.96719 -15.244787 153.65649
510000000 -6.0426931 -150.62875 25.928148 122.03274 -33.22279 21.406799 -15.388844 153.80748
520000000 -5.9979038 -151.16841 25.848249 121.39587 -33.01556 17.759439 -15.563547 153.35699
530000000 -5.9257646 -151.58951 25.750427 120.64709 -32.856979 19.11801 -15.638703 153.31398
540000000 -5.878468 -152.05354 25.657183 120.01942 -32.988613 17.652529 -15.77564 153.34261
550000000 -5.8140864 -152.51428 25.558201 119.34987 -33.061302 17.398525 -15.88004 153.03844
560000000 -5.7599511 -152.88617 25.466347 118.68052 -32.963932 21.169392 -15.995449 153.0894
570000000 -5.7056184 -153.29169 25.384331 118.07628 -33.095181 20.211235 -16.067711 153.10849
580000000 -5.661108 -153.59541 25.29155 117.43386 -33.042122 21.775179 -16.224445 152.63574
590000000 -5.6077704 -153.97621 25.206738 116.82979 -32.870655 22.518427 -16.381248 152.89481
600000000 -5.548347 -154.48749 25.122824 116.23194 -32.917175 20.884874 -16.446772 152.58667
610000000 -5.5291848 -154.85056 25.014734 115.64217 -32.659134 22.044855 -16.589424 153.0518
620000000 -5.4797869 -155.20341 24.930212 115.10169 -32.888775 23.350428 -16.711922 153.0759
630000000 -5.4402013 -155.62418 24.840891 114.43652 -32.513535 21.037157 -16.846489 153.22543
640000000 -5.3927059 -156.18597 24.734354 113.89879 -32.798325 22.677864 -16.977427 153.28404
650000000 -5.3621306 -156.46802 24.663351 113.3459 -32.490139 22.8496 -17.081192 153.50693
660000000 -5.3424964 -156.77505 24.574604 112.82968 -32.817097 25.108149 -17.20471 153.6572
670000000 -5.2912574 -157.16815 24.491817 112.25388 -32.65406 22.943645 -17.259502 153.78848
680000000 -5.2677507 -157.49391 24.411894 111.70064 -32.642639 25.041109 -17.364325 153.88527
690000000 -5.2184763 -157.89896 24.323408 111.19526 -32.548412 24.380251 -17.498255 153.95055
700000000 -5.2074161 -158.19533 24.242056 110.6617 -32.48336 25.322006 -17.584785 154.00882
710000000 -5.1663251 -158.58319 24.146738 110.10067 -32.461288 25.63673 -17.735563 154.18147
720000000 -5.1318421 -158.83765 24.080051 109.57751 -32.227814 26.254601 -17.867807 154.01859
730000000 -5.1135831 -159.14767 23.995667 109.1011 -32.278847 25.884373 -17.976528 154.57581
740000000 -5.0769682 -159.53661 23.902727 108.55084 -32.139072 26.402805 -17.988003 154.62059
750000000 -5.0677176 -159.9416 23.818096 108.09818 -32.295513 25.102039 -18.121946 154.75111
760000000 -5.022687 -160.16975 23.743484 107.60863 -32.141617 27.578836 -18.196297 154.97768
770000000 -5.0006776 -160.36787 23.664932 107.10915 -32.172523 27.568119 -18.338604 155.35547
780000000 -4.9914722 -160.79955 23.576958 106.64704 -32.357201 28.137228 -18.444105 155.62367
790000000 -4.9569516 -161.14226 23.499895 106.18626 -32.352901 27.784632 -18.540699 155.93217
800000000 -4.9445577 -161.39052 23.41485 105.7245 -32.038338 27.127354 -18.66156 155.7708
810000000 -4.9075184 -161.63409 23.345104 105.2629 -31.903704 28.999403 -18.70949 155.99641
820000000 -4.9008894 -161.97081 23.26659 104.78976 -31.921669 28.233107 -18.831434 156.32202
830000000 -4.8817177 -162.36395 23.180801 104.3597 -31.8386 29.089506 -18.901493 156.74049
840000000 -4.8739786 -162.58649 23.102539 103.91367 -31.799072 29.358114 -19.027735 157.22343
850000000 -4.8551583 -162.8665 23.029284 103.4478 -31.920797 29.090237 -19.182535 157.88538
860000000 -4.8351192 -163.19334 22.955383 103.02277 -31.664745 29.763601 -19.234903 157.87318
870000000 -4.7954254 -163.41711 22.88736 102.63567 -31.777443 29.203693 -19.326794 158.1075
880000000 -4.7904267 -163.70496 22.798765 102.16775 -31.497042 30.455948 -19.437792 158.70335
890000000 -4.7798438 -163.99519 22.728048 101.74677 -31.602541 30.179426 -19.482435 158.8867
900000000 -4.7624102 -164.23747 22.651226 101.38058 -31.465153 30.757698 -19.602455 159.50526
910000000 -4.7440586 -164.53017 22.574963 100.96641 -31.520422 30.895077 -19.721004 159.55824
920000000 -4.7105966 -164.74696 22.509581 100.58538 -31.42845 31.223862 -19.848391 159.89987
930000000 -4.7173452 -164.98337 22.439205 100.20221 -31.50914 31.124699 -19.928879 160.21649
940000000 -4.6991239 -165.2542 22.369987 99.768806 -31.459602 30.557375 -19.967461 160.93015
950000000 -4.6826854 -165.51109 22.28783 99.324776 -31.336815 32.183922 -20.139641 161.4933
960000000 -4.6644311 -165.78893 22.228174 98.93074 -31.153028 32.629257 -20.163448 162.27953
970000000 -4.6586347 -166.09396 22.150803 98.55751 -31.237646 32.090965 -20.277681 162.46815
980000000 -4.6513019 -166.39464 22.085674 98.146454 -31.168978 32.693783 -20.367887 162.96269
990000000 -4.6378212 -166.69695 22.006353 97.734985 -31.221609 32.292725 -20.362396 163.50078
1000000000 -4.6131849 -168.72212 21.951347 97.405945 -31.10487 33.535233 -20.462751 165.21536
1010000000 -4.6213403 -167.06847 21.882164 97.016319 -31.109943 31.89834 -20.502214 164.26773
1020000000 -4.6047063 -167.38748 21.801428 96.597923 -31.02334 31.993767 -20.682512 164.59201
1030000000 -4.5875854 -167.58492 21.738026 96.228371 -30.973896 32.910252 -20.68198 165.3067
1040000000 -4.5840569 -167.84824 21.677536 95.87088 -30.937962 33.83931 -20.764687 165.69406
1050000000 -4.579484 -168.08965 21.605883 95.514618 -30.734724 33.182529 -20.868807 166.22304
1060000000 -4.5856676 -168.28728 21.533808 95.208519 -30.813847 33.358097 -20.965309 166.70952
1070000000 -4.5668807 -168.52882 21.471445 94.781296 -30.825718 33.379326 -21.113554 167.59256
1080000000 -4.5559549 -168.70493 21.399529 94.475876 -30.786518 34.581676 -21.093082 167.94609
1090000000 -4.5460806 -168.97548 21.329807 94.102219 -30.606833 33.83432 -21.177925 169.16978
1100000000 -4.5391998 -169.11667 21.27943 93.754295 -30.501741 35.052452 -21.262222 168.88818
1110000000 -4.542675 -169.41029 21.215822 93.408516 -30.628212 34.272556 -21.348967 170.00685
1120000000 -4.5230031 -169.65091 21.154795 93.110031 -30.600138 34.974319 -21.401794 170.46034
1130000000 -4.5201054 -169.8419 21.086525 92.738724 -30.366369 34.34457 -21.489204 171.02023
1140000000 -4.5186324 -170.1512 21.027895 92.445076 -30.420338 35.527737 -21.502802 171.83038
1150000000 -4.5175347 -170.39859 20.955542 92.030296 -30.306488 34.94957 -21.577328 172.24059
1160000000 -4.5026364 -170.51152 20.90575 91.689758 -30.349272 35.223629 -21.712337 173.04948
1170000000 -4.485672 -170.74986 20.839251 91.351036 -30.339666 35.053543 -21.66358 173.39212
1180000000 -4.4810042 -171.01799 20.777897 91.021576 -30.338146 35.460991 -21.75775 173.86066
1190000000 -4.4875112 -171.29909 20.712404 90.738838 -30.127981 37.205631 -21.85107 174.49663
1200000000 -4.4806085 -171.45398 20.651344 90.341492 -30.215738 35.358536 -21.879725 175.39867
1210000000 -4.4742918 -171.63377 20.598022 90.064629 -30.089714 35.097179 -21.920118 176.49197
1220000000 -4.4770632 -171.8658 20.532509 89.702988 -30.112801 36.30014 -21.907566 176.39441
1230000000 -4.4565535 -171.98366 20.476208 89.390594 -29.975477 35.643143 -22.051418 177.46767
1240000000 -4.4600868 -172.16843 20.417204 89.113701 -29.994061 36.441639 -22.070112 178.12407
1250000000 -4.4581547 -172.42482 20.363499 88.805092 -29.857874 36.898575 -22.065762 178.34601
1260000000 -4.441545 -172.63412 20.305071 88.469742 -29.799364 35.51841 -22.118536 178.92397
1270000000 -4.4404397 -172.899 20.249737 88.126213 -29.718977 36.083458 -22.100019 179.83504
1280000000 -4.4454117 -173.1351 20.186871 87.818214 -29.863449 36.534321 -22.201954 -179.64786
1290000000 -4.4322548 -173.37921 20.127985 87.471443 -29.730335 35.823395 -22.130875 -178.9548
1300000000 -4.4247174 -173.4791 20.071962 87.210823 -29.656572 36.676983 -22.201216 -178.48424
1310000000 -4.4165211 -173.72839 20.019871 86.862022 -29.568394 36.852772 -22.20982 -177.14975
1320000000 -4.4181271 -173.95247 19.964817 86.573364 -29.549711 36.133533 -22.334768 -176.89896
1330000000 -4.4148898 -174.17833 19.91041 86.257462 -29.606728 36.567726 -22.299313 -176.75618
1340000000 -4.4166069 -174.34874 19.852478 85.990845 -29.563353 36.656361 -22.285944 -175.97849
1350000000 -4.408164 -174.4911 19.798298 85.693832 -29.61031 36.074684 -22.422089 -175.69495
1360000000 -4.4171371 -174.71727 19.750509 85.401382 -29.440149 36.657173 -22.463366 -174.74182
1370000000 -4.4070196 -174.89465 19.687113 85.087685 -29.492123 37.471664 -22.455297 -174.59253
1380000000 -4.3977757 -175.12817 19.637539 84.785713 -29.367928 37.022461 -22.509985 -173.696
1390000000 -4.3910975 -175.27348 19.592445 84.467789 -29.360853 37.721214 -22.417545 -173.55298
1400000000 -4.393538 -175.60359 19.529818 84.164513 -29.20562 36.829182 -22.472834 -172.95293
1410000000 -4.396965 -175.79573 19.480167 83.837479 -29.204517 37.329639 -22.486612 -171.79958
1420000000 -4.4075637 -176.019 19.423409 83.621956 -29.129972 37.222168 -22.423609 -171.95467
1430000000 -4.4014192 -176.22498 19.371098 83.280617 -29.025196 37.500439 -22.38063 -171.2083
1440000000 -4.3822403 -176.40134 19.324671 82.996162 -29.097277 37.760681 -22.490767 -170.65091
1450000000 -4.3785815 -176.53645 19.273886 82.728798 -28.963387 37.323811 -22.394014 -169.73477
1460000000 -4.3833194 -176.82541 19.221817 82.397537 -28.942701 38.116131 -22.446527 -169.10725
1470000000 -4.3764629 -176.98239 19.174932 82.13488 -28.911499 37.504986 -22.442205 -168.84912
1480000000 -4.3895736 -177.21252 19.114086 81.856659 -28.960829 37.318501 -22.478722 -168.17531
1490000000 -4.3780913 -177.40347 19.066385 81.576324 -28.760508 37.50127 -22.397013 -168.07755
1500000000 -4.3797302 -177.54578 19.011318 81.256538 -28.905529 37.910416 -22.382763 -167.78693
1510000000 -4.3814912 -177.73738 18.964874 80.990089 -28.892771 37.698471 -22.416359 -167.36838
1520000000 -4.369411 -177.86134 18.913982 80.746162 -28.673891 38.265102 -22.388311 -166.6478
1530000000 -4.3686838 -178.10802 18.867407 80.461693 -28.750298 38.431793 -22.377491 -165.76111
1540000000 -4.3708372 -178.39613 18.825354 80.154221 -28.573347 37.90192 -22.396795 -165.02425
1550000000 -4.3619943 -178.5827 18.775316 79.819214 -28.710884 37.777454 -22.400173 -164.46104
1560000000 -4.3656297 -178.76636 18.727013 79.583725 -28.74505 36.809975 -22.35533 -164.57103
1570000000 -4.3737016 -178.9787 18.672916 79.33477 -28.56781 37.969521 -22.294083 -163.91312
1580000000 -4.3772478 -179.09634 18.629398 79.044571 -28.485069 38.186279 -22.279057 -163.29781
1590000000 -4.3697023 -179.25122 18.577637 78.814735 -28.49235 38.248924 -22.267794 -163.15376
1600000000 -4.3725986 -179.43539 18.528557 78.512527 -28.486015 37.934647 -22.370457 -162.5513
1610000000 -4.3526354 -179.62096 18.488859 78.215065 -28.323128 38.390942 -22.267799 -161.79793
1620000000 -4.3586898 -179.84828 18.44751 77.967819 -28.361868 37.752537 -22.249338 -161.86629
1630000000 -4.3596177 179.96866 18.397697 77.692795 -28.211815 38.094944 -22.152678 -161.47075
1640000000 -4.3554621 179.68063 18.353672 77.394753 -28.21027 38.055748 -22.140118 -160.90282
1650000000 -4.3608298 179.63306 18.307272 77.163574 -28.199266 37.941566 -22.166903 -160.24911
1660000000 -4.3545647 179.46625 18.261517 76.880989 -28.105068 38.448528 -22.083193 -160.14192
1670000000 -4.3495474 179.20964 18.221954 76.623207 -28.185532 37.552822 -22.060616 -159.97124
1680000000 -4.3575878 179.04732 18.176514 76.331413 -27.984928 38.74007 -21.981672 -159.51137
1690000000 -4.3498149 178.80873 18.129595 76.117432 -28.106565 37.814873 -21.908653 -158.94507
1700000000 -4.3552151 178.51059 18.087061 75.76561 -27.970604 38.59906 -21.953783 -158.62489
1710000000 -4.3550262 178.36938 18.039425 75.500916 -28.011656 38.228718 -21.967436 -158.70981
1720000000 -4.3508172 178.21996 17.993002 75.256805 -27.953415 38.248081 -21.915722 -158.37039
1730000000 -4.362906 177.97995 17.953108 74.986191 -27.75782 38.174892 -21.925997 -157.82146
1740000000 -4.350677 177.88208 17.912363 74.74202 -27.791002 37.647331 -21.897497 -157.15407
1750000000 -4.3479152 177.55127 17.864403 74.405464 -27.730259 37.086491 -21.795172 -156.91365
1760000000 -4.3459516 177.36456 17.821695 74.197586 -27.758646 37.98587 -21.770016 -156.57204
1770000000 -4.350534 177.20683 17.77618 73.920578 -27.634699 37.691975 -21.678484 -156.77747
1780000000 -4.3536119 176.99605 17.731693 73.653145 -27.630926 38.184673 -21.718681 -156.25568
1790000000 -4.3650279 176.78796 17.683275 73.393105 -27.665457 37.975716 -21.561041 -156.08713
1800000000 -4.3517818 176.6015 17.649525 73.184074 -27.619844 38.469574 -21.667086 -155.70464
1810000000 -4.3637609 176.42841 17.606365 72.947647 -27.491365 38.606632 -21.541855 -155.58046
1820000000 -4.3547201 176.24463 17.564714 72.62262 -27.556269 37.655437 -21.47822 -155.07721
1830000000 -4.3492045 176.04462 17.52562 72.387039 -27.443966 38.684292 -21.456167 -153.89651
1840000000 -4.3428712 175.87976 17.48604 72.094536 -27.467688 37.71524 -21.376562 -154.54649
1850000000 -4.3621855 175.67134 17.440859 71.869278 -27.381754 37.806309 -21.304789 -154.5959
1860000000 -4.3419204 175.39848 17.399984 71.511009 -27.312809 37.740673 -21.251091 -154.11801
1870000000 -4.3505635 175.26773 17.357262 71.312607 -27.328173 37.858051 -21.240438 -154.24164
1880000000 -4.3632517 175.10422 17.307249 71.049431 -27.261089 37.605877 -21.182699 -153.66196
1890000000 -4.3586774 174.94331 17.277262 70.801765 -27.236229 37.55677 -21.207932 -153.75771
1900000000 -4.3551445 174.69521 17.231258 70.552238 -27.268755 37.313473 -21.131626 -152.9339
1910000000 -4.3582487 174.51096 17.197279 70.2304 -27.140692 38.191284 -21.025305 -153.4563
1920000000 -4.3432446 174.33574 17.152838 69.997101 -27.149895 37.728767 -20.987873 -152.51543
1930000000 -4.3596601 174.02621 17.1099 69.718727 -27.159103 37.697788 -20.931273 -152.82722
1940000000 -4.3547554 173.914 17.067156 69.497246 -27.12285 37.917965 -20.88261 -152.60538
1950000000 -4.3603005 173.77249 17.029503 69.286942 -27.191359 37.491947 -20.844706 -151.77344
1960000000 -4.3610997 173.62968 16.992567 69.035866 -26.963144 37.462692 -20.80625 -151.86531
1970000000 -4.3625216 173.42365 16.951014 68.763985 -26.99287 36.713757 -20.796957 -151.53754
1980000000 -4.3615761 173.30232 16.915079 68.5047 -26.949089 37.585762 -20.741306 -151.17444
1990000000 -4.3536325 173.0706 16.873243 68.29142 -26.907547 37.226799 -20.601557 -151.45743
2000000000 -4.3829584 172.82591 16.834728 67.971779 -26.927841 37.947876 -20.555012 -151.65311
2010000000 -4.3569736 172.5842 16.794897 67.763741 -26.872253 37.913681 -20.572313 -151.21194
2020000000 -4.3472104 172.39278 16.755016 67.500046 -26.875465 37.708755 -20.497669 -151.22166
2030000000 -4.3682275 172.30333 16.716772 67.236229 -26.704645 36.805561 -20.430103 -150.86519
2040000000 -4.3516955 172.12421 16.680893 67.02375 -26.852964 36.995674 -20.385523 -150.95148
2050000000 -4.3534698 171.98122 16.649801 66.794548 -26.687124 37.260185 -20.34297 -150.33429
2060000000 -4.3512182 171.74559 16.611134 66.49276 -26.639866 37.459663 -20.248941 -150.15538
2070000000 -4.350275 171.32207 16.575058 66.199165 -26.572292 36.993671 -20.283611 -150.52307
2080000000 -4.354517 171.23663 16.535997 65.991798 -26.617689 37.109478 -20.169827 -150.71986
2090000000 -4.3592219 171.05003 16.491957 65.787041 -26.697598 37.273357 -20.118338 -150.10391
2100000000 -4.3598399 170.93077 16.457312 65.492218 -26.587782 37.019333 -20.118084 -150.60078
2110000000 -4.348453 170.65968 16.433247 65.254913 -26.505716 36.491905 -20.053852 -150.15231
2120000000 -4.3608632 170.46266 16.384363 65.021919 -26.464994 35.991032 -20.055954 -150.17735
2130000000 -4.3570204 170.24651 16.355484 64.707954 -26.467615 36.03944 -19.910437 -149.75552
