! freq	mag(S11)	phase(S11)	mag(S12)	phase(S12)	mag(S13)	phase(S13)	
!     	mag(S14)	phase(S14)	mag(S15)	phase(S15)	mag(S16)	phase(S16)	
!     	mag(S21)	phase(S21)	mag(S22)	phase(S22)	mag(S23)	phase(S23)	
!     	mag(S24)	phase(S24)	mag(S25)	phase(S25)	mag(S26)	phase(S26)	
!     	mag(S31)	phase(S31)	mag(S32)	phase(S32)	mag(S33)	phase(S33)	
!     	mag(S34)	phase(S34)	mag(S35)	phase(S35)	mag(S36)	phase(S36)	
!     	mag(S41)	phase(S41)	mag(S42)	phase(S42)	mag(S43)	phase(S43)	
!     	mag(S44)	phase(S44)	mag(S45)	phase(S45)	mag(S46)	phase(S46)	
!     	mag(S51)	phase(S51)	mag(S52)	phase(S52)	mag(S53)	phase(S53)	
!     	mag(S54)	phase(S54)	mag(S55)	phase(S55)	mag(S56)	phase(S56)	
!     	mag(S61)	phase(S61)	mag(S62)	phase(S62)	mag(S63)	phase(S63)	
!     	mag(S64)	phase(S64)	mag(S65)	phase(S65)	mag(S66)	phase(S66)	
!MHT1008N Package S-parameters
#  MHz  S  MA  R 50
0.000000	0.001033	-179.999973	0.000000	90.000000	1.001033	-0.000000	0.000000	90.000000
		0.000000	0.000000	0.000000	0.000000	0.000000	90.000000	0.014726	-0.000001
		0.000000	90.000000	0.985274	-0.000000	0.000000	0.000000	0.000000	0.000000
		1.001033	-0.000000	0.000000	90.000000	0.001033	-179.999973	0.000000	90.000000
		0.000000	0.000000	0.000000	0.000000	0.000000	90.000000	0.985274	-0.000000
		0.000000	90.000000	0.014726	-0.000001	0.000000	0.000000	0.000000	0.000000
		0.000000	0.000000	0.000000	0.000000	0.000000	0.000000	0.000000	0.000000
		0.000000	180.000000	1.000000	0.000000	0.000000	0.000000	0.000000	0.000000
		0.000000	0.000000	0.000000	0.000000	1.000000	0.000000	0.000000	180.000000
10.000001	0.005041	-102.188185	0.000307	89.485185	1.001021	-0.323378	0.000274	89.440019
		0.000000	0.000000	0.000000	0.000000	0.000307	89.485185	0.015191	-14.515320
		0.000282	89.442856	0.985267	-0.251568	0.000000	0.000000	0.000000	0.000000
		1.001021	-0.323378	0.000282	89.442856	0.005050	-102.093946	0.000300	89.485749
		0.000000	0.000000	0.000000	0.000000	0.000274	89.440019	0.985267	-0.251568
		0.000300	89.485749	0.015136	-13.590445	0.000000	0.000000	0.000000	0.000000
		0.000000	0.000000	0.000000	0.000000	0.000000	0.000000	0.000000	0.000000
		0.000015	89.999112	1.000000	-0.000887	0.000000	0.000000	0.000000	0.000000
		0.000000	0.000000	0.000000	0.000000	1.000000	-0.000887	0.000015	89.999112
20.000001	0.009921	-96.699234	0.000615	88.970391	1.000984	-0.646741	0.000548	88.880059
		0.000000	0.000000	0.000000	0.000000	0.000615	88.970391	0.016510	-27.465672
		0.000564	88.885734	0.985246	-0.503130	0.000000	0.000000	0.000000	0.000000
		1.000984	-0.646741	0.000564	88.885734	0.009940	-96.543188	0.000601	88.971518
		0.000000	0.000000	0.000000	0.000000	0.000548	88.880059	0.985246	-0.503130
		0.000601	88.971518	0.016305	-25.864770	0.000000	0.000000	0.000000	0.000000
		0.000000	0.000000	0.000000	0.000000	0.000000	0.000000	0.000000	0.000000
		0.000031	89.998225	1.000000	-0.001775	0.000000	0.000000	0.000000	0.000000
		0.000000	0.000000	0.000000	0.000000	1.000000	-0.001775	0.000031	89.998225
30.000001	0.014835	-95.075799	0.000922	88.455640	1.000923	-0.970075	0.000823	88.320143
		0.000000	0.000000	0.000000	0.000000	0.000922	88.455640	0.018500	-38.123433
		0.000846	88.328654	0.985211	-0.754679	0.000000	0.000000	0.000000	0.000000
		1.000923	-0.970075	0.000846	88.328654	0.014864	-94.851088	0.000901	88.457329
		0.000000	0.000000	0.000000	0.000000	0.000823	88.320143	0.985211	-0.754679
		0.000901	88.457329	0.018086	-36.149489	0.000000	0.000000	0.000000	0.000000
		0.000000	0.000000	0.000000	0.000000	0.000000	0.000000	0.000000	0.000000
		0.000046	89.997337	1.000000	-0.002662	0.000000	0.000000	0.000000	0.000000
		0.000000	0.000000	0.000000	0.000000	1.000000	-0.002662	0.000046	89.997337
40.000001	0.019758	-94.440600	0.001229	87.940953	1.000837	-1.293365	0.001097	87.760291
		0.000000	0.000000	0.000000	0.000000	0.001229	87.940953	0.020970	-46.558220
		0.001128	87.771639	0.985163	-1.006209	0.000000	0.000000	0.000000	0.000000
		1.000837	-1.293365	0.001128	87.771639	0.019795	-94.145387	0.001201	87.943201
		0.000000	0.000000	0.000000	0.000000	0.001097	87.760291	0.985163	-1.006209
		0.001201	87.943201	0.020318	-44.430179	0.000000	0.000000	0.000000	0.000000
		0.000000	0.000000	0.000000	0.000000	0.000000	0.000000	0.000000	0.000000
		0.000062	89.996450	1.000000	-0.003550	0.000000	0.000000	0.000000	0.000000
		0.000000	0.000000	0.000000	0.000000	1.000000	-0.003550	0.000062	89.996450
50.000001	0.024682	-94.202873	0.001536	87.426351	1.000726	-1.616598	0.001370	87.200526
		0.000000	0.000000	0.000000	0.000000	0.001536	87.426351	0.023771	-53.177442
		0.001410	87.214709	0.985100	-1.257713	0.000000	0.000000	0.000000	0.000000
		1.000726	-1.616598	0.001410	87.214709	0.024729	-93.836411	0.001501	87.429155
		0.000000	0.000000	0.000000	0.000000	0.001370	87.200526	0.985100	-1.257713
		0.001501	87.429155	0.022870	-51.015585	0.000000	0.000000	0.000000	0.000000
		0.000000	0.000000	0.000000	0.000000	0.000000	0.000000	0.000000	0.000000
		0.000077	89.995562	1.000000	-0.004437	0.000000	0.000000	0.000000	0.000000
		0.000000	0.000000	0.000000	0.000000	1.000000	-0.004437	0.000077	89.995562
60.000001	0.029607	-94.164297	0.001842	86.911855	1.000591	-1.939758	0.001644	86.640868
		0.000000	0.000000	0.000000	0.000000	0.001842	86.911855	0.026799	-58.415116
		0.001692	86.657885	0.985023	-1.509185	0.000000	0.000000	0.000000	0.000000
		1.000591	-1.939758	0.001692	86.657885	0.029663	-93.726210	0.001801	86.915212
		0.000000	0.000000	0.000000	0.000000	0.001644	86.640868	0.985023	-1.509185
		0.001801	86.915212	0.025645	-56.273679	0.000000	0.000000	0.000000	0.000000
		0.000000	0.000000	0.000000	0.000000	0.000000	0.000000	0.000000	0.000000
		0.000093	89.994675	1.000000	-0.005325	0.000000	0.000000	0.000000	0.000000
		0.000000	0.000000	0.000000	0.000000	1.000000	-0.005325	0.000093	89.994675
70.000001	0.034530	-94.239612	0.002149	86.397486	1.000432	-2.262831	0.001918	86.081340
		0.000000	0.000000	0.000000	0.000000	0.002149	86.397486	0.029985	-62.624754
		0.001973	86.101190	0.984933	-1.760618	0.000000	0.000000	0.000000	0.000000
		1.000432	-2.262831	0.001973	86.101190	0.034596	-93.729682	0.002101	86.401391
		0.000000	0.000000	0.000000	0.000000	0.001918	86.081340	0.984933	-1.760618
		0.002101	86.401391	0.028579	-60.522285	0.000000	0.000000	0.000000	0.000000
		0.000000	0.000000	0.000000	0.000000	0.000000	0.000000	0.000000	0.000000
		0.000108	89.993787	1.000000	-0.006212	0.000000	0.000000	0.000000	0.000000
		0.000000	0.000000	0.000000	0.000000	1.000000	-0.006212	0.000108	89.993787
80.000001	0.039451	-94.386110	0.002454	85.883266	1.000248	-2.585803	0.002191	85.521962
		0.000000	0.000000	0.000000	0.000000	0.002454	85.883266	0.033283	-66.069100
		0.002254	85.544645	0.984828	-2.012006	0.000000	0.000000	0.000000	0.000000
		1.000248	-2.585803	0.002254	85.544645	0.039526	-93.804203	0.002400	85.887714
		0.000000	0.000000	0.000000	0.000000	0.002191	85.521962	0.984828	-2.012006
		0.002400	85.887714	0.031626	-64.006953	0.000000	0.000000	0.000000	0.000000
		0.000000	0.000000	0.000000	0.000000	0.000000	0.000000	0.000000	0.000000
		0.000124	89.992900	1.000000	-0.007100	0.000000	0.000000	0.000000	0.000000
		0.000000	0.000000	0.000000	0.000000	1.000000	-0.007100	0.000124	89.992900
90.000001	0.044370	-94.580038	0.002760	85.369216	1.000040	-2.908660	0.002464	84.962757
		0.000000	0.000000	0.000000	0.000000	0.002760	85.369216	0.036663	-68.937719
		0.002535	84.988269	0.984710	-2.263342	0.000000	0.000000	0.000000	0.000000
		1.000040	-2.908660	0.002535	84.988269	0.044454	-93.926061	0.002699	85.374201
		0.000000	0.000000	0.000000	0.000000	0.002464	84.962757	0.984710	-2.263342
		0.002699	85.374201	0.034757	-66.909752	0.000000	0.000000	0.000000	0.000000
		0.000000	0.000000	0.000000	0.000000	0.000000	0.000000	0.000000	0.000000
		0.000139	89.992012	1.000000	-0.007987	0.000000	0.000000	0.000000	0.000000
		0.000000	0.000000	0.000000	0.000000	1.000000	-0.007987	0.000139	89.992012
100.000001	0.049286	-94.807125	0.003065	84.855356	0.999808	-3.231387	0.002736	84.403745
		0.000000	0.000000	0.000000	0.000000	0.003065	84.855356	0.040102	-71.366889
		0.002816	84.432086	0.984577	-2.514621	0.000000	0.000000	0.000000	0.000000
		0.999808	-3.231387	0.002816	84.432086	0.049379	-94.081015	0.002998	84.860871
		0.000000	0.000000	0.000000	0.000000	0.002736	84.403745	0.984577	-2.514621
		0.002998	84.860871	0.037950	-69.364207	0.000000	0.000000	0.000000	0.000000
		0.000000	0.000000	0.000000	0.000000	0.000000	0.000000	0.000000	0.000000
		0.000155	89.991125	1.000000	-0.008875	0.000000	0.000000	0.000000	0.000000
		0.000000	0.000000	0.000000	0.000000	1.000000	-0.008875	0.000155	89.991125
110.000001	0.054198	-95.058285	0.003370	84.341708	0.999551	-3.553969	0.003008	83.844948
		0.000000	0.000000	0.000000	0.000000	0.003370	84.341708	0.043587	-73.455361
		0.003096	83.876116	0.984431	-2.765835	0.000000	0.000000	0.000000	0.000000
		0.999551	-3.553969	0.003096	83.876116	0.054301	-94.259994	0.003296	84.347746
		0.000000	0.000000	0.000000	0.000000	0.003008	83.844948	0.984431	-2.765835
		0.003296	84.347746	0.041190	-71.468533	0.000000	0.000000	0.000000	0.000000
		0.000000	0.000000	0.000000	0.000000	0.000000	0.000000	0.000000	0.000000
		0.000170	89.990237	1.000000	-0.009762	0.000000	0.000000	0.000000	0.000000
		0.000000	0.000000	0.000000	0.000000	1.000000	-0.009762	0.000170	89.990237
120.000001	0.059106	-95.327451	0.003674	83.828293	0.999270	-3.876393	0.003280	83.286387
		0.000000	0.000000	0.000000	0.000000	0.003674	83.828293	0.047107	-75.275625
		0.003375	83.320379	0.984271	-3.016979	0.000000	0.000000	0.000000	0.000000
		0.999270	-3.876393	0.003375	83.320379	0.059219	-94.456943	0.003593	83.834846
		0.000000	0.000000	0.000000	0.000000	0.003280	83.286387	0.984271	-3.016979
		0.003593	83.834846	0.044467	-73.295655	0.000000	0.000000	0.000000	0.000000
		0.000000	0.000000	0.000000	0.000000	0.000000	0.000000	0.000000	0.000000
		0.000186	89.989350	1.000000	-0.010650	0.000000	0.000000	0.000000	0.000000
		0.000000	0.000000	0.000000	0.000000	1.000000	-0.010650	0.000186	89.989350
130.000001	0.064010	-95.610419	0.003977	83.315131	0.998965	-4.198644	0.003551	82.728084
		0.000000	0.000000	0.000000	0.000000	0.003977	83.315131	0.050654	-76.881681
		0.003655	82.764898	0.984097	-3.268046	0.000000	0.000000	0.000000	0.000000
		0.998965	-4.198644	0.003655	82.764898	0.064132	-94.667666	0.003891	83.322190
		0.000000	0.000000	0.000000	0.000000	0.003551	82.728084	0.984097	-3.268046
		0.003891	83.322190	0.047773	-74.900383	0.000000	0.000000	0.000000	0.000000
		0.000000	0.000000	0.000000	0.000000	0.000000	0.000000	0.000000	0.000000
		0.000201	89.988462	1.000000	-0.011537	0.000000	0.000000	0.000000	0.000000
		0.000000	0.000000	0.000000	0.000000	1.000000	-0.011537	0.000201	89.988462
140.000001	0.068909	-95.904181	0.004280	82.802244	0.998636	-4.520708	0.003822	82.170059
		0.000000	0.000000	0.000000	0.000000	0.004280	82.802244	0.054222	-78.314360
		0.003933	82.209692	0.983910	-3.519029	0.000000	0.000000	0.000000	0.000000
		0.998636	-4.520708	0.003933	82.209692	0.069040	-94.889160	0.004188	82.809799
		0.000000	0.000000	0.000000	0.000000	0.003822	82.170059	0.983910	-3.519029
		0.004188	82.809799	0.051100	-76.324455	0.000000	0.000000	0.000000	0.000000
		0.000000	0.000000	0.000000	0.000000	0.000000	0.000000	0.000000	0.000000
		0.000217	89.987575	1.000000	-0.012425	0.000000	0.000000	0.000000	0.000000
		0.000000	0.000000	0.000000	0.000000	1.000000	-0.012425	0.000217	89.987575
150.000001	0.073803	-96.206526	0.004582	82.289652	0.998283	-4.842571	0.004092	81.612334
		0.000000	0.000000	0.000000	0.000000	0.004582	82.289652	0.057807	-79.604989
		0.004212	81.654784	0.983708	-3.769923	0.000000	0.000000	0.000000	0.000000
		0.998283	-4.842571	0.004212	81.654784	0.073944	-95.119220	0.004484	82.297693
		0.000000	0.000000	0.000000	0.000000	0.004092	81.612334	0.983708	-3.769923
		0.004484	82.297693	0.054446	-77.600073	0.000000	0.000000	0.000000	0.000000
		0.000000	0.000000	0.000000	0.000000	0.000000	0.000000	0.000000	0.000000
		0.000232	89.986687	1.000000	-0.013312	0.000000	0.000000	0.000000	0.000000
		0.000000	0.000000	0.000000	0.000000	1.000000	-0.013312	0.000232	89.986687
160.000001	0.078692	-96.515794	0.004883	81.777376	0.997906	-5.164220	0.004362	81.054929
		0.000000	0.000000	0.000000	0.000000	0.004883	81.777376	0.061405	-80.777931
		0.004489	81.100193	0.983493	-4.020721	0.000000	0.000000	0.000000	0.000000
		0.997906	-5.164220	0.004489	81.100193	0.078842	-95.356186	0.004779	81.785891
		0.000000	0.000000	0.000000	0.000000	0.004362	81.054929	0.983493	-4.020721
		0.004779	81.785891	0.057805	-78.752401	0.000000	0.000000	0.000000	0.000000
		0.000000	0.000000	0.000000	0.000000	0.000000	0.000000	0.000000	0.000000
		0.000248	89.985800	1.000000	-0.014200	0.000000	0.000000	0.000000	0.000000
		0.000000	0.000000	0.000000	0.000000	1.000000	-0.014200	0.000248	89.985800
170.000001	0.083575	-96.830712	0.005184	81.265436	0.997505	-5.485639	0.004631	80.497866
		0.000000	0.000000	0.000000	0.000000	0.005184	81.265436	0.065013	-81.852377
		0.004766	80.545940	0.983264	-4.271416	0.000000	0.000000	0.000000	0.000000
		0.997505	-5.485639	0.004766	80.545940	0.083734	-95.598789	0.005074	81.274414
		0.000000	0.000000	0.000000	0.000000	0.004631	80.497866	0.983264	-4.271416
		0.005074	81.274414	0.061176	-79.801333	0.000000	0.000000	0.000000	0.000000
		0.000000	0.000000	0.000000	0.000000	0.000000	0.000000	0.000000	0.000000
		0.000263	89.984913	1.000000	-0.015087	0.000000	0.000000	0.000000	0.000000
		0.000000	0.000000	0.000000	0.000000	1.000000	-0.015087	0.000263	89.984913
180.000001	0.088452	-97.150285	0.005483	80.753854	0.997080	-5.806816	0.004899	79.941165
		0.000000	0.000000	0.000000	0.000000	0.005483	80.753854	0.068630	-82.843626
		0.005043	79.992047	0.983022	-4.522003	0.000000	0.000000	0.000000	0.000000
		0.997080	-5.806816	0.005043	79.992047	0.088620	-95.846036	0.005369	80.763282
		0.000000	0.000000	0.000000	0.000000	0.004899	79.941165	0.983022	-4.522003
		0.005369	80.763282	0.064556	-80.762781	0.000000	0.000000	0.000000	0.000000
		0.000000	0.000000	0.000000	0.000000	0.000000	0.000000	0.000000	0.000000
		0.000279	89.984025	1.000000	-0.015975	0.000000	0.000000	0.000000	0.000000
		0.000000	0.000000	0.000000	0.000000	1.000000	-0.015975	0.000279	89.984025
190.000001	0.093322	-97.473726	0.005782	80.242648	0.996632	-6.127736	0.005167	79.384848
		0.000000	0.000000	0.000000	0.000000	0.005782	80.242648	0.072253	-83.764002
		0.005318	79.438533	0.982766	-4.772475	0.000000	0.000000	0.000000	0.000000
		0.996632	-6.127736	0.005318	79.438533	0.093499	-96.097141	0.005662	80.252513
		0.000000	0.000000	0.000000	0.000000	0.005167	79.384848	0.982766	-4.772475
		0.005662	80.252513	0.067943	-81.649599	0.000000	0.000000	0.000000	0.000000
		0.000000	0.000000	0.000000	0.000000	0.000000	0.000000	0.000000	0.000000
		0.000294	89.983138	1.000000	-0.016862	0.000000	0.000000	0.000000	0.000000
		0.000000	0.000000	0.000000	0.000000	1.000000	-0.016862	0.000294	89.983138
200.000001	0.098185	-97.800403	0.006080	79.731841	0.996160	-6.448386	0.005434	78.828934
		0.000000	0.000000	0.000000	0.000000	0.006080	79.731841	0.075880	-84.623541
		0.005593	78.885419	0.982496	-5.022826	0.000000	0.000000	0.000000	0.000000
		0.996160	-6.448386	0.005593	78.885419	0.098371	-96.351472	0.005955	79.742128
		0.000000	0.000000	0.000000	0.000000	0.005434	78.828934	0.982496	-5.022826
		0.005955	79.742128	0.071335	-82.472273	0.000000	0.000000	0.000000	0.000000
		0.000000	0.000000	0.000000	0.000000	0.000000	0.000000	0.000000	0.000000
		0.000310	89.982250	1.000000	-0.017750	0.000000	0.000000	0.000000	0.000000
		0.000000	0.000000	0.000000	0.000000	1.000000	-0.017750	0.000310	89.982250
210.000001	0.103041	-98.129801	0.006377	79.221451	0.995664	-6.768751	0.005700	78.273445
		0.000000	0.000000	0.000000	0.000000	0.006377	79.221451	0.079512	-85.430483
		0.005867	78.332726	0.982212	-5.273050	0.000000	0.000000	0.000000	0.000000
		0.995664	-6.768751	0.005867	78.332726	0.103236	-96.608516	0.006247	79.232146
		0.000000	0.000000	0.000000	0.000000	0.005700	78.273445	0.982212	-5.273050
		0.006247	79.232146	0.074732	-83.239434	0.000000	0.000000	0.000000	0.000000
		0.000000	0.000000	0.000000	0.000000	0.000000	0.000000	0.000000	0.000000
		0.000325	89.981363	1.000000	-0.018637	0.000000	0.000000	0.000000	0.000000
		0.000000	0.000000	0.000000	0.000000	1.000000	-0.018637	0.000325	89.981363
220.000001	0.107889	-98.461496	0.006673	78.711499	0.995146	-7.088819	0.005966	77.718400
		0.000000	0.000000	0.000000	0.000000	0.006673	78.711499	0.083146	-86.191658
		0.006141	77.780473	0.981916	-5.523140	0.000000	0.000000	0.000000	0.000000
		0.995146	-7.088819	0.006141	77.780473	0.108094	-96.867850	0.006538	78.722587
		0.000000	0.000000	0.000000	0.000000	0.005966	77.718400	0.981916	-5.523140
		0.006538	78.722587	0.078131	-83.958247	0.000000	0.000000	0.000000	0.000000
		0.000000	0.000000	0.000000	0.000000	0.000000	0.000000	0.000000	0.000000
		0.000341	89.980475	1.000000	-0.019525	0.000000	0.000000	0.000000	0.000000
		0.000000	0.000000	0.000000	0.000000	1.000000	-0.019525	0.000341	89.980475
230.000001	0.112730	-98.795136	0.006968	78.202005	0.994604	-7.408576	0.006230	77.163820
		0.000000	0.000000	0.000000	0.000000	0.006968	78.202005	0.086781	-86.912767
		0.006413	77.228681	0.981605	-5.773091	0.000000	0.000000	0.000000	0.000000
		0.994604	-7.408576	0.006413	77.228681	0.112943	-97.129122	0.006829	78.213469
		0.000000	0.000000	0.000000	0.000000	0.006230	77.163820	0.981605	-5.773091
		0.006829	78.213469	0.081533	-84.634703	0.000000	0.000000	0.000000	0.000000
		0.000000	0.000000	0.000000	0.000000	0.000000	0.000000	0.000000	0.000000
		0.000356	89.979588	1.000000	-0.020412	0.000000	0.000000	0.000000	0.000000
		0.000000	0.000000	0.000000	0.000000	1.000000	-0.020412	0.000356	89.979588
240.000001	0.117562	-99.130426	0.007261	77.692989	0.994039	-7.728009	0.006494	76.609726
		0.000000	0.000000	0.000000	0.000000	0.007261	77.692989	0.090418	-87.598609
		0.006685	76.677370	0.981281	-6.022896	0.000000	0.000000	0.000000	0.000000
		0.994039	-7.728009	0.006685	76.677370	0.117784	-97.392036	0.007118	77.704813
		0.000000	0.000000	0.000000	0.000000	0.006494	76.609726	0.981281	-6.022896
		0.007118	77.704813	0.084937	-85.273847	0.000000	0.000000	0.000000	0.000000
		0.000000	0.000000	0.000000	0.000000	0.000000	0.000000	0.000000	0.000000
		0.000372	89.978700	1.000000	-0.021300	0.000000	0.000000	0.000000	0.000000
		0.000000	0.000000	0.000000	0.000000	1.000000	-0.021300	0.000372	89.978700
250.000001	0.122385	-99.467115	0.007554	77.184471	0.993451	-8.047103	0.006757	76.056138
		0.000000	0.000000	0.000000	0.000000	0.007554	77.184471	0.094054	-88.253245
		0.006956	76.126559	0.980944	-6.272549	0.000000	0.000000	0.000000	0.000000
		0.993451	-8.047103	0.006956	76.126559	0.122617	-97.656343	0.007407	77.196636
		0.000000	0.000000	0.000000	0.000000	0.006757	76.056138	0.980944	-6.272549
		0.007407	77.196636	0.088340	-85.879957	0.000000	0.000000	0.000000	0.000000
		0.000000	0.000000	0.000000	0.000000	0.000000	0.000000	0.000000	0.000000
		0.000387	89.977813	1.000000	-0.022187	0.000000	0.000000	0.000000	0.000000
		0.000000	0.000000	0.000000	0.000000	1.000000	-0.022187	0.000387	89.977813
260.000001	0.127200	-99.804989	0.007845	76.676469	0.992840	-8.365847	0.007019	75.503074
		0.000000	0.000000	0.000000	0.000000	0.007845	76.676469	0.097690	-88.880138
		0.007226	75.576269	0.980594	-6.522045	0.000000	0.000000	0.000000	0.000000
		0.992840	-8.365847	0.007226	75.576269	0.127440	-97.921830	0.007694	76.688958
		0.000000	0.000000	0.000000	0.000000	0.007019	75.503074	0.980594	-6.522045
		0.007694	76.688958	0.091744	-86.456685	0.000000	0.000000	0.000000	0.000000
		0.000000	0.000000	0.000000	0.000000	0.000000	0.000000	0.000000	0.000000
		0.000403	89.976925	1.000000	-0.023075	0.000000	0.000000	0.000000	0.000000
		0.000000	0.000000	0.000000	0.000000	1.000000	-0.023075	0.000403	89.976925
270.000001	0.132005	-100.143865	0.008135	76.169005	0.992207	-8.684226	0.007280	74.950556
		0.000000	0.000000	0.000000	0.000000	0.008135	76.169005	0.101326	-89.482256
		0.007495	75.026519	0.980230	-6.771376	0.000000	0.000000	0.000000	0.000000
