! freq	mag(S11)	phase(S11)	mag(S12)	phase(S12)	mag(S13)	phase(S13)	
!     	mag(S14)	phase(S14)	mag(S15)	phase(S15)	mag(S16)	phase(S16)	
!     	mag(S21)	phase(S21)	mag(S22)	phase(S22)	mag(S23)	phase(S23)	
!     	mag(S24)	phase(S24)	mag(S25)	phase(S25)	mag(S26)	phase(S26)	
!     	mag(S31)	phase(S31)	mag(S32)	phase(S32)	mag(S33)	phase(S33)	
!     	mag(S34)	phase(S34)	mag(S35)	phase(S35)	mag(S36)	phase(S36)	
!     	mag(S41)	phase(S41)	mag(S42)	phase(S42)	mag(S43)	phase(S43)	
!     	mag(S44)	phase(S44)	mag(S45)	phase(S45)	mag(S46)	phase(S46)	
!     	mag(S51)	phase(S51)	mag(S52)	phase(S52)	mag(S53)	phase(S53)	
!     	mag(S54)	phase(S54)	mag(S55)	phase(S55)	mag(S56)	phase(S56)	
!     	mag(S61)	phase(S61)	mag(S62)	phase(S62)	mag(S63)	phase(S63)	
!     	mag(S64)	phase(S64)	mag(S65)	phase(S65)	mag(S66)	phase(S66)	
!MHT1008N Package S-parameters
#  MHz  S  MA  R 50
1.000000	0.001145	-154.509735	0.000031	89.948518	1.001033	-0.032338	0.000027	89.944001
		0.000000	0.000000	0.000000	0.000000	0.000031	89.948518	0.014730	-1.481193
		0.000028	89.944285	0.985274	-0.025157	0.000000	0.000000	0.000000	0.000000
		1.001033	-0.032338	0.000028	89.944285	0.001145	-154.460064	0.000030	89.948575
		0.000000	0.000000	0.000000	0.000000	0.000027	89.944001	0.985274	-0.025157
		0.000030	89.948575	0.014730	-1.383610	0.000000	0.000000	0.000000	0.000000
		0.000000	0.000000	0.000000	0.000000	0.000000	0.000000	0.000000	0.000000
		0.000002	89.999911	1.000000	-0.000089	0.000000	0.000000	0.000000	0.000000
		0.000000	0.000000	0.000000	0.000000	1.000000	-0.000089	0.000002	89.999911
11.000000	0.005524	-101.175480	0.000338	89.433704	1.001018	-0.355715	0.000302	89.384022
		0.000000	0.000000	0.000000	0.000000	0.000338	89.433704	0.015287	-15.900656
		0.000310	89.387143	0.985266	-0.276725	0.000000	0.000000	0.000000	0.000000
		1.001018	-0.355715	0.000310	89.387143	0.005535	-101.075845	0.000330	89.434325
		0.000000	0.000000	0.000000	0.000000	0.000302	89.384022	0.985266	-0.276725
		0.000330	89.434325	0.015221	-14.894378	0.000000	0.000000	0.000000	0.000000
		0.000000	0.000000	0.000000	0.000000	0.000000	0.000000	0.000000	0.000000
		0.000017	89.999024	1.000000	-0.000976	0.000000	0.000000	0.000000	0.000000
		0.000000	0.000000	0.000000	0.000000	1.000000	-0.000976	0.000017	89.999024
21.000000	0.010412	-96.452615	0.000645	88.918914	1.000979	-0.679075	0.000576	88.824065
		0.000000	0.000000	0.000000	0.000000	0.000645	88.918914	0.016682	-28.638262
		0.000593	88.830024	0.985243	-0.528286	0.000000	0.000000	0.000000	0.000000
		1.000979	-0.679075	0.000593	88.830024	0.010431	-96.289858	0.000631	88.920097
		0.000000	0.000000	0.000000	0.000000	0.000576	88.824065	0.985243	-0.528286
		0.000631	88.920097	0.016458	-26.987217	0.000000	0.000000	0.000000	0.000000
		0.000000	0.000000	0.000000	0.000000	0.000000	0.000000	0.000000	0.000000
		0.000033	89.998136	1.000000	-0.001864	0.000000	0.000000	0.000000	0.000000
		0.000000	0.000000	0.000000	0.000000	1.000000	-0.001864	0.000033	89.998136
31.000000	0.015327	-94.983485	0.000953	88.404168	1.000915	-1.002406	0.000850	88.264154
		0.000000	0.000000	0.000000	0.000000	0.000953	88.404168	0.018728	-39.061438
		0.000875	88.272949	0.985207	-0.779833	0.000000	0.000000	0.000000	0.000000
		1.000915	-1.002406	0.000875	88.272949	0.015357	-94.751778	0.000931	88.405913
		0.000000	0.000000	0.000000	0.000000	0.000850	88.264154	0.985207	-0.779833
		0.000931	88.405913	0.018291	-37.064031	0.000000	0.000000	0.000000	0.000000
		0.000000	0.000000	0.000000	0.000000	0.000000	0.000000	0.000000	0.000000
		0.000048	89.997249	1.000000	-0.002751	0.000000	0.000000	0.000000	0.000000
		0.000000	0.000000	0.000000	0.000000	1.000000	-0.002751	0.000048	89.997249
41.000000	0.020250	-94.403723	0.001260	87.889489	1.000827	-1.325691	0.001124	87.704310
		0.000000	0.000000	0.000000	0.000000	0.001260	87.889489	0.021237	-47.294289
		0.001157	87.715941	0.985157	-1.031361	0.000000	0.000000	0.000000	0.000000
		1.000827	-1.325691	0.001157	87.715941	0.020289	-94.101410	0.001231	87.891792
		0.000000	0.000000	0.000000	0.000000	0.001124	87.704310	0.985157	-1.031361
		0.001231	87.891792	0.020561	-45.158830	0.000000	0.000000	0.000000	0.000000
		0.000000	0.000000	0.000000	0.000000	0.000000	0.000000	0.000000	0.000000
		0.000064	89.996361	1.000000	-0.003639	0.000000	0.000000	0.000000	0.000000
		0.000000	0.000000	0.000000	0.000000	1.000000	-0.003639	0.000064	89.996361
51.000000	0.025175	-94.191983	0.001566	87.374896	1.000714	-1.648917	0.001398	87.144555
		0.000000	0.000000	0.000000	0.000000	0.001566	87.374896	0.024065	-53.756796
		0.001438	87.159021	0.985093	-1.282862	0.000000	0.000000	0.000000	0.000000
		1.000714	-1.648917	0.001438	87.159021	0.025223	-93.818372	0.001531	87.377756
		0.000000	0.000000	0.000000	0.000000	0.001398	87.144555	0.985093	-1.282862
		0.001531	87.377756	0.023139	-51.595327	0.000000	0.000000	0.000000	0.000000
		0.000000	0.000000	0.000000	0.000000	0.000000	0.000000	0.000000	0.000000
		0.000079	89.995474	1.000000	-0.004526	0.000000	0.000000	0.000000	0.000000
		0.000000	0.000000	0.000000	0.000000	1.000000	-0.004526	0.000079	89.995474
61.000000	0.030099	-94.167627	0.001873	86.860412	1.000577	-1.972069	0.001671	86.584909
		0.000000	0.000000	0.000000	0.000000	0.001873	86.860412	0.027112	-58.877337
		0.001720	86.602210	0.985015	-1.534330	0.000000	0.000000	0.000000	0.000000
		1.000577	-1.972069	0.001720	86.602210	0.030156	-93.722363	0.001831	86.863824
		0.000000	0.000000	0.000000	0.000000	0.001671	86.584909	0.985015	-1.534330
		0.001831	86.863824	0.025932	-56.739354	0.000000	0.000000	0.000000	0.000000
		0.000000	0.000000	0.000000	0.000000	0.000000	0.000000	0.000000	0.000000
		0.000094	89.994586	1.000000	-0.005414	0.000000	0.000000	0.000000	0.000000
		0.000000	0.000000	0.000000	0.000000	1.000000	-0.005414	0.000094	89.994586
71.000000	0.035022	-94.251555	0.002179	86.346057	1.000415	-2.295133	0.001945	86.025395
		0.000000	0.000000	0.000000	0.000000	0.002179	86.346057	0.030311	-62.999995
		0.002001	86.045529	0.984923	-1.785759	0.000000	0.000000	0.000000	0.000000
		1.000415	-2.295133	0.002001	86.045529	0.035089	-93.734433	0.002131	86.350017
		0.000000	0.000000	0.000000	0.000000	0.001945	86.025395	0.984923	-1.785759
		0.002131	86.350017	0.028879	-60.901676	0.000000	0.000000	0.000000	0.000000
		0.000000	0.000000	0.000000	0.000000	0.000000	0.000000	0.000000	0.000000
		0.000110	89.993699	1.000000	-0.006301	0.000000	0.000000	0.000000	0.000000
		0.000000	0.000000	0.000000	0.000000	1.000000	-0.006301	0.000110	89.993699
81.000000	0.039943	-94.403659	0.002485	85.831853	1.000229	-2.618094	0.002218	85.466034
		0.000000	0.000000	0.000000	0.000000	0.002485	85.831853	0.033618	-66.379263
		0.002283	85.488999	0.984817	-2.037142	0.000000	0.000000	0.000000	0.000000
		1.000229	-2.618094	0.002283	85.488999	0.040019	-93.814548	0.002430	85.836355
		0.000000	0.000000	0.000000	0.000000	0.002218	85.466034	0.984817	-2.037142
		0.002430	85.836355	0.031936	-64.320882	0.000000	0.000000	0.000000	0.000000
		0.000000	0.000000	0.000000	0.000000	0.000000	0.000000	0.000000	0.000000
		0.000125	89.992811	1.000000	-0.007189	0.000000	0.000000	0.000000	0.000000
		0.000000	0.000000	0.000000	0.000000	1.000000	-0.007189	0.000125	89.992811
91.000000	0.044862	-94.601435	0.002791	85.317821	1.000018	-2.940939	0.002491	84.906847
		0.000000	0.000000	0.000000	0.000000	0.002791	85.317821	0.037004	-69.198532
		0.002563	84.932642	0.984697	-2.288473	0.000000	0.000000	0.000000	0.000000
		1.000018	-2.940939	0.002563	84.932642	0.044947	-93.940248	0.002729	85.322859
		0.000000	0.000000	0.000000	0.000000	0.002491	84.906847	0.984697	-2.288473
		0.002729	85.322859	0.035074	-67.173514	0.000000	0.000000	0.000000	0.000000
		0.000000	0.000000	0.000000	0.000000	0.000000	0.000000	0.000000	0.000000
		0.000141	89.991924	1.000000	-0.008076	0.000000	0.000000	0.000000	0.000000
		0.000000	0.000000	0.000000	0.000000	1.000000	-0.008076	0.000141	89.991924
101.000000	0.049777	-94.831277	0.003096	84.803981	0.999783	-3.263651	0.002763	84.347855
		0.000000	0.000000	0.000000	0.000000	0.003096	84.803981	0.040449	-71.589696
		0.002844	84.376479	0.984563	-2.539745	0.000000	0.000000	0.000000	0.000000
		0.999783	-3.263651	0.002844	84.376479	0.049872	-94.097950	0.003027	84.809549
		0.000000	0.000000	0.000000	0.000000	0.002763	84.347855	0.984563	-2.539745
		0.003027	84.809549	0.038272	-69.589021	0.000000	0.000000	0.000000	0.000000
		0.000000	0.000000	0.000000	0.000000	0.000000	0.000000	0.000000	0.000000
		0.000156	89.991036	1.000000	-0.008964	0.000000	0.000000	0.000000	0.000000
		0.000000	0.000000	0.000000	0.000000	1.000000	-0.008964	0.000156	89.991036
111.000000	0.054689	-95.084473	0.003400	84.290356	0.999524	-3.586219	0.003035	83.789081
		0.000000	0.000000	0.000000	0.000000	0.003400	84.290356	0.043938	-73.648441
		0.003124	83.820531	0.984416	-2.790953	0.000000	0.000000	0.000000	0.000000
		0.999524	-3.586219	0.003124	83.820531	0.054793	-94.278961	0.003326	84.296446
		0.000000	0.000000	0.000000	0.000000	0.003035	83.789081	0.984416	-2.790953
		0.003326	84.296446	0.041517	-71.662692	0.000000	0.000000	0.000000	0.000000
		0.000000	0.000000	0.000000	0.000000	0.000000	0.000000	0.000000	0.000000
		0.000172	89.990149	1.000000	-0.009851	0.000000	0.000000	0.000000	0.000000
		0.000000	0.000000	0.000000	0.000000	1.000000	-0.009851	0.000172	89.990149
121.000000	0.059597	-95.355184	0.003704	83.776965	0.999241	-3.908626	0.003307	83.230545
		0.000000	0.000000	0.000000	0.000000	0.003704	83.776965	0.047461	-75.445107
		0.003403	83.264819	0.984254	-3.042089	0.000000	0.000000	0.000000	0.000000
		0.999241	-3.908626	0.003403	83.264819	0.059710	-94.477453	0.003623	83.783569
		0.000000	0.000000	0.000000	0.000000	0.003307	83.230545	0.984254	-3.042089
		0.003623	83.783569	0.044797	-73.465358	0.000000	0.000000	0.000000	0.000000
		0.000000	0.000000	0.000000	0.000000	0.000000	0.000000	0.000000	0.000000
		0.000187	89.989261	1.000000	-0.010739	0.000000	0.000000	0.000000	0.000000
		0.000000	0.000000	0.000000	0.000000	1.000000	-0.010739	0.000187	89.989261
131.000000	0.064500	-95.639351	0.004007	83.263830	0.998933	-4.230859	0.003578	82.672268
		0.000000	0.000000	0.000000	0.000000	0.004007	83.263830	0.051010	-77.032169
		0.003683	82.709365	0.984079	-3.293148	0.000000	0.000000	0.000000	0.000000
		0.998933	-4.230859	0.003683	82.709365	0.064623	-94.689372	0.003920	83.270939
		0.000000	0.000000	0.000000	0.000000	0.003578	82.672268	0.984079	-3.293148
		0.003920	83.270939	0.048104	-75.050323	0.000000	0.000000	0.000000	0.000000
		0.000000	0.000000	0.000000	0.000000	0.000000	0.000000	0.000000	0.000000
		0.000203	89.988374	1.000000	-0.011626	0.000000	0.000000	0.000000	0.000000
		0.000000	0.000000	0.000000	0.000000	1.000000	-0.011626	0.000203	89.988374
141.000000	0.069399	-95.934060	0.004310	82.750971	0.998602	-4.552904	0.003849	82.114273
		0.000000	0.000000	0.000000	0.000000	0.004310	82.750971	0.054580	-78.449365
		0.003961	82.154188	0.983890	-3.544123	0.000000	0.000000	0.000000	0.000000
		0.998602	-4.552904	0.003961	82.154188	0.069531	-94.911812	0.004217	82.758575
		0.000000	0.000000	0.000000	0.000000	0.003849	82.114273	0.983890	-3.544123
		0.004217	82.758575	0.051434	-76.458234	0.000000	0.000000	0.000000	0.000000
		0.000000	0.000000	0.000000	0.000000	0.000000	0.000000	0.000000	0.000000
		0.000218	89.987486	1.000000	-0.012514	0.000000	0.000000	0.000000	0.000000
		0.000000	0.000000	0.000000	0.000000	1.000000	-0.012514	0.000218	89.987486
151.000000	0.074293	-96.237165	0.004612	82.238410	0.998246	-4.874746	0.004119	81.556578
		0.000000	0.000000	0.000000	0.000000	0.004612	82.238410	0.058166	-79.727227
		0.004239	81.599310	0.983687	-3.795007	0.000000	0.000000	0.000000	0.000000
		0.998246	-4.874746	0.004239	81.599310	0.074434	-95.142629	0.004513	82.246499
		0.000000	0.000000	0.000000	0.000000	0.004119	81.556578	0.983687	-3.795007
		0.004513	82.246499	0.054781	-77.720489	0.000000	0.000000	0.000000	0.000000
		0.000000	0.000000	0.000000	0.000000	0.000000	0.000000	0.000000	0.000000
		0.000234	89.986599	1.000000	-0.013401	0.000000	0.000000	0.000000	0.000000
		0.000000	0.000000	0.000000	0.000000	1.000000	-0.013401	0.000234	89.986599
161.000000	0.079181	-96.547050	0.004913	81.726167	0.997867	-5.196372	0.004389	80.999207
		0.000000	0.000000	0.000000	0.000000	0.004913	81.726167	0.061765	-80.889528
		0.004517	81.044752	0.983471	-4.045795	0.000000	0.000000	0.000000	0.000000
		0.997867	-5.196372	0.004517	81.044752	0.079331	-95.380211	0.004809	81.734729
		0.000000	0.000000	0.000000	0.000000	0.004389	80.999207	0.983471	-4.045795
		0.004809	81.734729	0.058142	-78.861656	0.000000	0.000000	0.000000	0.000000
		0.000000	0.000000	0.000000	0.000000	0.000000	0.000000	0.000000	0.000000
		0.000249	89.985711	1.000000	-0.014289	0.000000	0.000000	0.000000	0.000000
		0.000000	0.000000	0.000000	0.000000	1.000000	-0.014289	0.000249	89.985711
171.000000	0.084063	-96.862474	0.005214	81.214262	0.997463	-5.517768	0.004658	80.442179
		0.000000	0.000000	0.000000	0.000000	0.005214	81.214262	0.065374	-81.955022
		0.004794	80.490535	0.983241	-4.296480	0.000000	0.000000	0.000000	0.000000
		0.997463	-5.517768	0.004794	80.490535	0.084223	-95.623319	0.005104	81.223285
		0.000000	0.000000	0.000000	0.000000	0.004658	80.442179	0.983241	-4.296480
		0.005104	81.223285	0.061514	-79.901181	0.000000	0.000000	0.000000	0.000000
		0.000000	0.000000	0.000000	0.000000	0.000000	0.000000	0.000000	0.000000
		0.000265	89.984824	1.000000	-0.015176	0.000000	0.000000	0.000000	0.000000
		0.000000	0.000000	0.000000	0.000000	1.000000	-0.015176	0.000265	89.984824
181.000000	0.088939	-97.182466	0.005513	80.702716	0.997036	-5.838920	0.004926	79.885516
		0.000000	0.000000	0.000000	0.000000	0.005513	80.702716	0.068992	-82.938671
		0.005070	79.936678	0.982997	-4.547055	0.000000	0.000000	0.000000	0.000000
		0.997036	-5.838920	0.005070	79.936678	0.089108	-95.870984	0.005398	80.712188
		0.000000	0.000000	0.000000	0.000000	0.004926	79.885516	0.982997	-4.547055
		0.005398	80.712188	0.064894	-80.854632	0.000000	0.000000	0.000000	0.000000
		0.000000	0.000000	0.000000	0.000000	0.000000	0.000000	0.000000	0.000000
		0.000280	89.983936	1.000000	-0.016064	0.000000	0.000000	0.000000	0.000000
		0.000000	0.000000	0.000000	0.000000	1.000000	-0.016064	0.000280	89.983936
191.000000	0.093808	-97.506257	0.005812	80.191549	0.996585	-6.159813	0.005194	79.329238
		0.000000	0.000000	0.000000	0.000000	0.005812	80.191549	0.072615	-83.852545
		0.005346	79.383203	0.982739	-4.797515	0.000000	0.000000	0.000000	0.000000
		0.996585	-6.159813	0.005346	79.383203	0.093986	-96.122438	0.005692	80.201457
		0.000000	0.000000	0.000000	0.000000	0.005194	79.329238	0.982739	-4.797515
		0.005692	80.201457	0.068282	-81.734597	0.000000	0.000000	0.000000	0.000000
		0.000000	0.000000	0.000000	0.000000	0.000000	0.000000	0.000000	0.000000
		0.000296	89.983049	1.000000	-0.016951	0.000000	0.000000	0.000000	0.000000
		0.000000	0.000000	0.000000	0.000000	1.000000	-0.016951	0.000296	89.983049
201.000000	0.098671	-97.833228	0.006110	79.680782	0.996111	-6.480435	0.005461	78.773366
		0.000000	0.000000	0.000000	0.000000	0.006110	79.680782	0.076243	-84.706479
		0.005621	78.830131	0.982468	-5.047854	0.000000	0.000000	0.000000	0.000000
		0.996111	-6.480435	0.005621	78.830131	0.098858	-96.377062	0.005984	79.691112
		0.000000	0.000000	0.000000	0.000000	0.005461	78.773366	0.982468	-5.047854
		0.005984	79.691112	0.071675	-82.551358	0.000000	0.000000	0.000000	0.000000
		0.000000	0.000000	0.000000	0.000000	0.000000	0.000000	0.000000	0.000000
		0.000311	89.982161	1.000000	-0.017839	0.000000	0.000000	0.000000	0.000000
		0.000000	0.000000	0.000000	0.000000	1.000000	-0.017839	0.000311	89.982161
211.000000	0.103526	-98.162873	0.006407	79.170436	0.995614	-6.800772	0.005727	78.217920
		0.000000	0.000000	0.000000	0.000000	0.006407	79.170436	0.079875	-85.508558
		0.005895	78.277480	0.982183	-5.298065	0.000000	0.000000	0.000000	0.000000
		0.995614	-6.800772	0.005895	78.277480	0.103722	-96.634353	0.006276	79.181171
		0.000000	0.000000	0.000000	0.000000	0.005727	78.217920	0.982183	-5.298065
		0.006276	79.181171	0.075072	-83.313384	0.000000	0.000000	0.000000	0.000000
		0.000000	0.000000	0.000000	0.000000	0.000000	0.000000	0.000000	0.000000
		0.000327	89.981274	1.000000	-0.018726	0.000000	0.000000	0.000000	0.000000
		0.000000	0.000000	0.000000	0.000000	1.000000	-0.018726	0.000327	89.981274
221.000000	0.108374	-98.494778	0.006702	78.660529	0.995093	-7.120809	0.005992	77.662921
		0.000000	0.000000	0.000000	0.000000	0.006702	78.660529	0.083509	-86.265486
		0.006168	77.725273	0.981885	-5.548141	0.000000	0.000000	0.000000	0.000000
		0.995093	-7.120809	0.006168	77.725273	0.108579	-96.893895	0.006567	78.671655
		0.000000	0.000000	0.000000	0.000000	0.005992	77.662921	0.981885	-5.548141
		0.006567	78.671655	0.078472	-84.027709	0.000000	0.000000	0.000000	0.000000
		0.000000	0.000000	0.000000	0.000000	0.000000	0.000000	0.000000	0.000000
		0.000342	89.980386	1.000000	-0.019614	0.000000	0.000000	0.000000	0.000000
		0.000000	0.000000	0.000000	0.000000	1.000000	-0.019614	0.000342	89.980386
231.000000	0.113213	-98.828595	0.006997	78.151082	0.994548	-7.440534	0.006257	77.108389
		0.000000	0.000000	0.000000	0.000000	0.006997	78.151082	0.087145	-86.982866
		0.006441	77.173528	0.981573	-5.798078	0.000000	0.000000	0.000000	0.000000
		0.994548	-7.440534	0.006441	77.173528	0.113428	-97.155344	0.006858	78.162583
		0.000000	0.000000	0.000000	0.000000	0.006257	77.108389	0.981573	-5.798078
		0.006858	78.162583	0.081874	-84.700220	0.000000	0.000000	0.000000	0.000000
		0.000000	0.000000	0.000000	0.000000	0.000000	0.000000	0.000000	0.000000
		0.000358	89.979499	1.000000	-0.020501	0.000000	0.000000	0.000000	0.000000
		0.000000	0.000000	0.000000	0.000000	1.000000	-0.020501	0.000358	89.979499
241.000000	0.118044	-99.164036	0.007290	77.642115	0.993981	-7.759933	0.006521	76.554344
		0.000000	0.000000	0.000000	0.000000	0.007290	77.642115	0.090781	-87.665415
		0.006712	76.622266	0.981248	-6.047868	0.000000	0.000000	0.000000	0.000000
		0.993981	-7.759933	0.006712	76.622266	0.118268	-97.418408	0.007147	77.653973
		0.000000	0.000000	0.000000	0.000000	0.006521	76.554344	0.981248	-6.047868
		0.007147	77.653973	0.085277	-85.335880	0.000000	0.000000	0.000000	0.000000
		0.000000	0.000000	0.000000	0.000000	0.000000	0.000000	0.000000	0.000000
		0.000373	89.978611	1.000000	-0.021389	0.000000	0.000000	0.000000	0.000000
		0.000000	0.000000	0.000000	0.000000	1.000000	-0.021389	0.000373	89.978611
251.000000	0.122867	-99.500852	0.007583	77.133647	0.993391	-8.078994	0.006783	76.000807
		0.000000	0.000000	0.000000	0.000000	0.007583	77.133647	0.094418	-88.317130
		0.006983	76.071506	0.980910	-6.297506	0.000000	0.000000	0.000000	0.000000
		0.993391	-8.078994	0.006983	76.071506	0.123099	-97.682842	0.007436	77.145845
		0.000000	0.000000	0.000000	0.000000	0.006783	76.000807	0.980910	-6.297506
		0.007436	77.145845	0.088681	-85.938897	0.000000	0.000000	0.000000	0.000000
		0.000000	0.000000	0.000000	0.000000	0.000000	0.000000	0.000000	0.000000
		0.000389	89.977724	1.000000	-0.022276	0.000000	0.000000	0.000000	0.000000
		0.000000	0.000000	0.000000	0.000000	1.000000	-0.022276	0.000389	89.977724
261.000000	0.127681	-99.838835	0.007874	76.625699	0.992778	-8.397701	0.007045	75.447798
		0.000000	0.000000	0.000000	0.000000	0.007874	76.625699	0.098054	-88.941420
		0.007253	75.521269	0.980558	-6.546985	0.000000	0.000000	0.000000	0.000000
		0.992778	-8.397701	0.007253	75.521269	0.127922	-97.948436	0.007723	76.638218
		0.000000	0.000000	0.000000	0.000000	0.007045	75.447798	0.980558	-6.546985
		0.007723	76.638218	0.092085	-86.512866	0.000000	0.000000	0.000000	0.000000
		0.000000	0.000000	0.000000	0.000000	0.000000	0.000000	0.000000	0.000000
		0.000404	89.976836	1.000000	-0.023164	0.000000	0.000000	0.000000	0.000000
		0.000000	0.000000	0.000000	0.000000	1.000000	-0.023164	0.000404	89.976836
271.000000	0.132485	-100.177801	0.008164	76.118289	0.992142	-8.716044	0.007306	74.895335
		0.000000	0.000000	0.000000	0.000000	0.008164	76.118289	0.101689	-89.541207
		0.007522	74.971574	0.980193	-6.796300	0.000000	0.000000	0.000000	0.000000
